! Created with skrf 1.8.0 (http://scikit-rf.org).
# Hz S RI R 50.0 
!freq ReS11 ImS11
50000.0 1.0668660523549973 0.2646653135302447
15049500.0 -0.1734859991272796 -0.22787179377647618
30049000.0 -4.472356401263662 -0.41352684846196075
45048500.0 -0.03132266765384084 0.03517831713646969
60048000.0 -1.6950725200058292 -0.6220239820174776
75047500.0 -2.5324111788407397 -1.2509929928479502
90047000.0 -4.624571024201873 1.9161806375965325
105046500.0 -0.48747420901319244 -0.008708971735498932
120046000.0 -2.1023051759901836 -2.5517433147404085
135045500.0 0.4153222383765205 0.29910433962739946
150045000.0 -0.8193067826847871 -0.5164307326065166
165044500.0 -0.10517359672395521 -1.1186194876260658
180044000.0 0.7571790032729956 1.8639073666901347
195043500.0 -2.946639902495219 0.8441243925293533
210043000.0 -0.48256222476052074 0.3421660177766916
225042500.0 0.315273640644433 -0.32097698306103345
240042000.0 -0.6030255324143127 0.11548058642515388
255041500.0 0.48737394354570135 -0.8236415195752129
270041000.0 -4.3149994048826095 -2.4874824998656244
285040500.0 -4.26847420332403 3.405660094983445
300040000.0 0.027214776202121004 -1.138753417319058
315039500.0 4.827836683778106 0.6539580296789266
330039000.0 -5.87152567325732 0.5948385105214574
345038500.0 0.1849552214930525 0.7802485413960443
360038000.0 1.17724013910029 -0.7397324318029737
375037500.0 -0.09710368915860941 -1.1195717719290983
390037000.0 0.314444938178947 0.19028460141954073
405036500.0 0.8597867374183893 -1.3869478467196534
420036000.0 0.5800832964540392 0.21121694944111444
435035500.0 -1.1805250393094073 -0.8743302227610418
450035000.0 2.37781177540911 -7.095596744500585
465034500.0 3.740799230702211 -1.8413741210264323
480034000.0 -3.3596591891744336 1.6490023917694157
495033500.0 0.22240042236812205 -1.022717130273052
510033000.0 1.844600806820634 -2.2104454113030805
525032500.0 -0.8040537017766348 1.013763583088456
540032000.0 -0.3244382562210908 -2.582451228029955
555031500.0 -0.7836737063680536 1.9847205016974188
570031000.0 -0.49908116293417953 -0.04191214181802226
585030500.0 0.6630664227023655 -2.475115584157936
600030000.0 0.006333655652112654 -1.143856036427876
615029500.0 -0.8775844748785729 0.26861744123935033
630029000.0 4.406199249900309 0.9194094458716422
645028500.0 1.0332864093475747 1.1414680723959114
660028000.0 -0.12937931252698626 -0.24555980841595235
675027500.0 -1.618840480324273 0.13371448106279088
690027000.0 2.3904942090639647 1.0743420898495983
705026500.0 -0.4057326499061308 0.019579096742756406
720026000.0 -1.3035406195315928 0.07993220356351444
735025500.0 1.3577108193736802 2.70738332299247
750025000.0 -0.5786656424003166 -1.7550845921009604
765024500.0 0.4608221105285444 -0.41778231836415824
780024000.0 -0.3549061488009435 -2.4504824218672407
795023500.0 -0.13979541483685065 1.0068825680040536
810023000.0 -1.1778194120253214 -1.1314039881986984
825022500.0 5.248850391835493 -3.77408569389824
840022000.0 0.15892311602456796 -0.40053693511711896
855021500.0 0.45620771260985193 -2.131798761392429
870021000.0 1.3816857821573032 0.18153252363978045
885020500.0 0.07027618101794558 1.508684950830631
900020000.0 0.24231931827689202 0.0498025127259822
915019500.0 -0.7459712058598645 -0.7079082462606665
930019000.0 -0.8766419504372496 0.08782710350340375
945018500.0 1.0886659873784887 1.5193907236650215
960018000.0 -1.2605884506152203 0.0817676465507187
975017500.0 0.33449303790351614 0.8712800953019895
990017000.0 1.0282088205317135 -0.5008380902718903
1005016500.0 -17.528856497455337 7.918747233874567
1020016000.0 0.18177176813203846 0.4404976842254096
1035015500.0 -1.3282339705860076 -12.671720925091991
1050015000.0 -0.09416720346779492 1.6729137269839753
1065014500.0 0.2814471013934338 -0.12217731319190026
1080014000.0 -0.3692535193365659 -1.0061414058589178
1095013500.0 0.5768402319717805 0.11739285035524882
1110013000.0 -0.7113719304766756 1.7092942452722208
1125012500.0 1.341670685987561 -0.6362489298529872
1140012000.0 -0.9029046712644687 0.4619398316684455
1155011500.0 0.07368488469791508 1.0719451570947072
1170011000.0 -0.8394582240382737 -0.7358309846130212
1185010500.0 -0.4784475238824725 1.2497632787059754
1200010000.0 -0.05625519248332011 -1.2556389593075332
1215009500.0 -5.005918773426273 -5.676518796816894
1230009000.0 2.8075833274683033 -2.5941250268749245
1245008500.0 0.7900772492320084 3.5915619074837455
1260008000.0 0.4510829232620971 -0.34629804872894554
1275007500.0 -1.9729377958856398 1.1770375916609825
1290007000.0 2.3902313479550434 -0.21054261755464346
1305006500.0 -1.015154693014468 1.4184642806575973
1320006000.0 -1.2301163619326139 -2.1762895573435244
1335005500.0 0.2987099792145359 -0.0881505864804691
1350005000.0 -2.2061731084876826 3.7393028383684093
1365004500.0 0.429968571790177 2.0591659108698592
1380004000.0 0.561718543839584 0.42014893575047135
1395003500.0 0.11254142328975617 -0.572934109828153
1410003000.0 -0.7084160474144576 0.6496847696133073
1425002500.0 6.440769928416194 10.270109268993938
1440002000.0 0.3297138924023357 -1.6740721028496375
1455001500.0 0.601746079037312 -3.204062363672019
1470001000.0 -0.6309298767275087 -2.7342892464657926
1485000500.0 -12.90131957237871 -6.415181048066696
1500000000.0 1.6697901125600558 -0.864161475591307
