! Created with skrf 1.8.0 (http://scikit-rf.org).
# Hz S RI R 50.0 
!freq ReS11 ImS11
50000.0 -8.473895688888719e-05 3.4080036232101106e-05
15049500.0 -2.2924424944943467e-05 -2.8386129441114673e-05
30049000.0 9.442977210093202e-05 0.00024560143670927673
45048500.0 4.439703467638111e-05 -4.968568781369437e-05
60048000.0 -8.882885555404589e-05 0.00010853697178645443
75047500.0 0.0003053440411383059 4.8477162976920645e-05
90047000.0 0.0003030971215651945 -0.00011689368413517152
105046500.0 4.943957133691745e-05 -1.22265746406818e-05
120046000.0 0.00011961296815191067 -0.00045013251071061313
135045500.0 -0.00011001708685254504 2.9311598845654723e-05
150045000.0 -3.399768954605734e-05 3.366997739548283e-05
165044500.0 -3.96370458854081e-05 -0.00015910435095793762
180044000.0 2.2582514331090682e-05 0.00030605789320758205
195043500.0 -0.0001646872436247806 0.00034411078950962387
210043000.0 -4.05731746951571e-05 5.809944626931568e-05
225042500.0 3.832055707871731e-05 3.844058620201553e-05
240042000.0 3.948967147330388e-05 6.291522082052179e-06
255041500.0 9.993237003141259e-05 1.0393940763026208e-05
270041000.0 -0.00021035499316022938 -0.00010191497768625746
285040500.0 -0.00019823253541444255 0.0005921540542756776
300040000.0 -0.0006135613232911424 -7.832526432870422e-05
315039500.0 -0.003502787984900454 0.0013178001126453738
330039000.0 0.0018083178724276143 0.001808989645751625
345038500.0 -2.510724917079504e-05 0.0009413690078984659
360038000.0 -0.0008418658725252299 -0.0010364039646920354
375037500.0 0.0004462238270477826 -0.0006008169309936138
390037000.0 -0.00025977637273072413 -0.000306219311784389
405036500.0 0.00011000249360247368 -0.0009399193060861115
420036000.0 -2.2429075784292387e-05 0.00022419275151607077
435035500.0 -0.00017444347206734795 -0.0004763618393949481
450035000.0 -0.004125347441579332 0.004781501107581897
465034500.0 -0.0025574895747137775 0.0019001213000317116
480034000.0 -0.00028251826637523285 0.003867956226297087
495033500.0 -0.00048453258246114304 -0.0018085919869425054
510033000.0 0.0027103666252790643 -0.000567083738539391
525032500.0 0.001283205657252817 -0.00018260542588376103
540032000.0 0.000691521004252562 -0.003687906640010409
555031500.0 0.0025155913465964444 -0.00061957630258237
570031000.0 3.553688563412998e-05 0.0007331410113073528
585030500.0 0.002981382189413449 -0.002663137972857068
600030000.0 0.0011227828974653437 -0.0016740633756373421
615029500.0 0.0004970195605256549 -9.139307994884038e-05
630029000.0 0.005490879594435361 -0.004068187298997333
645028500.0 0.0013339368731445668 0.0019024380078604785
660028000.0 -0.00047719812367276226 -0.000752946666531278
675027500.0 0.0005171264681121121 -0.0001337830924083966
690027000.0 0.002431366010830033 0.00045119179549189223
705026500.0 -0.00013027906296039497 -0.0005203871027549592
720026000.0 0.00037057885266888736 -0.0001887523428158993
735025500.0 0.004311195885099589 -0.001133852811828232
750025000.0 -0.0010839329031436518 -0.0018512874956365568
765024500.0 0.00020259021467077424 0.000248816981665205
780024000.0 -0.024103858903666255 0.0018298406607560199
795023500.0 -0.001394531106989926 0.0010295712423681416
810023000.0 0.00046050540451715523 0.002067276186029538
825022500.0 -0.008328005129762327 0.003155104580715414
840022000.0 -0.0006525718641409316 -0.0003375202665934717
855021500.0 -0.001179606211401856 -0.0003751666618687687
870021000.0 6.512168395933805e-07 0.0010032176866234563
885020500.0 -0.0024690403816729828 -0.0027296161306079553
900020000.0 -0.0003194739353234795 -0.0031468106791714746
915019500.0 -0.004826253206542574 0.0002488364269505725
930019000.0 -0.0005611607609719586 0.000412704332065507
945018500.0 -0.026008022965722473 0.007022118250955901
960018000.0 0.0018676727618798415 0.0006301237119576518
975017500.0 0.007142044550347618 0.008059770827932557
990017000.0 -0.00385310065880439 0.002161895926475156
1005016500.0 0.06351954495367906 -0.16452713255340112
1020016000.0 -0.00293400510444945 0.005711963200989236
1035015500.0 0.00015147516629481246 -0.14582608384399878
1050015000.0 0.00991829366301235 -0.0034239924955362564
1065014500.0 -0.001576339059563984 0.003941995648678182
1080014000.0 0.006744160035438329 0.006186175098678256
1095013500.0 0.0006191664115871484 -0.0018009906386841352
1110013000.0 -0.009156018151363719 -0.0027262233452656224
1125012500.0 -0.00136958854223729 -0.0051191745742136035
1140012000.0 0.00425466402586049 0.002001394085989916
1155011500.0 0.013595796082822091 0.00566588790363426
1170011000.0 0.002615906843904611 0.007495691134491379
1185010500.0 0.008625781653329246 -0.0145381243445891
1200010000.0 0.00484878611131101 0.022597709521181463
1215009500.0 -0.08700588484070579 0.0405470251672127
1230009000.0 -0.02538060754227193 0.011567147275696998
1245008500.0 0.05089921932715411 -0.021703287506494372
1260008000.0 -0.011430812291807852 -0.0005793805974404231
1275007500.0 0.007699267839826154 0.01816459821036774
1290007000.0 0.02327457012176652 0.01763354981926369
1305006500.0 0.0332153494889112 -0.0034570197040748084
1320006000.0 -0.010013461099314187 0.03293430462297683
1335005500.0 0.0020386104192298745 0.01025076491792186
1350005000.0 -0.055795576130235953 0.09993083437695179
1365004500.0 0.008923848298911474 -0.03155957833979391
1380004000.0 -0.003184326610264402 -0.010553863315764694
1395003500.0 0.010829815308058916 0.00428677933139905
1410003000.0 0.01477720598497188 -0.02806578278340001
1425002500.0 -0.45138936658993056 0.28706441562526924
1440002000.0 -0.039125752702694715 -0.014962402854612844
1455001500.0 -0.061271548626110006 -0.0986092464444662
1470001000.0 0.018777149335922137 0.07914307544211861
1485000500.0 0.33415980460846956 -0.20684820235991944
1500000000.0 -0.02278233486968761 -0.00566933363081073
