! Created with skrf 1.8.0 (http://scikit-rf.org).
# Hz S RI R 50.0 
!freq ReS11 ImS11
50000.0 0.997794368 0.001538721
15049500.0 0.939680512 0.360799328
30049000.0 0.74982336 0.672692736
45048500.0 0.461594528 0.892393856
60048000.0 0.103166016 1.013623714
75047500.0 -0.273590112 0.988159168
90047000.0 -0.619549312 0.819852352
105046500.0 -0.891134656 0.546028224
120046000.0 -1.04211402 0.184848128
135045500.0 -1.046242236 -0.209157232
150045000.0 -0.91464832 -0.58608096
165044500.0 -0.64771072 -0.884892032
180044000.0 -0.31420432 -1.0446198
195043500.0 0.064588392 -1.101236704
210043000.0 0.435088128 -1.022128106
225042500.0 0.752586368 -0.82070048
240042000.0 0.995019584 -0.539937216
255041500.0 1.13615704 -0.187101536
270041000.0 1.151134736 0.222816448
285040500.0 1.021881342 0.63353728
300040000.0 0.685508032 0.956252288
315039500.0 0.3179024 1.191311008
330039000.0 -0.137808272 1.257833488
345038500.0 -0.59924832 1.140247232
360038000.0 -0.96785056 0.868726464
375037500.0 -1.253187056 0.477983328
390037000.0 -1.366154432 -0.004452111
405036500.0 -1.292174688 -0.519315904
420036000.0 -1.03504598 -0.967000512
435035500.0 -0.632047488 -1.27154912
450035000.0 -0.164239328 -1.392889728
465034500.0 0.303355392 -1.380795232
480034000.0 0.728876928 -1.211919904
495033500.0 1.074383136 -0.919471616
510033000.0 1.317725312 -0.526230944
525032500.0 1.407838464 -0.0638007
540032000.0 1.358583584 0.38339504
555031500.0 1.153113248 0.80312288
570031000.0 0.814922496 1.113485696
585030500.0 0.39687184 1.278993024
600030000.0 -0.05415108 1.340515744
615029500.0 -0.501010464 1.228624112
630029000.0 -0.878346176 0.958343872
645028500.0 -1.166560656 0.580215872
660028000.0 -1.314547904 0.108738344
675027500.0 -1.267923472 -0.393200128
690027000.0 -1.016108394 -0.864278464
705026500.0 -0.605229888 -1.16656816
720026000.0 -0.13400164 -1.270807392
735025500.0 0.317127776 -1.204214336
750025000.0 0.708604928 -0.997303104
765024500.0 1.002088785 -0.654525248
780024000.0 1.178942448 -0.225577968
795023500.0 1.103731272 0.213482432
810023000.0 0.860866368 0.552327232
825022500.0 0.559731392 0.7385776
840022000.0 0.277655616 0.7796384
855021500.0 0.056652652 0.760028992
870021000.0 -0.126510304 0.732742272
885020500.0 -0.298846976 0.71979136
900020000.0 -0.524105088 0.73383584
915019500.0 -0.50939376 0.73278912
930019000.0 -0.488220064 0.738386816
945018500.0 -0.468541472 0.744324608
960018000.0 -0.452982304 0.75484128
975017500.0 -0.426671712 0.746794304
990017000.0 -0.41450384 0.755638144
1005016500.0 -0.397447104 0.759915136
1020016000.0 -0.383220416 0.770674304
1035015500.0 -0.352926784 0.781454464
1050015000.0 -0.351824512 0.781186816
1065014500.0 -0.307424352 0.791440576
1080014000.0 -0.274455264 0.797614016
1095013500.0 -0.250846928 0.797818368
1110013000.0 -0.227877552 0.793257024
1125012500.0 -0.209769712 0.77453888
1140012000.0 -0.179585904 0.795562112
1155011500.0 -0.155826224 0.779914944
1170011000.0 -0.13282804 0.807149952
1185010500.0 -0.105799264 0.809904128
1200010000.0 -0.070007056 0.820515648
1215009500.0 -0.04700878 0.808161792
1230009000.0 -0.018467108 0.806881344
1245008500.0 0.020574648 0.817984896
1260008000.0 0.052250212 0.805623744
1275007500.0 0.083282688 0.808079296
1290007000.0 0.121875328 0.802497536
1305006500.0 0.14407808 0.799285504
1320006000.0 0.175425904 0.791204736
1335005500.0 0.20915896 0.788224
1350005000.0 0.23984536 0.771254528
1365004500.0 0.316223232 0.739220352
1380004000.0 0.305362592 0.736452928
1395003500.0 0.330308288 0.727872576
1410003000.0 0.358347072 0.708227904
1425002500.0 0.353334176 0.714361152
1440002000.0 0.397895488 0.66725056
1455001500.0 0.413593056 0.66278272
1470001000.0 0.440895712 0.657085248
1485000500.0 0.445929856 0.62871008
1500000000.0 0.485461632 0.618356864
