! Created with skrf 1.8.0 (http://scikit-rf.org).
# Hz S RI R 50.0 
!freq ReS11 ImS11
50000.0 1.4247371314601576 1.6816769329774672
15049500.0 -0.5930731159760815 -0.7788552509104767
30049000.0 -0.14121864585067315 -0.86832134713205
45048500.0 1.0497980114008325 0.12028721684107754
60048000.0 -0.25168484563912097 -0.8341655872720516
75047500.0 0.3135409728430398 -0.6643211865546675
90047000.0 10.280372068976845 -17.31295911117473
105046500.0 -0.1218468865768681 -0.45184335861774455
120046000.0 -4.240822650408626 -10.598062563611068
135045500.0 2.122618627149248 0.6692473857594539
150045000.0 -0.44979479417198265 -0.08906242986535075
165044500.0 -0.4370056154833975 -0.43318664829133763
180044000.0 -1.5622378784254085 1.5787527545351552
195043500.0 0.6855908573329579 -2.1196131381368932
210043000.0 -0.37599615477748305 1.36343983519228
225042500.0 -1.0092965841982433 0.27137301414558296
240042000.0 -0.5918950275401085 -1.7078415769667836
255041500.0 -0.13513454085619162 -0.5710094926860219
270041000.0 1.0086245913424772 1.3427747177769649
285040500.0 0.035348515515667 -0.30795192173640024
300040000.0 -0.7188639461037409 2.70711091104418
315039500.0 1.4745702494381145 0.34756414390181045
330039000.0 0.27222891775227565 -0.8838017718372387
345038500.0 1.6225035604195643 -2.923781628787665
360038000.0 1.658509097147585 2.1677918084242327
375037500.0 1.3717402691608693 1.0622064955810975
390037000.0 -0.8689368236123414 -1.4793411889761796
405036500.0 1.3083390557553038 0.7627155602909617
420036000.0 1.0542086433951314 -1.9203714761278587
435035500.0 1.4899751419021803 1.0349112091596073
450035000.0 -0.3268926092381408 -0.5305481166213949
465034500.0 1.6649398637457853 -0.6837846392119136
480034000.0 0.7795491786591326 -0.09653116683452159
495033500.0 -3.380355043625901 -0.004616066307261413
510033000.0 1.2197953070087628 -0.7977066109767789
525032500.0 -1.027702791828854 1.5175163205241164
540032000.0 1.450156609741606 -0.6183971903968442
555031500.0 0.28804719893256103 -1.8550967679391355
570031000.0 0.22923005496193194 0.0918895226782411
585030500.0 1.5155341590942286 6.486163280042879
600030000.0 1.0198935559932896 -0.47020642584893724
615029500.0 0.8600556334302283 -4.478745274178803
630029000.0 0.8670969487282917 2.5794367350113374
645028500.0 -0.49558948817897486 1.3448732628759155
660028000.0 0.5070248597265791 3.8687916033150516
675027500.0 8.077057307826927 -18.57321375386721
690027000.0 -0.08072613506288885 2.21278469426378
705026500.0 -3.756829875279858 -0.8688030742781877
720026000.0 2.9855337734120324 -0.09503387887883073
735025500.0 -0.09090828160443773 3.6510837379078387
750025000.0 1.4346738413439173 -0.9516240961667695
765024500.0 0.9974834136844324 0.4437786407849791
780024000.0 1.826483865778524 -2.4781606451781655
795023500.0 0.24985887291289263 -0.31812668031645486
810023000.0 1.0173384656267208 -0.5214906377231585
825022500.0 -8.289345232208047 1.2538197762254077
840022000.0 1.134143347333774 -0.658050256852808
855021500.0 0.863434060071919 -0.16116086384615533
870021000.0 0.7488643532085878 -0.5662717615358113
885020500.0 0.5697355810915281 -0.699757081857774
900020000.0 1.1531014720470865 -0.022996434606087805
915019500.0 33.99978993697382 -41.16446576866302
930019000.0 1.751902179038482 -1.1394363330073058
945018500.0 -0.34944327383814294 -0.38584033513409405
960018000.0 -2.4283735574953687 -2.5643063863492794
975017500.0 -2.0310364184706864 -0.8116651425861908
990017000.0 -5.554113785277016 0.5191717895524998
1005016500.0 0.3473320434193923 0.13909870854514397
1020016000.0 -0.01447550351433554 -0.033036179324020434
1035015500.0 -0.8145565250376994 0.3310439083737449
1050015000.0 1.1873601184552258 0.7558692569332647
1065014500.0 2.062525446143389 -0.5102805373209649
1080014000.0 -1.3209055388793791 2.1800056674996893
1095013500.0 -1.7709494451678842 0.24126894212134892
1110013000.0 0.39602726454232634 0.09206905380721296
1125012500.0 -5.3691605799270175 -5.637112833473142
1140012000.0 -1.2124567793591483 0.4683873964001018
1155011500.0 -0.25957952106055937 0.5007835804582397
1170011000.0 1.51132179785649 1.7358306821194431
1185010500.0 0.3002946298332742 -1.7951054881141355
1200010000.0 0.36346918951450075 0.9887494359459117
1215009500.0 0.6241668608587261 0.07448808208507236
1230009000.0 0.5693726435303846 -2.850550837915751
1245008500.0 0.8777026104948817 3.1838185687856693
1260008000.0 -2.097178299075646 -0.9461111535297907
1275007500.0 -0.1301295247504961 -0.32710510696797684
1290007000.0 0.6855141136631135 0.16256005306219948
1305006500.0 -1.8770367392499838 -0.048669481001535855
1320006000.0 -0.8870910811505456 -0.36156054686629824
1335005500.0 -0.2695608483551002 -0.0051814053087529295
1350005000.0 0.4880805336530331 0.5842077390221214
1365004500.0 -0.6236334252137 1.253470444444677
1380004000.0 0.028400592876632276 0.6375344248259512
1395003500.0 -1.128307724804719 -0.7567380829712824
1410003000.0 1.7462546799962246 0.6265911332470592
1425002500.0 2.3367939439220953 -0.874013220855007
1440002000.0 0.08133364081280862 -0.5793549868322931
1455001500.0 -0.3686989849551069 -1.1414761894211858
1470001000.0 -0.7986256373775086 -0.4924746029730353
1485000500.0 1.2818623834299467 -0.2187320205865016
1500000000.0 2.1368065195592587 1.95507903162623
