! Created with skrf 1.8.0 (http://scikit-rf.org).
# Hz S RI R 50.0 
!freq ReS11 ImS11
50000.0 5.262114946733922e-05 0.002129787961076725
15049500.0 0.0001814846912831431 0.0003649416305871706
30049000.0 -0.00030048177891605173 -3.719431734797672e-05
45048500.0 -1.428281890965207e-05 -2.0189059561988855e-05
60048000.0 -0.00017916274713104704 2.626717816967648e-05
75047500.0 -6.550446387369461e-05 -0.0001082285185028831
90047000.0 -0.0004520168759700212 0.00806793663673222
105046500.0 -0.0001029203316281743 2.7731169518207643e-06
120046000.0 -0.000624733396851916 0.004016504319676071
135045500.0 -0.0023392972736932492 -0.0013382575270040387
150045000.0 6.953357142172104e-05 4.916356631390487e-05
165044500.0 -0.00023437406371357066 -0.00022826405587597173
180044000.0 0.00036271642126374314 0.00043390581946883806
195043500.0 0.000809316911202953 -0.00020184623978452158
210043000.0 -0.00043021799563565155 -0.000760910255208592
225042500.0 -0.00013234518417064287 0.00011175882654694789
240042000.0 -0.00033712002885137056 0.0007875178533280235
255041500.0 -0.00029191062531865676 0.0003895184612519018
270041000.0 -0.0008913089618010097 0.0009679646750252286
285040500.0 6.862119051951812e-05 -0.0009345884088355298
300040000.0 0.00437229412293142 -0.0018972609879155259
315039500.0 0.000435731130811368 -0.0016753745145358108
330039000.0 0.0016566001418060964 -0.0013176499177379793
345038500.0 -0.013231164930050075 0.011649067940682637
360038000.0 0.009475937032945457 -0.000590384646417143
375037500.0 0.00014584895558150075 0.0031964319557574363
390037000.0 0.011784730886806559 -0.012973743336565747
405036500.0 -0.0036715827879587023 -0.002995161219800161
420036000.0 -0.0020335036751903493 0.006058188950545198
435035500.0 -0.003248238775849673 -0.0011656112713911287
450035000.0 0.009773486183108249 0.0063059325685080846
465034500.0 -0.0021412108759276444 -0.0007731725854147733
480034000.0 -0.00035685183129330653 -0.0011225341439032959
495033500.0 0.0003509550375450628 0.006916152148924555
510033000.0 0.0007643646387698437 0.0015074303479793631
525032500.0 -0.008805023237451824 -0.001895072896477046
540032000.0 -0.0022525095581850214 -0.002314607891266201
555031500.0 0.003090592850327035 -0.0013109534040564638
570031000.0 -0.0033856458824107986 0.0008725516863158765
585030500.0 0.052924263689602034 0.03089485333439433
600030000.0 -0.003309871742903999 -0.0007451240219949281
615029500.0 0.011069493622519166 0.005364678787437397
630029000.0 0.008244417923715098 -0.009073871328922107
645028500.0 -0.003353299255683874 0.008655488161643486
660028000.0 -0.010057923800280751 -0.01936248501020006
675027500.0 -0.06887530794953656 0.05897351899176006
690027000.0 -0.016586667465918685 0.012730510779065363
705026500.0 0.00903312035000374 0.0030526863452014657
720026000.0 0.0062373975117344625 -0.00738266159969088
735025500.0 -0.023679502213792877 0.006023689958972725
750025000.0 0.0023883068333819145 0.009307945604726853
765024500.0 -3.306855406762166e-05 0.0013286425073107918
780024000.0 0.09410190392629535 -0.10144011477108464
795023500.0 0.00024193124159576336 -0.002606022489264392
810023000.0 0.0019733071767278655 0.0010036250708511528
825022500.0 -0.016137940139728572 -0.03901398219744338
840022000.0 0.0022559826316962974 0.0017232459344922197
855021500.0 -0.00020285974495850003 -8.134043142610166e-05
870021000.0 -0.0013473763891678574 -0.000767701478765564
885020500.0 0.005266525690117636 -0.0011105654043372447
900020000.0 0.0007418208138543393 -0.0018740653647035639
915019500.0 -0.575862198719368 -0.08177468091308168
930019000.0 -0.010979597981939742 -0.001268049134282931
945018500.0 -0.0017389374311746668 -0.004365747128245361
960018000.0 0.01322696448663997 -0.0029558041422432665
975017500.0 -0.028384299807388467 0.0031347033521108916
990017000.0 -0.01949709945212531 0.024933992685055355
1005016500.0 -0.004085167637470309 0.003106011120252684
1020016000.0 -0.001166995539668953 0.007827986344503353
1035015500.0 -0.0033643743360285403 0.00021035987664497807
1050015000.0 0.016759103235125198 -0.0213031580304814
1065014500.0 -0.008555350804407178 0.010448338638209542
1080014000.0 -0.023710194221993847 0.014553579074969042
1095013500.0 -0.0053593043878898865 -0.001885930698998036
1110013000.0 -0.00497147130089978 0.0005954044810809359
1125012500.0 -0.06500777644777846 -6.59699081106984e-05
1140012000.0 -0.002041466434970805 -0.002336130088871046
1155011500.0 -0.012405538038169645 -0.01398080825740452
1170011000.0 -0.0026161627400722145 -0.03906853183232858
1185010500.0 0.0029210844607695375 0.005715997348399956
1200010000.0 -0.018285450879960835 0.0053814282036071985
1215009500.0 -0.0010963528379306215 0.004496951393023732
1230009000.0 -0.034677964423002874 -0.005066109099212109
1245008500.0 -0.03466726619443557 0.02211818314978329
1260008000.0 -0.020667538706545065 0.007145960476756904
1275007500.0 0.0035267772937580765 0.006467400435660801
1290007000.0 0.001018022226310944 0.005683102531695029
1305006500.0 0.009682221593927252 0.002632394936014718
1320006000.0 0.0021352948461927264 0.0008488438139929045
1335005500.0 0.002335043998537454 0.006732098616976986
1350005000.0 0.0057047905602859925 0.016528495818094433
1365004500.0 -0.011821359424367978 0.09206267181087524
1380004000.0 0.006485391824883407 0.02048497438687547
1395003500.0 -0.015574890037208671 -0.004996324911056722
1410003000.0 0.020138313319138783 0.007361792596551699
1425002500.0 -0.026351481923816037 0.027314680834189434
1440002000.0 -0.01308401272036862 -0.010396010926795858
1455001500.0 0.013916161794569271 -0.02297951346421045
1470001000.0 0.014371697858134516 0.009251755170951712
1485000500.0 -0.0013738659398960964 0.007886886682341701
1500000000.0 0.01727816871552536 -0.007233045745715453
