! Created with skrf 1.8.0 (http://scikit-rf.org).
# Hz S RI R 50.0 
!freq ReS11 ImS11
50000.0 0.007962665468485139 0.0006399306305016198
9049500.0 0.009655355119123308 0.0012004322071628077
18049000.0 0.010655895268010212 0.0015428126092081244
27048500.0 0.011962742744928031 0.0015849613369739678
36048000.0 0.013556036204360343 0.0014511780402474345
45047500.0 0.015407842985642302 0.0008849908679919044
54047000.0 0.016938387107422122 4.074604364186687e-05
63046500.0 0.019332287700848633 -0.0010695498002886562
72046000.0 0.021038633268860428 -0.002330305274148668
81045500.0 0.022888901358311682 -0.003709028750714535
90045000.0 0.024662720277160512 -0.0064365601483915074
99044500.0 0.025782878702709636 -0.009018230862728835
108044000.0 0.02652070905502254 -0.010739404034664854
117043500.0 0.026956533526098572 -0.01320331594808139
126043000.0 0.027269244396031872 -0.015211151550525409
135042500.0 0.028063245783433537 -0.017861355011040508
144042000.0 0.02702079189857338 -0.01931082922679367
153041500.0 0.02633813463417091 -0.02216049852568746
162041000.0 0.025492918164953523 -0.02437545651000754
171040500.0 0.024148104253902937 -0.026808977933190772
180040000.0 0.02307631741338756 -0.029430705769173136
189039500.0 0.022046046285237077 -0.03197463301063802
198039000.0 0.020990006351818993 -0.03432188196771983
207038500.0 0.018697446756690796 -0.03597714956443158
216038000.0 0.017334258030233356 -0.03661244918599152
225037500.0 0.014912718440345668 -0.0377591285224318
234037000.0 0.012525114207812483 -0.03890560087417643
243036500.0 0.0096096337193418 -0.040995696924597244
252036000.0 0.0070560767901594445 -0.04028726498429613
261035500.0 0.0043430718879810025 -0.04020449077874976
270035000.0 0.0012884101820833387 -0.04102174289965505
279034500.0 -0.002356628036213255 -0.041302628323618876
288034000.0 -0.005348763178330784 -0.040005799102510044
297033500.0 -0.005855620635121337 -0.03897957260478597
306033000.0 -0.010424064305078109 -0.02993487923132681
315032500.0 -0.009573003352822672 -0.027182037040091103
324032000.0 -0.013294999455899487 -0.027461025576375146
333031500.0 -0.015160731606601275 -0.024917873900596865
342031000.0 -0.016006331888133003 -0.022736491471811032
351030500.0 -0.01622956679638567 -0.019652209151123517
360030000.0 -0.01675509819931795 -0.018761548790519143
369029500.0 -0.01497821778279805 -0.0167001121098612
378029000.0 -0.015080522726078597 -0.014588821527746789
387028500.0 -0.01533092095816971 -0.014194309631802954
396028000.0 -0.011372426770030157 -0.01390196842793014
405027500.0 -0.011037491682892033 -0.011444336792925855
414027000.0 -0.007541360332736892 -0.011338393155546665
423026500.0 -0.006353702000804009 -0.010938602397073937
432026000.0 -0.004397439616325081 -0.012915243308605426
441025500.0 -0.005031091987982619 -0.012111179074492063
450025000.0 -0.0009414316104510058 -0.014196200658801316
459024500.0 0.003739650362084049 -0.019784426393216294
468024000.0 0.004424994408488215 -0.019246627356438756
477023500.0 0.0055229296134875734 -0.020072153447632364
486023000.0 0.007039519086697031 -0.021138928396685828
495022500.0 0.009043761857797322 -0.02077679936824541
504022000.0 0.017262504381258443 -0.01688214996219964
513021500.0 0.01434666028936266 -0.02752702378787253
522021000.0 0.016090324073574868 -0.028309777907339642
531020500.0 0.017939410859038576 -0.03302306068701731
540020000.0 0.01861122450893928 -0.037326139185815475
549019500.0 0.020401329413112484 -0.04100069124852231
558019000.0 0.02157208570799075 -0.04436349906226494
567018500.0 0.021275752986074613 -0.05239483368433243
576018000.0 0.02130279894168895 -0.05647262362836672
585017500.0 0.016664239603376475 -0.054927517588272586
594017000.0 0.020432307948661035 -0.06741761948385247
603016500.0 0.01752687567862761 -0.07371227652436534
612016000.0 0.019322852901547314 -0.07466237397767214
621015500.0 0.017212994430797712 -0.07850549288336088
630015000.0 0.010086904342551339 -0.0815089688330213
639014500.0 0.008772265657381099 -0.08278275092124611
648014000.0 0.006035542602142265 -0.08466403922220811
657013500.0 0.0033144574542925934 -0.08623092932810736
666013000.0 -0.0006857844274741941 -0.09009085560291001
675012500.0 -0.0037146306386676414 -0.0943953617092851
684012000.0 -0.008020106956496633 -0.09256889436083815
693011500.0 -0.010834426475704827 -0.08931421650344899
702011000.0 -0.018084536105692925 -0.09192468688132449
711010500.0 -0.021260608038319532 -0.0922368985333622
720010000.0 -0.02299594946967863 -0.09144808782474158
729009500.0 -0.03068167540676483 -0.08859025312504085
738009000.0 -0.03636923818235078 -0.08919591286346207
747008500.0 -0.04022999581554089 -0.08562013214431427
756008000.0 -0.042226311343601504 -0.08569185591078755
765007500.0 -0.04980471698824257 -0.0818198409544803
774007000.0 -0.05677889809072766 -0.08127789480312943
783006500.0 -0.051262095702301995 -0.07889521117565514
792006000.0 -0.056004033572070094 -0.0766742378610516
801005500.0 -0.05350572881192495 -0.07815270013750435
810005000.0 -0.05674981449574235 -0.07163762587136921
819004500.0 -0.04478623627975071 -0.06813312878707453
828004000.0 -0.0528347467724554 -0.06692804000358349
837003500.0 -0.053597169261209915 -0.06408856026286927
846003000.0 -0.04513674513279734 -0.06371602026018408
855002500.0 -0.04117023891072386 -0.0607128204324746
864002000.0 -0.040592650315965505 -0.06262105903109653
873001500.0 -0.03702606633415725 -0.06436861915636798
882001000.0 -0.026837338009037398 -0.06382695881200506
891000500.0 -0.025224498424874196 -0.07189143582464695
900000000.0 -0.0177137049985521 -0.07283934811626677
