! Created with skrf 1.8.0 (http://scikit-rf.org).
# Hz S RI R 50.0 
!freq ReS11 ImS11
50000.0 0.9969507495513684 -0.0011922307033818324
9049500.0 0.9833713127920533 -0.13891760828389668
18049000.0 0.9526578339593886 -0.2703280356187144
27048500.0 0.9053894241994132 -0.39570866894262674
36048000.0 0.8424781920551236 -0.5130419434412373
45047500.0 0.7634248742848666 -0.6220065770927196
54047000.0 0.6729104354583895 -0.7169609930077022
63046500.0 0.5706385593232057 -0.7985053490367192
72046000.0 0.4585432386373548 -0.865409674307783
81045500.0 0.33533857190714633 -0.917043031192466
90045000.0 0.2010095576213622 -0.954808102538452
99044500.0 0.07077762038105909 -0.973254398873101
108044000.0 -0.05934564362116117 -0.9729820823696164
117043500.0 -0.18880530782215707 -0.9559233650047871
126043000.0 -0.3148556721836847 -0.920894854428175
135042500.0 -0.4348947075432083 -0.8696122996313358
144042000.0 -0.5478391781976129 -0.8024615114288223
153041500.0 -0.6499223143846966 -0.7207652930218298
162041000.0 -0.7401779307953841 -0.6270129022443052
171040500.0 -0.8162923581623793 -0.5215221858869145
180040000.0 -0.8779250093977331 -0.40703130696787065
189039500.0 -0.9232676147980772 -0.2855452637000497
198039000.0 -0.9518982191196623 -0.15889251095711618
207038500.0 -0.963486415351629 -0.030354477997775308
216038000.0 -0.9578266642885708 0.09883774680856211
225037500.0 -0.9348793447337583 0.2257464435128271
234037000.0 -0.896027971901591 0.34752056842050316
243036500.0 -0.8404538755609116 0.4634147089154075
252036000.0 -0.7708091473672192 0.5722350091869597
261035500.0 -0.6865998275831349 0.6690777786162849
270035000.0 -0.5920412080727118 0.7544443015149273
279034500.0 -0.4860018538082376 0.8262722180624262
288034000.0 -0.37319354730908566 0.8844907463857576
297033500.0 -0.2501453383400802 0.9247714513814541
306033000.0 -0.12809894042825962 0.9504471516288014
315032500.0 0.003426074652859672 0.9635470480225018
324032000.0 0.12870433671040934 0.9526667427307611
333031500.0 0.2558684284105883 0.9272489568756366
342031000.0 0.37591367298983547 0.8849363072381862
351030500.0 0.48997454932431916 0.8287673271407966
360030000.0 0.5957181643390478 0.7572598471780188
369029500.0 0.6898838302891586 0.6726880847959139
378029000.0 0.7707956493185407 0.577112393650427
387028500.0 0.8388610369848378 0.47208911357589894
396028000.0 0.8929429279330677 0.35757503214535896
405027500.0 0.9292912068907527 0.23708998586250118
414027000.0 0.9489877016394901 0.11528584454136034
423026500.0 0.9512158651417045 -0.012972952928906017
432026000.0 0.932026508663835 -0.141582613187849
441025500.0 0.9050152593506675 -0.26492598460919004
450025000.0 0.851389284430168 -0.38705394553716677
459024500.0 0.7881620564763012 -0.5012019492774531
468024000.0 0.7121256655669262 -0.6012807310114359
477023500.0 0.6222537968317002 -0.6928138981817256
486023000.0 0.5182166755015961 -0.7733965654651171
495022500.0 0.40876523573538753 -0.8362162729436886
504022000.0 0.2898870158008459 -0.8888448155048645
513021500.0 0.1694431323317977 -0.9169383701714703
522021000.0 0.04386937893810287 -0.9307994952269049
531020500.0 -0.08248014489049876 -0.9279429962341947
540020000.0 -0.20770209659235261 -0.9081519793483472
549019500.0 -0.3277157666698616 -0.8712583196780264
558019000.0 -0.4400138003628515 -0.8189248051086943
567018500.0 -0.5451363848669087 -0.7520085169241773
576018000.0 -0.641281352690874 -0.6718432691750167
585017500.0 -0.7314449637736193 -0.5801967457840638
594017000.0 -0.7866240582750886 -0.47573529914019524
603016500.0 -0.8371465680345681 -0.36699936364361996
612016000.0 -0.875159760459642 -0.24957371072276793
621015500.0 -0.8996842441129949 -0.1311860965782725
630015000.0 -0.9080026683440615 -0.01069021456537408
639014500.0 -0.9036753709935155 0.11076240129657046
648014000.0 -0.8774512749743373 0.2295534474366931
657013500.0 -0.8383155268165127 0.3416088548147573
666013000.0 -0.7850489723850789 0.4541284502284704
675012500.0 -0.7165919279725136 0.5515473299279561
684012000.0 -0.635336845606974 0.641761259787427
693011500.0 -0.5413071792140675 0.7215936294929393
702011000.0 -0.4386200995361642 0.7891880587670637
711010500.0 -0.3323246696509184 0.8399410802186381
720010000.0 -0.21527261875371415 0.8777445198262618
729009500.0 -0.09250792526731369 0.8983762820625235
738009000.0 0.02872762524718767 0.9045092585385119
747008500.0 0.15006228972478075 0.8929392586990227
756008000.0 0.27082213485320655 0.8655956175494786
765007500.0 0.3843474132509053 0.8182570212687934
774007000.0 0.4915820344659539 0.7595998300825744
783006500.0 0.5915674859502581 0.6879438227281888
792006000.0 0.6809063519768151 0.6019220687389655
801005500.0 0.759503582814533 0.5039463557033971
810005000.0 0.8160510710091684 0.39869366593178274
819004500.0 0.8564411680590672 0.2867406628974564
828004000.0 0.8983422056433586 0.16438114322721117
837003500.0 0.9137774734941526 0.03993862059708207
846003000.0 0.9143461442164533 -0.07963444090047758
855002500.0 0.8939952659098754 -0.2035065931089501
864002000.0 0.8627374945547123 -0.32323321836855745
873001500.0 0.8140937863694624 -0.4374776629280208
882001000.0 0.7517085497469717 -0.5450494092927243
891000500.0 0.6724667904705093 -0.6388074124081894
900000000.0 0.582019180421888 -0.7189166694240763
