! Created with skrf 1.8.0 (http://scikit-rf.org).
# Hz S RI R 50.0 
!freq ReS11 ImS11
50000.0 -0.000443789 0.000144374
15049500.0 -0.001652097 0.000949608
30049000.0 -0.004436961 0.001251559
45048500.0 -0.008074438 0.000296197
60048000.0 -0.011845428 -0.002559208
75047500.0 -0.015162438 -0.00717941
90047000.0 -0.017575684 -0.01320638
105046500.0 -0.017740122 -0.02008366
120046000.0 -0.015720488 -0.02689441
135045500.0 -0.011081712 -0.032718584
150045000.0 -0.005193763 -0.0372393
165044500.0 0.002078341 -0.039255796
180044000.0 0.008469538 -0.03708156
195043500.0 0.014211206 -0.03364418
210043000.0 0.017477522 -0.02816076
225042500.0 0.017587588 -0.021846714
240042000.0 0.01425665 -0.016502148
255041500.0 0.007973599 -0.013351518
270041000.0 -0.000427416 -0.013763994
285040500.0 -0.009035426 -0.018426092
300040000.0 -0.01545923 -0.026882032
315039500.0 -0.019962816 -0.039988752
330039000.0 -0.019536444 -0.057637028
345038500.0 -0.012498888 -0.074375752
360038000.0 0.002800981 -0.090360752
375037500.0 0.022744528 -0.1033238
390037000.0 0.048774696 -0.10934808
405036500.0 0.078100792 -0.106468752
420036000.0 0.106549432 -0.093164528
435035500.0 0.13076556 -0.071945984
450035000.0 0.147938784 -0.0412788
465034500.0 0.155572832 -0.004499808
480034000.0 0.150650912 0.034621656
495033500.0 0.132958728 0.070247096
510033000.0 0.10280204 0.097883872
525032500.0 0.063500404 0.114713792
540032000.0 0.018329736 0.1162814
555031500.0 -0.021439656 0.101343248
570031000.0 -0.0541257 0.073669312
585030500.0 -0.075587008 0.035787968
600030000.0 -0.08493592 -0.006322878
615029500.0 -0.078129712 -0.055036708
630029000.0 -0.052227492 -0.09570808
645028500.0 -0.011122466 -0.127877888
660028000.0 0.037753888 -0.14335416
675027500.0 0.084003248 -0.143199136
690027000.0 0.129833848 -0.127612936
705026500.0 0.167574752 -0.096710568
720026000.0 0.193338208 -0.04594348
735025500.0 0.204269168 0.014349134
750025000.0 0.194584208 0.07873252
765024500.0 0.158573728 0.14345976
780024000.0 0.095104688 0.193222272
795023500.0 0.010012996 0.203242928
810023000.0 -0.067625224 0.175271936
825022500.0 -0.13033944 0.131078392
840022000.0 -0.170216464 0.067505304
855021500.0 -0.191692736 -0.002900241
870021000.0 -0.2065128 -0.077444528
885020500.0 -0.209787952 -0.166583312
900020000.0 -0.196495008 -0.2793136
915019500.0 -0.206524464 -0.27372704
930019000.0 -0.22030784 -0.269188256
945018500.0 -0.22950544 -0.254434048
960018000.0 -0.2341188 -0.246432688
975017500.0 -0.24371048 -0.232715056
990017000.0 -0.245453824 -0.216922544
1005016500.0 -0.254615184 -0.198932576
1020016000.0 -0.248328256 -0.174444512
1035015500.0 -0.253646528 -0.154982352
1050015000.0 -0.236244144 -0.1279932
1065014500.0 -0.241610688 -0.114118496
1080014000.0 -0.218588224 -0.096550416
1095013500.0 -0.199469696 -0.077942856
1110013000.0 -0.184201072 -0.064860152
1125012500.0 -0.155496464 -0.065281176
1140012000.0 -0.135194624 -0.054048836
1155011500.0 -0.118188136 -0.05775794
1170011000.0 -0.099574752 -0.045845
1185010500.0 -0.08362348 -0.05378412
1200010000.0 -0.070972888 -0.065529936
1215009500.0 -0.053252764 -0.07251232
1230009000.0 -0.053281528 -0.072181488
1245008500.0 -0.02786638 -0.083472984
1260008000.0 -0.01473081 -0.087646504
1275007500.0 -0.01109765 -0.0996112
1290007000.0 -0.03438954 -0.106963488
1305006500.0 -0.029212626 -0.10015488
1320006000.0 -0.017083698 -0.124383928
1335005500.0 -0.021881482 -0.11181952
1350005000.0 -0.008133604 -0.09879208
1365004500.0 -0.010268834 -0.11107588
1380004000.0 -0.032124798 -0.091216024
1395003500.0 -0.030822328 -0.0989522
1410003000.0 -0.015031184 -0.090452784
1425002500.0 -0.018489478 -0.065977276
1440002000.0 -0.035404436 -0.059832088
1455001500.0 -0.0291724 -0.055243944
1470001000.0 -0.0164876 -0.024874504
1485000500.0 -0.013140166 -0.020193522
1500000000.0 -0.002941003 0.021752424
