! Created with skrf 1.8.0 (http://scikit-rf.org).
# Hz S RI R 50.0 
!freq ReS11 ImS11
50000.0 -0.0027132353884009182 -0.00029688148246250526
15049500.0 -0.0021928990272897654 0.0003498383906727549
30049000.0 -0.0016475734457579896 0.00012292861984032464
45048500.0 -0.00014966498494867235 -0.0006503254870908393
60048000.0 0.0021466298865722606 -0.002686945923018549
75047500.0 0.0052061263859908835 -0.004561166027181582
90047000.0 0.0092161986845209 -0.00642924596986376
105046500.0 0.01221107890203805 -0.00821822784409911
120046000.0 0.013253758743140241 -0.010257027689214885
135045500.0 0.013539557010395858 -0.012532692738633833
150045000.0 0.015298131822139018 -0.01325141127259392
165044500.0 0.014303852648693683 -0.012317708026136992
180044000.0 0.013875238541152489 -0.003242782028732929
195043500.0 0.011224726320830826 0.0026783383879086355
210043000.0 0.008887299119698332 0.009739423004574838
225042500.0 0.0065120230410487985 0.018549194170438845
240042000.0 0.004305891909210636 0.028338019984294284
255041500.0 0.003959126192612303 0.038899191544098016
270041000.0 0.005894050397078635 0.04801281232168918
285040500.0 0.008989379494680627 0.05575115464803857
300040000.0 0.005571315003214115 0.06972795554528087
315039500.0 0.01007720785150637 0.0817533738405776
330039000.0 0.01607081586801557 0.09255928922489229
345038500.0 0.024929066436883064 0.10061614225602258
360038000.0 0.04117827209722862 0.10354901397759574
375037500.0 0.053445352244181954 0.10482959466770939
390037000.0 0.06013108694366963 0.10428221704664344
405036500.0 0.06745170817036461 0.09577434066142544
420036000.0 0.06797416323801471 0.08889292965388287
435035500.0 0.06260354308864441 0.07466805792173768
450035000.0 0.05475701109913629 0.05331493572778645
465034500.0 0.04450086238991882 0.033371326891092595
480034000.0 0.03179435005961009 0.0121305079288161
495033500.0 0.016793286204350378 -0.007026904398783719
510033000.0 -0.002636648876911247 -0.01707425237416746
525032500.0 -0.01983545081401103 -0.02156249491392075
540032000.0 -0.034304768561874206 -0.050177849621449805
555031500.0 -0.04669617209868735 -0.03859530996687956
570031000.0 -0.056630077215241346 -0.019537867058851598
585030500.0 -0.06698936433800941 -0.0009988070658472632
600030000.0 -0.07177742178298098 0.01807517602549374
615029500.0 -0.07589320676665284 0.04174143705813432
630029000.0 -0.08437913545301738 0.05846114973564981
645028500.0 -0.08726130658318798 0.06600869360163435
660028000.0 -0.08636674971023107 0.06567127872926151
675027500.0 -0.07922423750925714 0.05874867574572944
690027000.0 -0.0605045847965193 0.04115538807319561
705026500.0 -0.03706859027476315 0.021556143448805756
720026000.0 -0.0096616397173996 0.004813895909135974
735025500.0 0.015335987649322017 -0.014170089215615467
750025000.0 0.03759775586632751 -0.03206215182268345
765024500.0 0.04799987725904484 -0.048673865315960144
780024000.0 0.04990916752940332 -0.05311118300284777
795023500.0 0.030323134622928367 -0.07673530057903094
810023000.0 0.0004609016614557587 -0.09517277476773742
825022500.0 -0.02761185055768292 -0.12298208741535162
840022000.0 -0.05703870627955324 -0.15546446415234766
855021500.0 -0.07028798201801077 -0.18631814406721722
870021000.0 -0.07877103649312905 -0.22062795543330832
885020500.0 -0.06102646732178288 -0.2660796110788965
900020000.0 -0.024853520088762456 -0.3143465742342171
915019500.0 -0.09710303222787334 -0.29574409359947323
930019000.0 -0.16255815160749384 -0.26749514859718737
945018500.0 -0.21728221910960624 -0.21887729578293347
960018000.0 -0.2546484455218077 -0.15955314802260945
975017500.0 -0.27433477283672825 -0.0944420034142855
990017000.0 -0.2883021126800946 -0.026314425624437893
1005016500.0 -0.2823640916230458 0.03515396364781282
1020016000.0 -0.2634272110594507 0.0992223894086993
1035015500.0 -0.21193603530018315 0.15740773747766962
1050015000.0 -0.15204727510960456 0.1690839576280147
1065014500.0 -0.08929382204274242 0.2411972657888117
1080014000.0 -0.03590331365384131 0.2575393242182896
1095013500.0 0.02791580428454169 0.26523781490940906
1110013000.0 0.10523103513798852 0.26414604822161647
1125012500.0 0.15216590375646818 0.24066366650932758
1140012000.0 0.20948398235171498 0.2180713107961915
1155011500.0 0.26120285534170024 0.19366026529618308
1170011000.0 0.3184679754983091 0.1511501456449885
1185010500.0 0.3406324102191898 0.09261571167655254
1200010000.0 0.34176720922340736 0.05063005476916861
1215009500.0 0.3625415388533509 -0.008759165389003249
1230009000.0 0.333850158690535 -0.05680083249064527
1245008500.0 0.32236299013788006 -0.12894421402307443
1260008000.0 0.30303505680338755 -0.17991025693181434
1275007500.0 0.250124551915016 -0.22223113672770872
1290007000.0 0.17149977694696664 -0.2847135120463641
1305006500.0 0.08308165875692052 -0.2906441655304205
1320006000.0 0.04270462509949636 -0.3243115072002426
1335005500.0 -0.02609896162886093 -0.3062400903605002
1350005000.0 -0.1053263056660912 -0.3063965127125697
1365004500.0 -0.18672193138573956 -0.31006199722509176
1380004000.0 -0.20925152667146352 -0.29060690138236855
1395003500.0 -0.21265520381925204 -0.281328554616691
1410003000.0 -0.2563152370172054 -0.21405922338351546
1425002500.0 -0.2527171909472901 -0.1853019056911395
1440002000.0 -0.23906166845852303 -0.14565486731449978
1455001500.0 -0.19025372374618302 -0.09036469514794421
1470001000.0 -0.1693656510162807 -0.04773936329359845
1485000500.0 -0.03595759047918431 -0.029051378855018586
1500000000.0 0.029266849057536442 -0.021549092799747694
