! Created with skrf 1.8.0 (http://scikit-rf.org).
# Hz S RI R 50.0 
!freq ReS11 ImS11
50000.0 0.9997623534864296 0.0005064181572722
15049500.0 0.9958387291808825 0.16416351060787682
30049000.0 0.9582416349815382 0.3217883035215884
45048500.0 0.8935693123978542 0.4649210042680236
60048000.0 0.8104573012523189 0.617170161105155
75047500.0 0.7001228293030312 0.7403638523680787
90047000.0 0.5750303056458974 0.8336730901041893
105046500.0 0.4414102767622562 0.9250777239588155
120046000.0 0.28884743627797516 0.9895932102804738
135045500.0 0.12637806918899328 1.0230756983599587
150045000.0 -0.039637087167295186 1.043502579600779
165044500.0 -0.20930773474383801 1.0284824481603878
180044000.0 -0.3541736507451179 0.986003808862145
195043500.0 -0.5085185278529759 0.9269491683292072
210043000.0 -0.6465585226944377 0.8419147211092189
225042500.0 -0.7634680758794113 0.7354695658780309
240042000.0 -0.87102235242576 0.6281705084085858
255041500.0 -0.9642503856792422 0.5067280632686098
270041000.0 -1.0477863145331419 0.35468190037763
285040500.0 -1.1179473713565433 0.18381786272715814
300040000.0 -1.1101383062641952 -0.025103285624330403
315039500.0 -1.1379065921201743 -0.19953451616370416
330039000.0 -1.1127714000952562 -0.38194498556822704
345038500.0 -1.05021278829363 -0.5531814090076382
360038000.0 -0.9652079700181097 -0.6975026903970817
375037500.0 -0.8638340469669783 -0.8553789274994594
390037000.0 -0.7316719067183088 -0.9937172117368671
405036500.0 -0.5675502284048278 -1.1020785253574834
420036000.0 -0.39845124508755064 -1.192990075278699
435035500.0 -0.22060999027171738 -1.2440231965986748
450035000.0 -0.04273121412095242 -1.256933582043556
465034500.0 0.12869546861680423 -1.275704194025211
480034000.0 0.30808727787975987 -1.259592295501814
495033500.0 0.4865704053836939 -1.2107723306655231
510033000.0 0.6639101661073236 -1.1415044089521267
525032500.0 0.8206487313545412 -1.0332537412035054
540032000.0 0.9606535231212467 -0.8855214611116823
555031500.0 1.0670901721277544 -0.7591773513693547
570031000.0 1.1522964759717185 -0.6112955442242891
585030500.0 1.2164966773262738 -0.45146756422067835
600030000.0 1.278110629853734 -0.2663234948385656
615029500.0 1.293743345133855 -0.0829788781204826
630029000.0 1.2705631763693703 0.10687601119335663
645028500.0 1.2193635951199802 0.28808825197384796
660028000.0 1.1397372396744605 0.4475030540615182
675027500.0 1.0533982173762917 0.5738253814035964
690027000.0 0.9545172395468764 0.6928331941642452
705026500.0 0.849107646010252 0.7973950493753844
720026000.0 0.7342856000825047 0.8870277343218574
735025500.0 0.6082264005204671 0.9828267380116028
750025000.0 0.4495487097055339 1.066778189688708
765024500.0 0.2606227834895154 1.1159433602369928
780024000.0 0.051033619002860145 1.1292193921594462
795023500.0 -0.15207260528513308 1.0791781234013031
810023000.0 -0.3034092923316339 0.9699916799583987
825022500.0 -0.4054506454789546 0.8629914286499181
840022000.0 -0.4704595616086667 0.77240964060008
855021500.0 -0.5287273195798526 0.7181773307257887
870021000.0 -0.5965882246793066 0.7012606998504587
885020500.0 -0.7101112048869896 0.7089621466322623
900020000.0 -0.9050534297669285 0.7389611257620513
915019500.0 -0.7138776532995639 0.9184599439574984
930019000.0 -0.48692366647896473 1.0488497193473738
945018500.0 -0.2317328757944946 1.1197935106848909
960018000.0 0.022015750740446677 1.1343376836420225
975017500.0 0.27789787424048906 1.0900452446833935
990017000.0 0.5075767553054957 0.9934158111749443
1005016500.0 0.714030696202507 0.8447139035453265
1020016000.0 0.870087900943823 0.6462976083737846
1035015500.0 0.9836668830194765 0.4190798928978485
1050015000.0 1.01167874533359 0.18119661838445983
1065014500.0 1.0423731714933582 -0.05771421479564804
1080014000.0 0.9963703763223088 -0.27835860539185736
1095013500.0 0.9067111917148719 -0.47977202166933675
1110013000.0 0.7721234106710378 -0.6549042946380274
1125012500.0 0.6207384819822626 -0.7620361708978045
1140012000.0 0.43879892962450506 -0.8886619551062264
1155011500.0 0.2382213118838951 -0.9780908595892751
1170011000.0 0.057817507869556424 -0.9666784284201596
1185010500.0 -0.13641596562616715 -0.9359749590317851
1200010000.0 -0.3468063442700762 -0.8789595676070769
1215009500.0 -0.5124791445004023 -0.7925479768934935
1230009000.0 -0.6750178138502491 -0.6281173027952115
1245008500.0 -0.7861570042534873 -0.46299469327562925
1260008000.0 -0.8569300707117113 -0.28954370845850536
1275007500.0 -0.9108951154709928 -0.0664947832066219
1290007000.0 -0.9321894469471739 0.1772898911255431
1305006500.0 -0.8381827289552903 0.42325188173993017
1320006000.0 -0.747163972233601 0.6136075926788442
1335005500.0 -0.5735996055737856 0.7918403737997112
1350005000.0 -0.38301852384156465 0.9322881330774252
1365004500.0 -0.13833066984941644 1.0477681715819505
1380004000.0 0.06825883045111976 1.097453325614489
1395003500.0 0.2943826508740364 1.0852631016132774
1410003000.0 0.5144404972650705 1.0182203500400429
1425002500.0 0.6942166201357798 0.9148879471972634
1440002000.0 0.8617631204646231 0.773608866782662
1455001500.0 0.9770085194033924 0.6076348339369767
1470001000.0 1.0194357930136961 0.42289585879722014
1485000500.0 0.974582306590215 0.22958668835997129
1500000000.0 0.969779005673508 0.04847600517106344
