! Touchstone file exported from NanoVNA UTN Toolkit
! Device: Test Device
! Export date: 2025-09-22 11:07:18
! Frequency range: 50.000 - 1500.000 MHz
! Number of points: 101
!
# HZ S RI R 50
50000000 1.093974e-01 -1.149813e-02 9.684630e-01 -2.058532e-01 9.684630e-01 -2.058532e-01 0.000000e+00 0.000000e+00
64500000 1.118714e-01 -1.520515e-02 9.479489e-01 -2.625332e-01 9.479489e-01 -2.625332e-01 0.000000e+00 0.000000e+00
79000000 1.142185e-01 -1.907264e-02 9.227111e-01 -3.169945e-01 9.227111e-01 -3.169945e-01 0.000000e+00 0.000000e+00
93500000 1.164313e-01 -2.309626e-02 8.930507e-01 -3.688185e-01 8.930507e-01 -3.688185e-01 0.000000e+00 0.000000e+00
108000000 1.185025e-01 -2.727132e-02 8.593131e-01 -4.176308e-01 8.593131e-01 -4.176308e-01 0.000000e+00 0.000000e+00
122500000 1.204248e-01 -3.159286e-02 8.218804e-01 -4.631058e-01 8.218804e-01 -4.631058e-01 0.000000e+00 0.000000e+00
137000000 1.221915e-01 -3.605562e-02 7.811628e-01 -5.049702e-01 7.811628e-01 -5.049702e-01 0.000000e+00 0.000000e+00
151500000 1.237956e-01 -4.065403e-02 7.375904e-01 -5.430042e-01 7.375904e-01 -5.430042e-01 0.000000e+00 0.000000e+00
166000000 1.252305e-01 -4.538227e-02 6.916050e-01 -5.770420e-01 6.916050e-01 -5.770420e-01 0.000000e+00 0.000000e+00
180500000 1.264900e-01 -5.023424e-02 6.436520e-01 -6.069713e-01 6.436520e-01 -6.069713e-01 0.000000e+00 0.000000e+00
195000000 1.275679e-01 -5.520356e-02 5.941733e-01 -6.327303e-01 5.941733e-01 -6.327303e-01 0.000000e+00 0.000000e+00
209500000 1.284582e-01 -6.028359e-02 5.436012e-01 -6.543059e-01 5.436012e-01 -6.543059e-01 0.000000e+00 0.000000e+00
224000000 1.291551e-01 -6.546747e-02 4.923519e-01 -6.717291e-01 4.923519e-01 -6.717291e-01 0.000000e+00 0.000000e+00
238500000 1.296534e-01 -7.074805e-02 4.408216e-01 -6.850711e-01 4.408216e-01 -6.850711e-01 0.000000e+00 0.000000e+00
253000000 1.299477e-01 -7.611798e-02 3.893822e-01 -6.944387e-01 3.893822e-01 -6.944387e-01 0.000000e+00 0.000000e+00
267500000 1.300332e-01 -8.156968e-02 3.383787e-01 -6.999699e-01 3.383787e-01 -6.999699e-01 0.000000e+00 0.000000e+00
282000000 1.299052e-01 -8.709535e-02 2.881270e-01 -7.018284e-01 2.881270e-01 -7.018284e-01 0.000000e+00 0.000000e+00
296500000 1.295593e-01 -9.268697e-02 2.389130e-01 -7.001996e-01 2.389130e-01 -7.001996e-01 0.000000e+00 0.000000e+00
311000000 1.289915e-01 -9.833635e-02 1.909915e-01 -6.952857e-01 1.909915e-01 -6.952857e-01 0.000000e+00 0.000000e+00
325500000 1.281979e-01 -1.040351e-01 1.445866e-01 -6.873017e-01 1.445866e-01 -6.873017e-01 0.000000e+00 0.000000e+00
340000000 1.271752e-01 -1.097747e-01 9.989266e-02 -6.764718e-01 9.989266e-02 -6.764718e-01 0.000000e+00 0.000000e+00
354500000 1.259201e-01 -1.155463e-01 5.707446e-02 -6.630252e-01 5.707446e-02 -6.630252e-01 0.000000e+00 0.000000e+00
369000000 1.244298e-01 -1.213411e-01 1.626918e-02 -6.471939e-01 1.626918e-02 -6.471939e-01 0.000000e+00 0.000000e+00
383500000 1.227018e-01 -1.271502e-01 -2.241229e-02 -6.292093e-01 -2.241229e-02 -6.292093e-01 0.000000e+00 0.000000e+00
398000000 1.207339e-01 -1.329642e-01 -5.888361e-02 -6.093003e-01 -5.888361e-02 -6.093003e-01 0.000000e+00 0.000000e+00
412500000 1.185243e-01 -1.387741e-01 -9.308112e-02 -5.876911e-01 -9.308112e-02 -5.876911e-01 0.000000e+00 0.000000e+00
427000000 1.160714e-01 -1.445703e-01 -1.249620e-01 -5.645998e-01 -1.249620e-01 -5.645998e-01 0.000000e+00 0.000000e+00
441500000 1.133743e-01 -1.503435e-01 -1.545024e-01 -5.402370e-01 -1.545024e-01 -5.402370e-01 0.000000e+00 0.000000e+00
456000000 1.104319e-01 -1.560841e-01 -1.816954e-01 -5.148048e-01 -1.816954e-01 -5.148048e-01 0.000000e+00 0.000000e+00
470500000 1.072439e-01 -1.617824e-01 -2.065497e-01 -4.884958e-01 -2.065497e-01 -4.884958e-01 0.000000e+00 0.000000e+00
485000000 1.038103e-01 -1.674289e-01 -2.290871e-01 -4.614930e-01 -2.290871e-01 -4.614930e-01 0.000000e+00 0.000000e+00
499500000 1.001312e-01 -1.730137e-01 -2.493418e-01 -4.339691e-01 -2.493418e-01 -4.339691e-01 0.000000e+00 0.000000e+00
514000000 9.620741e-02 -1.785272e-01 -2.673581e-01 -4.060864e-01 -2.673581e-01 -4.060864e-01 0.000000e+00 0.000000e+00
528500000 9.203984e-02 -1.839597e-01 -2.831894e-01 -3.779966e-01 -2.831894e-01 -3.779966e-01 0.000000e+00 0.000000e+00
543000000 8.762988e-02 -1.893013e-01 -2.968969e-01 -3.498412e-01 -2.968969e-01 -3.498412e-01 0.000000e+00 0.000000e+00
557500000 8.297930e-02 -1.945422e-01 -3.085483e-01 -3.217512e-01 -3.085483e-01 -3.217512e-01 0.000000e+00 0.000000e+00
572000000 7.809020e-02 -1.996729e-01 -3.182165e-01 -2.938474e-01 -3.182165e-01 -2.938474e-01 0.000000e+00 0.000000e+00
586500000 7.296508e-02 -2.046836e-01 -3.259790e-01 -2.662412e-01 -3.259790e-01 -2.662412e-01 0.000000e+00 0.000000e+00
601000000 6.760678e-02 -2.095647e-01 -3.319170e-01 -2.390340e-01 -3.319170e-01 -2.390340e-01 0.000000e+00 0.000000e+00
615500000 6.201853e-02 -2.143066e-01 -3.361141e-01 -2.123183e-01 -3.361141e-01 -2.123183e-01 0.000000e+00 0.000000e+00
630000000 5.620391e-02 -2.188998e-01 -3.386562e-01 -1.861778e-01 -3.386562e-01 -1.861778e-01 0.000000e+00 0.000000e+00
644500000 5.016689e-02 -2.233349e-01 -3.396304e-01 -1.606876e-01 -3.396304e-01 -1.606876e-01 0.000000e+00 0.000000e+00
659000000 4.391177e-02 -2.276027e-01 -3.391247e-01 -1.359149e-01 -3.391247e-01 -1.359149e-01 0.000000e+00 0.000000e+00
673500000 3.744324e-02 -2.316940e-01 -3.372275e-01 -1.119192e-01 -3.372275e-01 -1.119192e-01 0.000000e+00 0.000000e+00
688000000 3.076632e-02 -2.355996e-01 -3.340270e-01 -8.875288e-02 -3.340270e-01 -8.875288e-02 0.000000e+00 0.000000e+00
702500000 2.388640e-02 -2.393109e-01 -3.296109e-01 -6.646122e-02 -3.296109e-01 -6.646122e-02 0.000000e+00 0.000000e+00
717000000 1.680921e-02 -2.428189e-01 -3.240661e-01 -4.508319e-02 -3.240661e-01 -4.508319e-02 0.000000e+00 0.000000e+00
731500000 9.540828e-03 -2.461151e-01 -3.174783e-01 -2.465159e-02 -3.174783e-01 -2.465159e-02 0.000000e+00 0.000000e+00
746000000 2.087669e-03 -2.491913e-01 -3.099317e-01 -5.193442e-03 -3.099317e-01 -5.193442e-03 0.000000e+00 0.000000e+00
760500000 -5.543522e-03 -2.520390e-01 -3.015092e-01 1.326962e-02 -3.015092e-01 1.326962e-02 0.000000e+00 0.000000e+00
775000000 -1.334567e-02 -2.546505e-01 -2.922915e-01 3.072108e-02 -2.922915e-01 3.072108e-02 0.000000e+00 0.000000e+00
789500000 -2.131138e-02 -2.570180e-01 -2.823576e-01 4.714914e-02 -2.823576e-01 4.714914e-02 0.000000e+00 0.000000e+00
804000000 -2.943295e-02 -2.591338e-01 -2.717842e-01 6.254651e-02 -2.717842e-01 6.254651e-02 0.000000e+00 0.000000e+00
818500000 -3.770236e-02 -2.609908e-01 -2.606459e-01 7.691002e-02 -2.606459e-01 7.691002e-02 0.000000e+00 0.000000e+00
833000000 -4.611130e-02 -2.625820e-01 -2.490148e-01 9.024042e-02 -2.490148e-01 9.024042e-02 0.000000e+00 0.000000e+00
847500000 -5.465118e-02 -2.639005e-01 -2.369607e-01 1.025420e-01 -2.369607e-01 1.025420e-01 0.000000e+00 0.000000e+00
862000000 -6.331311e-02 -2.649400e-01 -2.245508e-01 1.138226e-01 -2.245508e-01 1.138226e-01 0.000000e+00 0.000000e+00
876500000 -7.208794e-02 -2.656942e-01 -2.118499e-01 1.240929e-01 -2.118499e-01 1.240929e-01 0.000000e+00 0.000000e+00
891000000 -8.096626e-02 -2.661573e-01 -1.989202e-01 1.333666e-01 -1.989202e-01 1.333666e-01 0.000000e+00 0.000000e+00
905500000 -8.993840e-02 -2.663237e-01 -1.858210e-01 1.416602e-01 -1.858210e-01 1.416602e-01 0.000000e+00 0.000000e+00
920000000 -9.899446e-02 -2.661881e-01 -1.726092e-01 1.489923e-01 -1.726092e-01 1.489923e-01 0.000000e+00 0.000000e+00
934500000 -1.081243e-01 -2.657456e-01 -1.593392e-01 1.553840e-01 -1.593392e-01 1.553840e-01 0.000000e+00 0.000000e+00
949000000 -1.173175e-01 -2.649918e-01 -1.460623e-01 1.608584e-01 -1.460623e-01 1.608584e-01 0.000000e+00 0.000000e+00
963500000 -1.265636e-01 -2.639222e-01 -1.328275e-01 1.654404e-01 -1.328275e-01 1.654404e-01 0.000000e+00 0.000000e+00
978000000 -1.358518e-01 -2.625331e-01 -1.196810e-01 1.691567e-01 -1.196810e-01 1.691567e-01 0.000000e+00 0.000000e+00
992500000 -1.451711e-01 -2.608210e-01 -1.066664e-01 1.720352e-01 -1.066664e-01 1.720352e-01 0.000000e+00 0.000000e+00
1007000000 -1.545104e-01 -2.587827e-01 -9.382459e-02 1.741056e-01 -9.382459e-02 1.741056e-01 0.000000e+00 0.000000e+00
1021500000 -1.638585e-01 -2.564155e-01 -8.119404e-02 1.753983e-01 -8.119404e-02 1.753983e-01 0.000000e+00 0.000000e+00
1036000000 -1.732038e-01 -2.537170e-01 -6.881051e-02 1.759452e-01 -6.881051e-02 1.759452e-01 0.000000e+00 0.000000e+00
1050500000 -1.825348e-01 -2.506852e-01 -5.670725e-02 1.757788e-01 -5.670725e-02 1.757788e-01 0.000000e+00 0.000000e+00
1065000000 -1.918399e-01 -2.473185e-01 -4.491500e-02 1.749324e-01 -4.491500e-02 1.749324e-01 0.000000e+00 0.000000e+00
1079500000 -2.011072e-01 -2.436159e-01 -3.346207e-02 1.734400e-01 -3.346207e-02 1.734400e-01 0.000000e+00 0.000000e+00
1094000000 -2.103249e-01 -2.395764e-01 -2.237432e-02 1.713361e-01 -2.237432e-02 1.713361e-01 0.000000e+00 0.000000e+00
1108500000 -2.194810e-01 -2.351999e-01 -1.167523e-02 1.686555e-01 -1.167523e-02 1.686555e-01 0.000000e+00 0.000000e+00
1123000000 -2.285634e-01 -2.304863e-01 -1.385964e-03 1.654334e-01 -1.385964e-03 1.654334e-01 0.000000e+00 0.000000e+00
1137500000 -2.375601e-01 -2.254361e-01 8.474601e-03 1.617050e-01 8.474601e-03 1.617050e-01 0.000000e+00 0.000000e+00
1152000000 -2.464590e-01 -2.200503e-01 1.788981e-02 1.575057e-01 1.788981e-02 1.575057e-01 0.000000e+00 0.000000e+00
1166500000 -2.552478e-01 -2.143302e-01 2.684519e-02 1.528707e-01 2.684519e-02 1.528707e-01 0.000000e+00 0.000000e+00
1181000000 -2.639145e-01 -2.082776e-01 3.532838e-02 1.478351e-01 3.532838e-02 1.478351e-01 0.000000e+00 0.000000e+00
1195500000 -2.724470e-01 -2.018947e-01 4.332906e-02 1.424340e-01 4.332906e-02 1.424340e-01 0.000000e+00 0.000000e+00
1210000000 -2.808330e-01 -1.951840e-01 5.083893e-02 1.367018e-01 5.083893e-02 1.367018e-01 0.000000e+00 0.000000e+00
1224500000 -2.890606e-01 -1.881488e-01 5.785160e-02 1.306727e-01 5.785160e-02 1.306727e-01 0.000000e+00 0.000000e+00
1239000000 -2.971177e-01 -1.807925e-01 6.436256e-02 1.243804e-01 6.436256e-02 1.243804e-01 0.000000e+00 0.000000e+00
1253500000 -3.049923e-01 -1.731190e-01 7.036911e-02 1.178581e-01 7.036911e-02 1.178581e-01 0.000000e+00 0.000000e+00
1268000000 -3.126726e-01 -1.651326e-01 7.587026e-02 1.111383e-01 7.587026e-02 1.111383e-01 0.000000e+00 0.000000e+00
1282500000 -3.201468e-01 -1.568383e-01 8.086672e-02 1.042527e-01 8.086672e-02 1.042527e-01 0.000000e+00 0.000000e+00
1297000000 -3.274033e-01 -1.482412e-01 8.536077e-02 9.723256e-02 8.536077e-02 9.723256e-02 0.000000e+00 0.000000e+00
1311500000 -3.344304e-01 -1.393469e-01 8.935624e-02 9.010798e-02 8.935624e-02 9.010798e-02 0.000000e+00 0.000000e+00
1326000000 -3.412169e-01 -1.301616e-01 9.285840e-02 8.290841e-02 9.285840e-02 8.290841e-02 0.000000e+00 0.000000e+00
1340500000 -3.477515e-01 -1.206917e-01 9.587391e-02 7.566233e-02 9.587391e-02 7.566233e-02 0.000000e+00 0.000000e+00
1355000000 -3.540232e-01 -1.109441e-01 9.841076e-02 6.839726e-02 9.841076e-02 6.839726e-02 0.000000e+00 0.000000e+00
1369500000 -3.600210e-01 -1.009262e-01 1.004782e-01 6.113973e-02 1.004782e-01 6.113973e-02 0.000000e+00 0.000000e+00
1384000000 -3.657344e-01 -9.064560e-02 1.020865e-01 5.391521e-02 1.020865e-01 5.391521e-02 0.000000e+00 0.000000e+00
1398500000 -3.711528e-01 -8.011047e-02 1.032472e-01 4.674813e-02 1.032472e-01 4.674813e-02 0.000000e+00 0.000000e+00
1413000000 -3.762661e-01 -6.932933e-02 1.039729e-01 3.966180e-02 1.039729e-01 3.966180e-02 0.000000e+00 0.000000e+00
1427500000 -3.810644e-01 -5.831105e-02 1.042769e-01 3.267839e-02 1.042769e-01 3.267839e-02 0.000000e+00 0.000000e+00
1442000000 -3.855379e-01 -4.706491e-02 1.041736e-01 2.581894e-02 1.041736e-01 2.581894e-02 0.000000e+00 0.000000e+00
1456500000 -3.896772e-01 -3.560055e-02 1.036780e-01 1.910331e-02 1.036780e-01 1.910331e-02 0.000000e+00 0.000000e+00
1471000000 -3.934731e-01 -2.392799e-02 1.028062e-01 1.255016e-02 1.028062e-01 1.255016e-02 0.000000e+00 0.000000e+00
1485500000 -3.969169e-01 -1.205757e-02 1.015745e-01 6.176972e-03 1.015745e-01 6.176972e-03 0.000000e+00 0.000000e+00
1500000000 -4.000000e-01 -4.898587e-17 1.000000e-01 2.449294e-17 1.000000e-01 2.449294e-17 0.000000e+00 0.000000e+00
