! Created with skrf 1.8.0 (http://scikit-rf.org).
# Hz S RI R 50.0 
!freq ReS11 ImS11
50000.0 -0.008597498 -0.000191219
9049500.0 -0.006205331 0.003515795
18049000.0 -0.005216461 0.005675064
27048500.0 -0.004261108 0.007622287
36048000.0 -0.003286976 0.009462024
45047500.0 -0.002358342 0.011240328
54047000.0 -0.001361759 0.012827342
63046500.0 -0.000544325 0.01428928
72046000.0 0.000673332 0.01619225
81045500.0 0.001955981 0.017620874
90045000.0 0.003441919 0.019177828
99044500.0 0.004916131 0.020707592
108044000.0 0.007065655 0.021082108
117043500.0 0.007910788 0.02245809
126043000.0 0.009568652 0.0235959
135042500.0 0.011357814 0.02449142
144042000.0 0.013250596 0.025287782
153041500.0 0.015240254 0.02590153
162041000.0 0.01733337 0.02632202
171040500.0 0.019359652 0.026438734
180040000.0 0.021563344 0.026340426
189039500.0 0.023694784 0.026093886
198039000.0 0.025735784 0.025519562
207038500.0 0.027771494 0.024704188
216038000.0 0.029768774 0.023619092
225037500.0 0.031599868 0.022332186
234037000.0 0.03330195 0.02063856
243036500.0 0.034689276 0.01885688
252036000.0 0.036059004 0.01678119
261035500.0 0.037063056 0.014511672
270035000.0 0.03779654 0.0120896
279034500.0 0.038206196 0.00953706
288034000.0 0.038219724 0.006957214
297033500.0 0.037850824 0.004010485
306033000.0 0.037065896 0.000907091
315032500.0 0.035199836 -0.001972634
324032000.0 0.034375748 -0.004232796
333031500.0 0.03099686 -0.006448532
342031000.0 0.02945511 -0.008854154
351030500.0 0.027069754 -0.011249726
360030000.0 0.023991858 -0.01278208
369029500.0 0.019402526 -0.014432892
378029000.0 0.016178376 -0.015177282
387028500.0 0.012213902 -0.015509442
396028000.0 0.007622709 -0.015648904
405027500.0 0.002994401 -0.0147652
414027000.0 -0.001466986 -0.013997558
423026500.0 -0.006114165 -0.012498628
432026000.0 -0.010514234 -0.009539418
441025500.0 -0.014869358 -0.006250512
450025000.0 -0.018893228 -0.002988059
459024500.0 -0.02310936 0.001619777
468024000.0 -0.025584166 0.007504531
477023500.0 -0.028514072 0.012826598
486023000.0 -0.03079747 0.018042034
495022500.0 -0.032404338 0.025538252
504022000.0 -0.033394746 0.03183331
513021500.0 -0.032465604 0.038284808
522021000.0 -0.032565478 0.045230716
531020500.0 -0.03025671 0.051753808
540020000.0 -0.027237474 0.058565144
549019500.0 -0.024754524 0.064924428
558019000.0 -0.020995646 0.071555592
567018500.0 -0.015317588 0.076797216
576018000.0 -0.010072912 0.08156352
585017500.0 -0.003130981 0.08647008
594017000.0 0.002888966 0.089551856
603016500.0 0.00918244 0.092393192
612016000.0 0.01706432 0.095425496
621015500.0 0.024873412 0.096271136
630015000.0 0.032143104 0.0966614
639014500.0 0.040290704 0.095709536
648014000.0 0.048224668 0.094572824
657013500.0 0.055976976 0.092762752
666013000.0 0.063114592 0.08828624
675012500.0 0.069792272 0.084137968
684012000.0 0.07731524 0.078872976
693011500.0 0.082709248 0.073664616
702011000.0 0.086999432 0.0656823
711010500.0 0.092365696 0.058189956
720010000.0 0.095748024 0.051507508
729009500.0 0.097491624 0.042984612
738009000.0 0.098031264 0.034494208
747008500.0 0.098824152 0.025835014
756008000.0 0.096254344 0.016704108
765007500.0 0.094347488 0.008956492
774007000.0 0.090534904 0.002256308
783006500.0 0.0855206 -0.00842484
792006000.0 0.081048744 -0.014766336
801005500.0 0.072867384 -0.021146316
810005000.0 0.066478632 -0.025212736
819004500.0 0.05733758 -0.033549998
828004000.0 0.048338132 -0.035164016
837003500.0 0.03854014 -0.037870132
846003000.0 0.029064234 -0.037271468
855002500.0 0.016115132 -0.039366712
864002000.0 0.008264093 -0.038073836
873001500.0 -0.001786283 -0.035105936
882001000.0 -0.014157892 -0.03013355
891000500.0 -0.022475622 -0.02395184
900000000.0 -0.032899078 -0.017288738
