! Created with skrf 1.8.0 (http://scikit-rf.org).
# Hz S RI R 50.0 
!freq ReS11 ImS11
50000.0 0.99746464 0.000513692
15049500.0 0.939701888 0.36079664
30049000.0 0.750156864 0.673222528
45048500.0 0.461798592 0.89274272
60048000.0 0.103213512 1.013791204
75047500.0 -0.273765312 0.9884144
90047000.0 -0.61979392 0.819836672
105046500.0 -0.891497344 0.545918144
120046000.0 -1.04219818 0.185066688
135045500.0 -1.045528768 -0.210109536
150045000.0 -0.91495328 -0.586144704
165044500.0 -0.647947072 -0.884973952
180044000.0 -0.314300672 -1.045028568
195043500.0 0.064469724 -1.102190136
210043000.0 0.435275232 -1.022032022
225042500.0 0.753126208 -0.821030336
240042000.0 0.996586176 -0.539701504
255041500.0 1.137219904 -0.186956544
270041000.0 1.151478176 0.221782256
285040500.0 1.022622346 0.63564256
300040000.0 0.687587648 0.957663872
315039500.0 0.32005904 1.193130608
330039000.0 -0.139768 1.25823784
345038500.0 -0.599235008 1.14128208
360038000.0 -0.971823296 0.87048224
375037500.0 -1.258565904 0.477028512
390037000.0 -1.376127488 -0.013407704
405036500.0 -1.292040832 -0.521749504
420036000.0 -1.034676076 -0.968856256
435035500.0 -0.628932672 -1.275881184
450035000.0 -0.152030224 -1.405778656
465034500.0 0.305712128 -1.382454144
480034000.0 0.727156224 -1.214474672
495033500.0 1.07662988 -0.914317952
510033000.0 1.320124736 -0.527947488
525032500.0 1.405072928 -0.06597536
540032000.0 1.364195584 0.389037568
555031500.0 1.156272288 0.804933056
570031000.0 0.812537664 1.114686488
585030500.0 0.388853568 1.29428112
600030000.0 -0.0526435 1.350518816
615029500.0 -0.499719936 1.228388912
630029000.0 -0.875986432 0.96134912
645028500.0 -1.177613024 0.580787968
660028000.0 -1.31701088 0.102897424
675027500.0 -1.26622296 -0.393530176
690027000.0 -1.014710904 -0.867086144
705026500.0 -0.606107136 -1.16896712
720026000.0 -0.138264608 -1.268058544
735025500.0 0.315695968 -1.21071816
750025000.0 0.710401792 -0.994826496
765024500.0 1.005648971 -0.656195712
780024000.0 1.140891792 -0.225492768
795023500.0 1.10626376 0.21201808
810023000.0 0.866375744 0.554492544
825022500.0 0.559357504 0.735010304
840022000.0 0.2772 0.783459904
855021500.0 0.057206668 0.758373824
870021000.0 -0.125719472 0.733877888
885020500.0 -0.296093568 0.722552256
900020000.0 -0.525921408 0.741976064
915019500.0 -0.504299456 0.737543488
930019000.0 -0.49140528 0.738467072
945018500.0 -0.470713216 0.746840384
960018000.0 -0.44927552 0.742835584
975017500.0 -0.440789088 0.74889472
990017000.0 -0.415817088 0.755632704
1005016500.0 -0.399797248 0.765393408
1020016000.0 -0.372578368 0.762206592
1035015500.0 -0.357150528 0.776768
1050015000.0 -0.350226816 0.79897184
1065014500.0 -0.310847584 0.791095104
1080014000.0 -0.280743584 0.79560352
1095013500.0 -0.260989872 0.801492416
1110013000.0 -0.235623936 0.804472576
1125012500.0 -0.218029168 0.79004992
1140012000.0 -0.190189168 0.809070464
1155011500.0 -0.158510768 0.785573568
1170011000.0 -0.111040904 0.796713088
1185010500.0 -0.103937896 0.8046976
1200010000.0 -0.068991472 0.805757504
1215009500.0 -0.035646068 0.81632832
1230009000.0 -0.016702452 0.811132032
1245008500.0 0.01991617 0.806938624
1260008000.0 0.044484504 0.806594752
1275007500.0 0.08352292 0.813334528
1290007000.0 0.111616736 0.793477376
1305006500.0 0.146099872 0.7916752
1320006000.0 0.173957456 0.795517824
1335005500.0 0.221745152 0.789861568
1350005000.0 0.244546688 0.783529152
1365004500.0 0.268125536 0.758992128
1380004000.0 0.303201696 0.751577344
1395003500.0 0.332123264 0.722707904
1410003000.0 0.335840096 0.70833536
1425002500.0 0.368514016 0.687409728
1440002000.0 0.390475168 0.67460256
1455001500.0 0.436890176 0.659264896
1470001000.0 0.434835552 0.643600704
1485000500.0 0.461199552 0.621903296
1500000000.0 0.505572608 0.619710528
