! Created with skrf 1.8.0 (http://scikit-rf.org).
# Hz S RI R 50.0 
!freq ReS11 ImS11
50000.0 0.99679136 0.001138363
15049500.0 0.939467456 0.360077152
30049000.0 0.749601216 0.672476224
45048500.0 0.461564288 0.891681792
60048000.0 0.103380016 1.012792588
75047500.0 -0.273347744 0.987277248
90047000.0 -0.618955584 0.819361088
105046500.0 -0.890657664 0.545870848
120046000.0 -1.040967108 0.185234704
135045500.0 -1.043574212 -0.208161392
150045000.0 -0.914129792 -0.58504416
165044500.0 -0.648530176 -0.883605888
180044000.0 -0.315041728 -1.043409584
195043500.0 0.063399656 -1.10052192
210043000.0 0.433657568 -1.021846056
225042500.0 0.75058048 -0.821612416
240042000.0 0.993104192 -0.540579456
255041500.0 1.135152336 -0.189349248
270041000.0 1.149579648 0.22023312
285040500.0 1.022841334 0.63182688
300040000.0 0.68903872 0.954344128
315039500.0 0.320745024 1.191277024
330039000.0 -0.135151664 1.255359168
345038500.0 -0.592025344 1.14123344
360038000.0 -0.967940224 0.872767744
375037500.0 -1.252807744 0.477974016
390037000.0 -1.366668576 -0.002999399
405036500.0 -1.290155776 -0.51547296
420036000.0 -1.034457804 -0.960744704
435035500.0 -0.631451584 -1.271383392
450035000.0 -0.158278384 -1.405811904
465034500.0 0.299179744 -1.380818016
480034000.0 0.727815744 -1.214087728
495033500.0 1.074680808 -0.919132608
510033000.0 1.314625248 -0.533263456
525032500.0 1.404389504 -0.07019348
540032000.0 1.358656288 0.381917408
555031500.0 1.154499408 0.798161472
570031000.0 0.81555776 1.1078428
585030500.0 0.386957376 1.280548928
600030000.0 -0.049546848 1.344795456
615029500.0 -0.491173312 1.226708176
630029000.0 -0.869105344 0.965107584
645028500.0 -1.166636464 0.581831296
660028000.0 -1.307223552 0.104954656
675027500.0 -1.270268544 -0.387563584
690027000.0 -1.01381433 -0.862163328
705026500.0 -0.611695232 -1.1677568
720026000.0 -0.138996928 -1.269681088
735025500.0 0.315973312 -1.208542592
750025000.0 0.706328896 -0.996133568
765024500.0 1.000537992 -0.657033984
780024000.0 1.17457032 -0.239237504
795023500.0 1.103590848 0.210969072
810023000.0 0.858198016 0.5511952
825022500.0 0.559793344 0.73547712
840022000.0 0.274388448 0.780725888
855021500.0 0.05387446 0.762198208
870021000.0 -0.124862856 0.73188224
885020500.0 -0.295754016 0.718470592
900020000.0 -0.530367072 0.74298784
915019500.0 -0.502952032 0.744276992
930019000.0 -0.48914112 0.744071616
945018500.0 -0.470181216 0.74749312
960018000.0 -0.45922992 0.750210624
975017500.0 -0.446189184 0.765504448
990017000.0 -0.410984 0.765580608
1005016500.0 -0.3976608 0.763268992
1020016000.0 -0.383628384 0.781985344
1035015500.0 -0.352475104 0.775810624
1050015000.0 -0.343041984 0.779886976
1065014500.0 -0.31393744 0.795611648
1080014000.0 -0.287226816 0.794790464
1095013500.0 -0.264426016 0.81037504
1110013000.0 -0.237994288 0.811195456
1125012500.0 -0.222749616 0.798115712
1140012000.0 -0.185550512 0.821656768
1155011500.0 -0.127858472 0.837740608
1170011000.0 -0.123526432 0.811283712
1185010500.0 -0.096139384 0.821612544
1200010000.0 -0.066775376 0.82089888
1215009500.0 -0.038352692 0.82807392
1230009000.0 0.000999936 0.819808576
1245008500.0 0.017547366 0.827874176
1260008000.0 0.045476116 0.811700416
1275007500.0 0.083100272 0.821047232
1290007000.0 0.124603064 0.815770688
1305006500.0 0.163955472 0.815719104
1320006000.0 0.187005056 0.807931776
1335005500.0 0.208512816 0.799964608
1350005000.0 0.250343888 0.790048
1365004500.0 0.312966976 0.755184128
1380004000.0 0.301185664 0.765484672
1395003500.0 0.302718624 0.751788288
1410003000.0 0.347973696 0.725143424
1425002500.0 0.364727744 0.715244864
1440002000.0 0.377904 0.698154944
1455001500.0 0.417925344 0.681808896
1470001000.0 0.451805184 0.644672192
1485000500.0 0.468173824 0.637034176
1500000000.0 0.456284448 0.625899584
