! Created with skrf 1.8.0 (http://scikit-rf.org).
# Hz S RI R 50.0 
!freq ReS11 ImS11
50000.0 0.998562048 0.001799004
15049500.0 0.940442688 0.361513248
30049000.0 0.750286848 0.673669056
45048500.0 0.461914112 0.893577792
60048000.0 0.102687584 1.01491356
75047500.0 -0.27440192 0.9894336
90047000.0 -0.62075616 0.820606272
105046500.0 -0.892843328 0.546184064
120046000.0 -1.043560384 0.184302864
135045500.0 -1.045480728 -0.210562912
150045000.0 -0.91548032 -0.587794944
165044500.0 -0.648168064 -0.886822016
180044000.0 -0.31346272 -1.046182992
195043500.0 0.06610644 -1.103551384
210043000.0 0.437715456 -1.023588658
225042500.0 0.755477248 -0.821595904
240042000.0 0.998661696 -0.537867904
255041500.0 1.139995104 -0.1843612
270041000.0 1.154255632 0.226079088
285040500.0 1.02273488 0.63720352
300040000.0 0.684945088 0.960139392
315039500.0 0.316016288 1.196700928
330039000.0 -0.143137104 1.26133704
345038500.0 -0.602570624 1.143696912
360038000.0 -0.975108288 0.869402496
375037500.0 -1.25732768 0.470506432
390037000.0 -1.385971296 -0.01913875
405036500.0 -1.290430784 -0.527389408
420036000.0 -1.035636068 -0.974059008
435035500.0 -0.62905472 -1.27657472
450035000.0 -0.168090832 -1.40477824
465034500.0 0.306037696 -1.384648448
480034000.0 0.734298752 -1.216721408
495033500.0 1.082704784 -0.915913792
510033000.0 1.32690656 -0.527469088
525032500.0 1.414833056 -0.06258046
540032000.0 1.365495552 0.391634016
555031500.0 1.156499632 0.810659136
570031000.0 0.812809792 1.124214768
585030500.0 0.390907584 1.298801664
600030000.0 -0.058427704 1.354864
615029500.0 -0.509413664 1.232049344
630029000.0 -0.882121856 0.964054208
645028500.0 -1.176390768 0.585632192
660028000.0 -1.324158784 0.10484828
675027500.0 -1.272005568 -0.388877088
690027000.0 -1.02213335 -0.865986816
705026500.0 -0.613121088 -1.178740256
720026000.0 -0.137071744 -1.27417552
735025500.0 0.311253056 -1.21408296
750025000.0 0.712871424 -1.010183454
765024500.0 1.005978108 -0.663472832
780024000.0 1.14598536 -0.221382912
795023500.0 1.107443928 0.207905136
810023000.0 0.868618752 0.555616064
825022500.0 0.56346592 0.735770688
840022000.0 0.28353088 0.77873216
855021500.0 0.059209608 0.760889856
870021000.0 -0.12296872 0.733510144
885020500.0 -0.295572864 0.717975552
900020000.0 -0.515426592 0.741042368
915019500.0 -0.506089856 0.737094464
930019000.0 -0.478689504 0.740093824
945018500.0 -0.467081408 0.736722304
960018000.0 -0.450814208 0.75309536
975017500.0 -0.421669824 0.746677824
990017000.0 -0.4148536 0.74532064
1005016500.0 -0.390742176 0.753470784
1020016000.0 -0.3738152 0.754176384
1035015500.0 -0.35152624 0.76737344
1050015000.0 -0.339858144 0.754175232
1065014500.0 -0.313463552 0.773227904
1080014000.0 -0.284629664 0.787417344
1095013500.0 -0.256482816 0.787227712
1110013000.0 -0.235879424 0.790638272
1125012500.0 -0.214170576 0.783541184
1140012000.0 -0.180853664 0.790745472
1155011500.0 -0.13195388 0.81178432
1170011000.0 -0.12692708 0.794815808
1185010500.0 -0.105055704 0.793798208
1200010000.0 -0.072392864 0.796880448
1215009500.0 -0.046435228 0.791507456
1230009000.0 -0.011682958 0.798366016
1245008500.0 0.002249188 0.785703616
1260008000.0 0.038970572 0.791851712
1275007500.0 0.060405032 0.79643584
1290007000.0 0.100381712 0.78878144
1305006500.0 0.145893104 0.792790016
1320006000.0 0.165338784 0.774161664
1335005500.0 0.19032592 0.758755264
1350005000.0 0.2297412 0.762511104
1365004500.0 0.260845776 0.718414592
1380004000.0 0.281690816 0.73778592
1395003500.0 0.32325616 0.724289152
1410003000.0 0.352872672 0.702121856
1425002500.0 0.363593408 0.671706112
1440002000.0 0.381963264 0.675137344
1455001500.0 0.41493264 0.637023552
1470001000.0 0.443505184 0.640597184
1485000500.0 0.466355168 0.626166528
1500000000.0 0.488351168 0.591515264
