! Created with skrf 1.8.0 (http://scikit-rf.org).
# Hz S RI R 50.0 
!freq ReS11 ImS11
50000.0 0.006997979 -0.004102378
15049500.0 0.009226112 -6.1306e-05
30049000.0 0.010645884 -0.001457436
45048500.0 0.012084376 -0.003464573
60048000.0 0.013396044 -0.00615303
75047500.0 0.014175812 -0.009361156
90047000.0 0.01503626 -0.012602966
105046500.0 0.015088386 -0.01667471
120046000.0 0.014660108 -0.020790524
135045500.0 0.013490754 -0.025037
150045000.0 0.011586118 -0.029126792
165044500.0 0.009211594 -0.03302852
180044000.0 0.006025194 -0.036531592
195043500.0 0.002373599 -0.039396868
210043000.0 -0.001551607 -0.041618308
225042500.0 -0.005687194 -0.043126756
240042000.0 -0.009865074 -0.043907712
255041500.0 -0.013969236 -0.043948492
270041000.0 -0.01775661 -0.043342164
285040500.0 -0.020919866 -0.042172568
300040000.0 -0.022702916 -0.040714124
315039500.0 -0.024977258 -0.03843002
330039000.0 -0.026082286 -0.036541596
345038500.0 -0.026312012 -0.03450948
360038000.0 -0.026160102 -0.033436518
375037500.0 -0.025642686 -0.03154935
390037000.0 -0.023649794 -0.030347974
405036500.0 -0.02194848 -0.030777672
420036000.0 -0.020125514 -0.0314341
435035500.0 -0.017390476 -0.033047136
450035000.0 -0.015327714 -0.03503828
465034500.0 -0.014161836 -0.03794974
480034000.0 -0.01308833 -0.04183918
495033500.0 -0.012283992 -0.04606816
510033000.0 -0.012541306 -0.049961052
525032500.0 -0.013888282 -0.055603156
540032000.0 -0.015600874 -0.060062692
555031500.0 -0.01883244 -0.064841764
570031000.0 -0.022479226 -0.069058792
585030500.0 -0.026750022 -0.073056008
600030000.0 -0.03190859 -0.076574504
615029500.0 -0.037719412 -0.078923104
630029000.0 -0.043922676 -0.080547912
645028500.0 -0.050019836 -0.080979592
660028000.0 -0.05581178 -0.080773384
675027500.0 -0.061909592 -0.07975972
690027000.0 -0.067249112 -0.078108352
705026500.0 -0.071633992 -0.074218416
720026000.0 -0.075675752 -0.071433928
735025500.0 -0.079726744 -0.066772252
750025000.0 -0.081683768 -0.063500472
765024500.0 -0.083273112 -0.059525284
780024000.0 -0.081793072 -0.054478928
795023500.0 -0.082562808 -0.051783144
810023000.0 -0.081421008 -0.048851108
825022500.0 -0.079202208 -0.04630966
840022000.0 -0.07660756 -0.045105292
855021500.0 -0.074166752 -0.043720436
870021000.0 -0.070916424 -0.044721152
885020500.0 -0.068627968 -0.046392728
900020000.0 -0.066570988 -0.04938574
915019500.0 -0.063968672 -0.0535721
930019000.0 -0.063084708 -0.057609536
945018500.0 -0.063977628 -0.06208836
960018000.0 -0.063604988 -0.065415756
975017500.0 -0.064602032 -0.072545736
990017000.0 -0.066956752 -0.078690016
1005016500.0 -0.071303744 -0.08267232
1020016000.0 -0.072773048 -0.088239264
1035015500.0 -0.079463 -0.095233848
1050015000.0 -0.089919464 -0.097994752
1065014500.0 -0.096661472 -0.102269088
1080014000.0 -0.107309576 -0.105372248
1095013500.0 -0.116969384 -0.10408404
1110013000.0 -0.12668064 -0.101554232
1125012500.0 -0.13273232 -0.101417528
1140012000.0 -0.143424048 -0.095455368
1155011500.0 -0.155239904 -0.091476064
1170011000.0 -0.156631744 -0.083583384
1185010500.0 -0.158731296 -0.0758482
1200010000.0 -0.169391104 -0.068744848
1215009500.0 -0.168101008 -0.064056656
1230009000.0 -0.17125864 -0.059536292
1245008500.0 -0.17254032 -0.048230176
1260008000.0 -0.17798296 -0.037402612
1275007500.0 -0.182653952 -0.04392654
1290007000.0 -0.179049216 -0.029717248
1305006500.0 -0.170074704 -0.02738894
1320006000.0 -0.164430752 -0.020145412
1335005500.0 -0.162629744 -0.015253926
1350005000.0 -0.16550048 -0.02123098
1365004500.0 -0.160985328 -0.015248914
1380004000.0 -0.1635988 -0.014027232
1395003500.0 -0.168321728 -0.021539624
1410003000.0 -0.175582208 -0.027442568
1425002500.0 -0.157112496 -0.036342536
1440002000.0 -0.170061088 -0.031275236
1455001500.0 -0.178679936 -0.042908072
1470001000.0 -0.184324944 -0.059930224
1485000500.0 -0.189179376 -0.042231136
1500000000.0 -0.195128592 -0.058229772
