! Created with skrf 1.8.0 (http://scikit-rf.org).
# Hz S RI R 50.0 
!freq ReS11 ImS11
50000.0 0.996609984 0.000898072
15049500.0 0.93890912 0.360574272
30049000.0 0.749759104 0.67225568
45048500.0 0.461700096 0.891576704
60048000.0 0.103222288 1.01295221
75047500.0 -0.27312288 0.98756736
90047000.0 -0.618794496 0.819627136
105046500.0 -0.890554048 0.545988864
120046000.0 -1.040833236 0.185480464
135045500.0 -1.045579912 -0.209409024
150045000.0 -0.914080384 -0.585117824
165044500.0 -0.647529216 -0.883411072
180044000.0 -0.314599968 -1.043134808
195043500.0 0.063140192 -1.100472928
210043000.0 0.433377504 -1.022044062
225042500.0 0.750901952 -0.821473536
240042000.0 0.9938096 -0.540886208
255041500.0 1.13547384 -0.188912608
270041000.0 1.149737008 0.220459664
285040500.0 1.022112608 0.632025984
300040000.0 0.687116864 0.9568672
315039500.0 0.318736192 1.19274056
330039000.0 -0.135675568 1.255953792
345038500.0 -0.5927056 1.14175344
360038000.0 -0.96393824 0.872966528
375037500.0 -1.252664928 0.479859552
390037000.0 -1.358861312 -0.001827236
405036500.0 -1.284969088 -0.51664608
420036000.0 -1.032321214 -0.963569024
435035500.0 -0.630612288 -1.267527344
450035000.0 -0.172444816 -1.396425248
465034500.0 0.300967616 -1.376734496
480034000.0 0.717870144 -1.212878592
495033500.0 1.06867492 -0.916962752
510033000.0 1.309931392 -0.527476608
525032500.0 1.407327648 -0.069269232
540032000.0 1.361084832 0.3824104
555031500.0 1.153738976 0.794686784
570031000.0 0.813544704 1.112930896
585030500.0 0.39348624 1.28746176
600030000.0 -0.05025992 1.341933504
615029500.0 -0.48989552 1.22460664
630029000.0 -0.873497472 0.959828928
645028500.0 -1.166812656 0.5814192
660028000.0 -1.305338368 0.109228552
675027500.0 -1.268654816 -0.388178368
690027000.0 -1.012378098 -0.856930624
705026500.0 -0.602295488 -1.161125424
720026000.0 -0.135756288 -1.26092112
735025500.0 0.314127936 -1.205508
750025000.0 0.707576192 -1.001041651
765024500.0 1.002815724 -0.653775936
780024000.0 1.133917808 -0.252436544
795023500.0 1.10229516 0.212475696
810023000.0 0.86197888 0.552731072
825022500.0 0.555463872 0.737803776
840022000.0 0.272890624 0.781168512
855021500.0 0.054037544 0.76333024
870021000.0 -0.1338478 0.734814272
885020500.0 -0.30469936 0.71729728
900020000.0 -0.52039952 0.742620224
915019500.0 -0.506184704 0.745707776
930019000.0 -0.495545376 0.736433728
945018500.0 -0.467516288 0.740471616
960018000.0 -0.451685984 0.746670336
975017500.0 -0.43318272 0.742905792
990017000.0 -0.420217376 0.760680896
1005016500.0 -0.401910464 0.765757248
1020016000.0 -0.385529504 0.775194048
1035015500.0 -0.362012864 0.783297984
1050015000.0 -0.313414432 0.764769344
1065014500.0 -0.304654368 0.792965824
1080014000.0 -0.290289856 0.802897472
1095013500.0 -0.262697072 0.806316672
1110013000.0 -0.234790368 0.817421952
1125012500.0 -0.232023504 0.804091008
1140012000.0 -0.17919008 0.828316096
1155011500.0 -0.168032432 0.805269568
1170011000.0 -0.13951496 0.815505728
1185010500.0 -0.100889768 0.823929216
1200010000.0 -0.06889288 0.824695616
1215009500.0 -0.043898984 0.825540288
1230009000.0 -0.004331701 0.823575168
1245008500.0 0.023110636 0.836718016
1260008000.0 0.068609208 0.82999392
1275007500.0 0.092259768 0.824734528
1290007000.0 0.122097136 0.819014336
1305006500.0 0.161339968 0.816747968
1320006000.0 0.186431328 0.815938944
1335005500.0 0.219077504 0.800378432
1350005000.0 0.227609888 0.78866304
1365004500.0 0.26111856 0.813053504
1380004000.0 0.288642272 0.775587328
1395003500.0 0.322817824 0.742820992
1410003000.0 0.352631648 0.730096704
1425002500.0 0.375847296 0.711312768
1440002000.0 0.384504736 0.69893024
1455001500.0 0.413130208 0.693209792
1470001000.0 0.428462272 0.657811712
1485000500.0 0.45612688 0.649320832
1500000000.0 0.469709408 0.621725568
