! Created with skrf 1.8.0 (http://scikit-rf.org).
# Hz S RI R 50.0 
!freq ReS11 ImS11
50000.0 0.996380672 0.001889015
15049500.0 0.939201216 0.360795168
30049000.0 0.74948672 0.673228224
45048500.0 0.461412128 0.89249568
60048000.0 0.103076208 1.013713718
75047500.0 -0.273629344 0.988025664
90047000.0 -0.619317056 0.819905792
105046500.0 -0.891211776 0.545951872
120046000.0 -1.042037724 0.18527136
135045500.0 -1.046114804 -0.208705472
150045000.0 -0.914973824 -0.585659264
165044500.0 -0.648797888 -0.88442944
180044000.0 -0.3152544 -1.044765712
195043500.0 0.063387088 -1.102134704
210043000.0 0.434800096 -1.023528456
225042500.0 0.752419648 -0.822070016
240042000.0 0.994996992 -0.541007808
255041500.0 1.136587616 -0.189255088
270041000.0 1.151163216 0.221122912
285040500.0 1.024211884 0.632601216
300040000.0 0.689637568 0.957580928
315039500.0 0.322140416 1.19286704
330039000.0 -0.1343236 1.259620192
345038500.0 -0.594344704 1.13816488
360038000.0 -0.966103424 0.87346048
375037500.0 -1.256894352 0.479336384
390037000.0 -1.367487904 -0.007306662
405036500.0 -1.296952832 -0.515392288
420036000.0 -1.039319872 -0.968476672
435035500.0 -0.634341632 -1.270413056
450035000.0 -0.163514672 -1.391101248
465034500.0 0.300759328 -1.385535008
480034000.0 0.725565184 -1.216635824
495033500.0 1.074045304 -0.919373184
510033000.0 1.317654624 -0.532975488
525032500.0 1.411535136 -0.073652256
540032000.0 1.365341184 0.37718544
555031500.0 1.163734192 0.801744448
570031000.0 0.822192192 1.112321016
585030500.0 0.403712832 1.286100032
600030000.0 -0.046076096 1.351858496
615029500.0 -0.489603744 1.227295632
630029000.0 -0.867686592 0.973200128
645028500.0 -1.169778224 0.589618432
660028000.0 -1.30981648 0.117540824
675027500.0 -1.275408992 -0.385884032
690027000.0 -1.018259286 -0.856509696
705026500.0 -0.623368064 -1.1683116
720026000.0 -0.1448896 -1.27065552
735025500.0 0.310984896 -1.2160796
750025000.0 0.70561216 -1.001924157
765024500.0 1.000306249 -0.666212032
780024000.0 1.182383296 -0.256113856
795023500.0 1.104617832 0.202245488
810023000.0 0.866180544 0.550302272
825022500.0 0.563838912 0.73628672
840022000.0 0.28027424 0.776361344
855021500.0 0.0623803 0.76164704
870021000.0 -0.120808208 0.735542656
885020500.0 -0.292766304 0.719550528
900020000.0 -0.516669024 0.74601184
915019500.0 -0.498302208 0.749697984
930019000.0 -0.487488064 0.741274944
945018500.0 -0.463891648 0.749697664
960018000.0 -0.446937184 0.753575744
975017500.0 -0.436739392 0.759956416
990017000.0 -0.4097264 0.757574528
1005016500.0 -0.387340512 0.763471232
1020016000.0 -0.370063968 0.78217184
1035015500.0 -0.348741696 0.780662016
1050015000.0 -0.315593984 0.804917504
1065014500.0 -0.30444016 0.789831616
1080014000.0 -0.282900608 0.790074944
1095013500.0 -0.257370592 0.803386496
1110013000.0 -0.23271776 0.794515456
1125012500.0 -0.213958064 0.803568448
1140012000.0 -0.181431888 0.814781952
1155011500.0 -0.1566516 0.788871296
1170011000.0 -0.124196496 0.808420672
1185010500.0 -0.10139308 0.803982848
1200010000.0 -0.069438936 0.81445088
1215009500.0 -0.04750666 0.817241536
1230009000.0 -0.011368322 0.814083776
1245008500.0 0.01123246 0.818424256
1260008000.0 0.04808078 0.802497344
1275007500.0 0.078632088 0.803850624
1290007000.0 0.113956928 0.80409536
1305006500.0 0.149365264 0.812009792
1320006000.0 0.181490896 0.79063968
1335005500.0 0.20524712 0.778388736
1350005000.0 0.231975328 0.782670912
1365004500.0 0.275256704 0.802162496
1380004000.0 0.297771744 0.74765888
1395003500.0 0.333306272 0.748058048
1410003000.0 0.341320256 0.714362496
1425002500.0 0.369062816 0.70442016
1440002000.0 0.393927008 0.698386432
1455001500.0 0.410585216 0.668856704
1470001000.0 0.441884544 0.65759712
1485000500.0 0.471457696 0.624913536
1500000000.0 0.469103328 0.6300848
