! Created with skrf 1.8.0 (http://scikit-rf.org).
# Hz S RI R 50.0 
!freq ReS11 ImS11
50000.0 0.99630464 0.001462243
15049500.0 0.939761536 0.360266176
30049000.0 0.750137856 0.67283808
45048500.0 0.461697952 0.892118592
60048000.0 0.103513944 1.013836862
75047500.0 -0.273176096 0.988604544
90047000.0 -0.619158144 0.820092928
105046500.0 -0.89091872 0.54651744
120046000.0 -1.042190076 0.18573936
135045500.0 -1.046450736 -0.20934296
150045000.0 -0.9157568 -0.586116672
165044500.0 -0.648843648 -0.884523328
180044000.0 -0.315010464 -1.044411896
195043500.0 0.06379608 -1.10119116
210043000.0 0.434511328 -1.022687436
225042500.0 0.752689856 -0.822377216
240042000.0 0.995211648 -0.540462848
255041500.0 1.135859968 -0.188755728
270041000.0 1.151143904 0.221016272
285040500.0 1.022729278 0.633132736
300040000.0 0.689293376 0.956774464
315039500.0 0.320000224 1.193081504
330039000.0 -0.136860768 1.256829984
345038500.0 -0.59832192 1.142125968
360038000.0 -0.970141568 0.871229824
375037500.0 -1.253777984 0.478861952
390037000.0 -1.359192608 0.003012563
405036500.0 -1.29105424 -0.520362304
420036000.0 -1.035192728 -0.966100672
435035500.0 -0.63444832 -1.271449568
450035000.0 -0.171422592 -1.403785344
465034500.0 0.299554912 -1.377908576
480034000.0 0.72449408 -1.215558656
495033500.0 1.075735328 -0.919250944
510033000.0 1.320561056 -0.526930688
525032500.0 1.410772096 -0.06803724
540032000.0 1.361265184 0.384986176
555031500.0 1.155272 0.802853184
570031000.0 0.811258816 1.10899496
585030500.0 0.395027712 1.28910864
600030000.0 -0.052533432 1.346520896
615029500.0 -0.493896032 1.227106208
630029000.0 -0.87630848 0.96113792
645028500.0 -1.16889488 0.582670912
660028000.0 -1.30725408 0.107817216
675027500.0 -1.26742768 -0.395746144
690027000.0 -1.017058254 -0.861529216
705026500.0 -0.6104816 -1.166831856
720026000.0 -0.140452576 -1.27385664
735025500.0 0.3115608 -1.214787008
750025000.0 0.702252224 -1.004024267
765024500.0 1.00247252 -0.664986304
780024000.0 1.175091984 -0.219197072
795023500.0 1.100380536 0.207237216
810023000.0 0.866612864 0.551009152
825022500.0 0.561004352 0.731386688
840022000.0 0.280995296 0.775318144
855021500.0 0.058528584 0.763256512
870021000.0 -0.122916536 0.733286528
885020500.0 -0.299897792 0.721239488
900020000.0 -0.516901504 0.747171072
915019500.0 -0.501374016 0.7382592
930019000.0 -0.483345664 0.740871232
945018500.0 -0.463947488 0.74618368
960018000.0 -0.451210336 0.749480512
975017500.0 -0.430349856 0.74973792
990017000.0 -0.408165792 0.756074432
1005016500.0 -0.396747808 0.761325184
1020016000.0 -0.383166272 0.771273792
1035015500.0 -0.346493024 0.778673344
1050015000.0 -0.344803936 0.782164544
1065014500.0 -0.314275264 0.78478976
1080014000.0 -0.284464864 0.794236928
1095013500.0 -0.26352048 0.80492864
1110013000.0 -0.229677184 0.80225728
1125012500.0 -0.222137904 0.795340352
1140012000.0 -0.183050144 0.81186112
1155011500.0 -0.137715696 0.83287808
1170011000.0 -0.128295688 0.807799552
1185010500.0 -0.0965992 0.812890944
1200010000.0 -0.068375648 0.810282752
1215009500.0 -0.049161028 0.810679168
1230009000.0 -0.019236578 0.810413184
1245008500.0 0.014096234 0.809162112
1260008000.0 0.047576656 0.805273472
1275007500.0 0.079945912 0.8073632
1290007000.0 0.105622528 0.806879488
1305006500.0 0.156245328 0.799087616
1320006000.0 0.186737008 0.79451744
1335005500.0 0.219462208 0.774923072
1350005000.0 0.23817 0.757715456
1365004500.0 0.292609344 0.759487872
1380004000.0 0.30727008 0.73677152
1395003500.0 0.325931296 0.743087104
1410003000.0 0.348540416 0.718604032
1425002500.0 0.366503424 0.696500928
1440002000.0 0.401770016 0.68797408
1455001500.0 0.4308784 0.677442432
1470001000.0 0.442331296 0.640004032
1485000500.0 0.460804288 0.646184128
1500000000.0 0.487256352 0.630262464
