! Created with skrf 1.8.0 (http://scikit-rf.org).
# Hz S RI R 50.0 
!freq ReS11 ImS11
50000.0 -0.001813548 5.1991e-05
10049500.0 -0.002877597 -0.000393001
20049000.0 -0.004128354 -0.000600675
30048500.0 -0.005778249 -0.001044232
40048000.0 -0.007781181 -0.001907748
50047500.0 -0.009656956 -0.003581787
60047000.0 -0.01155716 -0.005858688
70046500.0 -0.013318102 -0.008683576
80046000.0 -0.014450778 -0.012657438
90045500.0 -0.015450184 -0.01610885
100045000.0 -0.015173638 -0.020166504
110044500.0 -0.01424375 -0.024332122
120044000.0 -0.012319374 -0.028341874
130043500.0 -0.00885268 -0.031509954
140043000.0 -0.006011646 -0.03491602
150042500.0 -0.001719054 -0.037067492
160042000.0 0.002846805 -0.038215952
170041500.0 0.007520423 -0.038208992
180041000.0 0.011085942 -0.035850204
190040500.0 0.014807614 -0.033730736
200040000.0 0.017524478 -0.030672286
210039500.0 0.019261166 -0.02683671
220039000.0 0.019580412 -0.0227782
230038500.0 0.0184877 -0.018856558
240038000.0 0.016035374 -0.015544192
250037500.0 0.012306034 -0.01319722
260037000.0 0.007531947 -0.012147916
270036500.0 0.002159965 -0.012770062
280036000.0 -0.003192777 -0.014930454
290035500.0 -0.008600064 -0.0191567
300035000.0 -0.012017112 -0.024507914
310034500.0 -0.015838762 -0.03167507
320034000.0 -0.017195744 -0.041277788
330033500.0 -0.015593992 -0.052668092
340033000.0 -0.012490292 -0.062596172
350032500.0 -0.005865889 -0.072655848
360032000.0 0.002624672 -0.08264128
370031500.0 0.014804062 -0.091253408
380031000.0 0.029664876 -0.097388472
390030500.0 0.0457531 -0.100818128
400030000.0 0.062936252 -0.098212536
410029500.0 0.080436672 -0.093957488
420029000.0 0.097888776 -0.085596344
430028500.0 0.1130054 -0.072191296
440028000.0 0.126806944 -0.056933756
450027500.0 0.135559296 -0.037025292
460027000.0 0.141139408 -0.014869854
470026500.0 0.140463184 0.008386278
480026000.0 0.137979328 0.03225832
490025500.0 0.126714304 0.053246336
500025000.0 0.111849624 0.073804448
510024500.0 0.091522864 0.089709904
520024000.0 0.067944216 0.10062472
530023500.0 0.041301276 0.10626804
540023000.0 0.011780774 0.104262312
550022500.0 -0.013941114 0.095988856
560022000.0 -0.037022908 0.080718456
570021500.0 -0.054704052 0.062418012
580021000.0 -0.069745136 0.039313764
590020500.0 -0.078129368 0.012826718
600020000.0 -0.080760608 -0.016335744
610019500.0 -0.078171656 -0.045496164
620019000.0 -0.066543704 -0.07579344
630018500.0 -0.046832292 -0.102551368
640018000.0 -0.02117373 -0.121009264
650017500.0 0.068684872 -0.061309836
660017000.0 0.038218152 -0.144409632
670016500.0 0.07117464 -0.147072672
680016000.0 0.101076952 -0.142964624
690015500.0 0.131548224 -0.129483592
700015000.0 0.15466872 -0.111641904
710014500.0 0.176105664 -0.083490912
720014000.0 0.191407376 -0.050341124
730013500.0 0.200839984 -0.013303572
740013000.0 0.201895984 0.02710515
750012500.0 0.196484432 0.069688048
760012000.0 0.176358784 0.113883656
770011500.0 0.143503776 0.150547424
780011000.0 0.101540336 0.17790552
790010500.0 0.047558944 0.194388272
800010000.0 -0.007510423 0.187398976
810009500.0 -0.053310404 0.169032064
820009000.0 -0.096251056 0.14263424
830008500.0 -0.13110104 0.109118016
840008000.0 -0.15452456 0.066889784
850007500.0 -0.171044336 0.02297377
860007000.0 -0.180738608 -0.022651184
870006500.0 -0.187654384 -0.072526208
880006000.0 -0.190407328 -0.126157744
890005500.0 -0.188289024 -0.191781664
900005000.0 -0.178162688 -0.266480592
910004500.0 -0.189859344 -0.298373312
920004000.0 -0.186720976 -0.256919776
930003500.0 -0.191671376 -0.25824776
940003000.0 -0.19629416 -0.25431896
950002500.0 -0.20644056 -0.250870256
960002000.0 -0.215721376 -0.2408416
970001500.0 -0.210070752 -0.237963872
980001000.0 -0.218963184 -0.227020272
990000500.0 -0.223728816 -0.212970592
1000000000.0 -0.22881264 -0.206492032
