! Created with skrf 1.8.0 (http://scikit-rf.org).
# Hz S RI R 50.0 
!freq ReS11 ImS11
50000.0 -1.5576861630206589 0.779592516816097
15049500.0 -0.24060235804023689 -0.20069412442004145
30049000.0 0.834689655293065 -1.1091296485996172
45048500.0 0.9837630447864122 -3.7658428360376264
60048000.0 1.6993621541180892 0.15881895506138474
75047500.0 1.142373388327637 1.471590497631457
90047000.0 1.384631412454795 4.254253009444023
105046500.0 -0.6121775004980939 -1.49885023800574
120046000.0 -0.2167760454710466 0.9920686329390807
135045500.0 0.025080635043612826 -0.5501128294120776
150045000.0 -1.7837098575006352 -0.7422882999262788
165044500.0 0.9475369102565689 3.092132521626206
180044000.0 -2.2215219038220484 -3.001022240651981
195043500.0 -0.6446554205745554 0.5613074726169694
210043000.0 3.653167914899091 3.197685747946021
225042500.0 -2.815946775660857 -4.054413362339555
240042000.0 1.6325080543292543 -1.2123150083182026
255041500.0 -0.8795269838719554 -0.3684337388834697
270041000.0 0.6389329406307599 2.394354708995498
285040500.0 -0.910930551820569 6.145705455931779
300040000.0 -0.7217680940913647 -1.8487739365393654
315039500.0 -0.45020214089696536 -1.6293443689508356
330039000.0 1.3563537084698882 0.9436942425715474
345038500.0 1.5383018399262394 -0.08835316150677251
360038000.0 1.1052873171410766 0.8466956314103965
375037500.0 -0.9415404973173814 1.7716033127614117
390037000.0 1.0632806478317347 -0.29828527119497206
405036500.0 -0.9734125635198756 0.20785204406773006
420036000.0 -0.38581445436124656 0.1392452726899768
435035500.0 -0.09735786291479015 0.39712475668439323
450035000.0 0.7283713141834617 0.3424492348603917
465034500.0 -0.22990309977305234 0.08096128263538169
480034000.0 -0.8123420007206511 -1.1653769156946316
495033500.0 0.23338549878688364 -2.851329960831237
510033000.0 -0.8960310954151386 0.08881503294265249
525032500.0 -0.8117468959866634 -0.2365696834090775
540032000.0 2.133147232859757 -2.5276443297711464
555031500.0 -0.7837570708060669 -2.98336299537002
570031000.0 1.612266382922238 1.0024672535266899
585030500.0 1.6582355148540027 -0.9157505008115202
600030000.0 -1.4268926474829466 1.1494891181850184
615029500.0 -0.8641986193897783 -0.7592445624194808
630029000.0 1.6207830184910763 -0.2837126668386313
645028500.0 -1.2098645710575713 0.7407289461886565
660028000.0 0.0682705809895567 0.6760120225506421
675027500.0 -2.4241643174823704 -0.11627391074951049
690027000.0 -0.3740990856064178 0.39934861847553244
705026500.0 0.1034818684659274 -0.7165409411215258
720026000.0 -0.9075606971852372 -0.46791174070869695
735025500.0 12.134544980891716 -2.1069958817044294
750025000.0 2.281461761368281 0.8281249239547513
765024500.0 0.3575403899152244 0.12325025977778768
780024000.0 1.3456956496504298 1.500048673832103
795023500.0 0.6586535300614228 1.0205410383247497
810023000.0 -0.8736364676602618 1.8382468761355666
825022500.0 -0.8344889591481847 -0.6160138782225373
840022000.0 1.5980885453613283 3.1472881343437042
855021500.0 -3.2192364374214013 -0.7652940399354684
870021000.0 0.8563023490394635 -1.1168529287853288
885020500.0 1.2400417389080283 0.23302197887045276
900020000.0 -0.7987509389642661 -0.037408800134778486
915019500.0 -1.6789724174021874 0.10622594990996398
930019000.0 0.7330974130006132 0.5015275420785376
945018500.0 0.0262297095588247 -1.3866516616870632
960018000.0 1.2111498585635774 1.3298798295030498
975017500.0 2.3545280198388467 -0.26862909283604486
990017000.0 -0.12958828352983415 1.075561030051667
1005016500.0 -3.45222619882239 -0.6585255741809694
1020016000.0 0.20954121144076188 1.1681006817087738
1035015500.0 -3.9880263152916755 -2.449182452538041
1050015000.0 0.37057328537725814 2.169831841973492
1065014500.0 -2.2527321467830124 -0.8768498282243791
1080014000.0 0.837320580674692 -1.3662355852299386
1095013500.0 0.3519803492747788 -0.02538457484550537
1110013000.0 0.40927358527444785 1.2636444831843725
1125012500.0 0.16319034121023207 1.2858163337220976
1140012000.0 0.7702071681977508 -1.2316066916061437
1155011500.0 -3.97490485088532 3.6311955742236384
1170011000.0 2.50762001973268 -0.21562158485424449
1185010500.0 -1.6920092057751408 2.1461679219131353
1200010000.0 0.2865310209681442 -0.723464497517639
1215009500.0 3.133742376158623 -4.478294227124405
1230009000.0 -0.03321463794229446 -1.7215625499079092
1245008500.0 -0.018290077060277465 -0.6084962217160914
1260008000.0 1.1617026504781032 0.5780750517146795
1275007500.0 0.06717524537404347 -0.5580580251296717
1290007000.0 -3.335157011785096 8.407385313131053
1305006500.0 0.5586320275778269 0.39882197071992453
1320006000.0 -3.446848781975966 3.3837412224686925
1335005500.0 0.684880216209314 0.016414323677086187
1350005000.0 1.3852456707009961 -1.0462534529881409
1365004500.0 0.7542053872956447 -0.706181538476668
1380004000.0 0.9631993958033052 0.321471453011781
1395003500.0 1.1351577059679405 0.7058635480662293
1410003000.0 1.5609626708856705 0.2914135709118508
1425002500.0 1.5349037714631648 1.415331408933574
1440002000.0 -0.6451997963847627 -0.9857775739933645
1455001500.0 0.6451879669438776 -1.014015841917419
1470001000.0 -0.01113134812323939 1.5290344516343308
1485000500.0 -0.21207889762558255 -1.3721362907373678
1500000000.0 0.2976570021925925 -1.2905180958288391
