! Created with skrf 1.8.0 (http://scikit-rf.org).
# Hz S RI R 50.0 
!freq ReS11 ImS11
50000.0 -1.6659963618803555 -0.2145153464503261
15049500.0 1.8349930743184435 1.8591860562871978
30049000.0 -1.8518785077354014 -1.650569484430763
45048500.0 2.002303754971758 -0.15045686454475649
60048000.0 0.9288506011404872 0.3038416178328663
75047500.0 -0.43546800272750197 -4.960860921336649
90047000.0 -0.566887259585 -3.340391680318005
105046500.0 1.2868655759198748 -1.1498479461250564
120046000.0 3.6199580850354782 -1.942874827783831
135045500.0 6.754887099372084 -1.9721223619601849
150045000.0 2.7947694490105057 -0.7094084146953701
165044500.0 1.1046427233324752 -3.3095932376051813
180044000.0 0.01174651308589977 -0.5792555232795217
195043500.0 -0.41617431567301044 1.1834435868552216
210043000.0 1.5460105944909326 1.2364735653488872
225042500.0 -0.29223887516895586 -0.6262644095747202
240042000.0 3.4272544417627326 0.8136647553524501
255041500.0 0.3586913424456556 -0.47275312107744305
270041000.0 4.97576835176333 5.982217947381641
285040500.0 -1.4046253065967131 -1.5931009795942748
300040000.0 1.929924970474227 -0.18985404004247322
315039500.0 -0.004401647865533272 1.426820471260623
330039000.0 1.3620861230645886 0.8602332076122137
345038500.0 -1.620619188559484 -0.5664410974600362
360038000.0 -0.13455900919410893 -3.9983299234289444
375037500.0 0.42728751124622777 0.5552279947492778
390037000.0 1.0420567913260887 0.4133208213319419
405036500.0 -0.35940671149805425 0.42819283386783125
420036000.0 3.450124272984235 -1.3909459055045832
435035500.0 1.3899203731389749 1.075555620824298
450035000.0 -3.807836111580346 8.153968745690413
465034500.0 -0.35755025920625827 0.7365689401081152
480034000.0 0.7634941573967581 1.19235889554269
495033500.0 -1.7593104235440418 -4.454355272220302
510033000.0 -1.1840149518977712 -1.2542069868992038
525032500.0 0.6180587497254955 1.0739224466509756
540032000.0 0.8187380121613353 0.5412876330944129
555031500.0 0.059379873835334614 -1.111200743123023
570031000.0 6.1727645335245915 1.1946719459365032
585030500.0 -2.319054814641919 1.9600899518380284
600030000.0 0.5280051295994067 -0.7600728384154758
615029500.0 -0.2583391514357277 1.1709365502568705
630029000.0 -2.789008713249953 1.6302495161632686
645028500.0 -0.5112757941202497 0.4776406223552884
660028000.0 0.2958072684695398 -0.08837216237754533
675027500.0 1.594770231371863 -0.7679180841072852
690027000.0 -1.2364403221076852 0.7937579529688402
705026500.0 0.5212921894373412 2.1860320009636713
720026000.0 -0.6777568232708351 1.8460554604044666
735025500.0 -0.07154351817910269 -0.5711211107294567
750025000.0 1.0240487476229838 0.6206924327295544
765024500.0 -0.7064183650493788 -1.6338282966991977
780024000.0 1.189020029347183 1.1844638655197481
795023500.0 4.505671708503441 -4.3525218186234635
810023000.0 -3.344329154641105 4.19681090609569
825022500.0 -2.1911533629189996 -3.0023551646681366
840022000.0 0.07424373773674577 0.4854847882214679
855021500.0 -1.7606493464331592 0.9315799693587165
870021000.0 -0.524955940061847 -0.4284575327460514
885020500.0 0.4398676895324393 0.8535063111639084
900020000.0 0.747662917585015 -0.7064421688410488
915019500.0 -2.364805402492476 -1.8629163274136824
930019000.0 0.013326448840290666 0.7000408879629316
945018500.0 2.2575709259555716 -0.4536924150283135
960018000.0 -1.50875504297082 -0.6782859901148827
975017500.0 -3.698273584202937 -0.5525211104069017
990017000.0 -0.3976696167134883 -1.598695179166621
1005016500.0 -0.08482470848160037 2.0432617922906426
1020016000.0 -2.2584798944977047 -0.3013466172513824
1035015500.0 -0.5379915654428808 -1.197224765301404
1050015000.0 -1.2078414981946661 0.11079642278615154
1065014500.0 -0.8827437542908528 -0.6880961104499411
1080014000.0 -0.2574856991432591 -1.8809578525753123
1095013500.0 3.937692031675082 -6.384109857747879
1110013000.0 -0.16553691096979742 -2.0341808404765653
1125012500.0 -0.720559623418389 2.7257090497658103
1140012000.0 -2.255198648179976 0.7092306472540695
1155011500.0 -1.6051082955392686 -2.5455775016883586
1170011000.0 0.649840344010904 -0.3722506707965707
1185010500.0 -2.9969981301946067 0.32238273221717983
1200010000.0 1.3070702147473119 1.3248541220515777
1215009500.0 -0.8803771905000626 1.0761299769926043
1230009000.0 -4.282520039663617 4.6238449627288905
1245008500.0 -0.3322539309352954 0.4111415007988451
1260008000.0 -1.7887712200695 -1.9993570158409155
1275007500.0 -0.6750593693554904 -1.175157803675724
1290007000.0 -2.759705514013475 -1.737628902799228
1305006500.0 1.2136134282189235 -0.5633889778013018
1320006000.0 1.323399735966118 0.6594996780559903
1335005500.0 0.6867565999052742 0.6611136408856716
1350005000.0 -3.8473884074589866 -1.02161638954916
1365004500.0 -1.076271153452138 1.7424241671743728
1380004000.0 -0.36959752708302995 0.3909943052407008
1395003500.0 0.9641708863408808 -0.6638078150795665
1410003000.0 -0.08387605722284838 -0.42021068471743694
1425002500.0 -0.8207063920770592 -1.3432376115078268
1440002000.0 -2.3790273875802566 2.3164568025591215
1455001500.0 -0.20404781283430912 0.1594711337674746
1470001000.0 0.9118692868591005 0.22405080820822929
1485000500.0 1.2770314170763672 1.3136779103203564
1500000000.0 0.9737101973360438 -2.211285387775357
