! Created with skrf 1.8.0 (http://scikit-rf.org).
# Hz S RI R 50.0 
!freq ReS11 ImS11
50000.0 -1.2023105301755193 -4.614800858644343
15049500.0 1.7342578228194356 0.42516592838116596
30049000.0 0.8275272598392638 0.4420575146512072
45048500.0 -6.435380380055107 -2.2607013645383534
60048000.0 3.927815959026448 -2.0556824576136763
75047500.0 0.41063601325927035 1.1539801561886622
90047000.0 1.0663002740767398 0.41862337201826033
105046500.0 1.0045295706220476 -2.868736517159148
120046000.0 10.44344661540972 2.012741512143912
135045500.0 -1.257017723775541 -1.079398200710974
150045000.0 -0.8771774855952486 0.4755984097737958
165044500.0 0.46973559708079193 0.5072721828181368
180044000.0 1.0062270179071484 0.26199236866630005
195043500.0 -0.059017846981738765 0.9049466660999222
210043000.0 -0.02374083016887734 1.1549198708219313
225042500.0 -0.16631235991385954 1.1766989393906782
240042000.0 1.1053826045391055 -0.3433934640316975
255041500.0 -0.08959388478430572 1.0171706908640767
270041000.0 -2.390426024413084 -2.258031156136966
285040500.0 0.11150766344408491 -1.6231593134658846
300040000.0 -2.5047632748451676 -2.0233515786064458
315039500.0 -1.9363687511783858 1.5130483370726957
330039000.0 -4.370092826694701 3.6486367632486303
345038500.0 0.15087287259901697 -0.9597544775761782
360038000.0 -2.859036926402721 -0.885373403134561
375037500.0 -0.6314713315616566 3.038164272309084
390037000.0 0.6975001321129942 -0.8875017894715044
405036500.0 9.256976396802056 -6.611125293366539
420036000.0 -1.442807204788595 -0.9787462461819169
435035500.0 2.411319958830827 -0.21154834436379308
450035000.0 1.9867377402466675 0.1533447334149667
465034500.0 0.3007897619204685 -1.8177683415009886
480034000.0 0.7043167886703464 -0.2164213052325962
495033500.0 0.1354224626162601 0.7738820392862578
510033000.0 -1.5274634285264852 -0.4533972829435687
525032500.0 0.8429020314345232 2.6309818587471665
540032000.0 -1.1123688789728385 0.39643227610472687
555031500.0 1.242641339042264 0.6589395781817657
570031000.0 -0.3034074875109378 -0.04442836317941237
585030500.0 0.0339307643452418 0.8276576619204689
600030000.0 -0.6256123635905304 -1.7837535608283266
615029500.0 0.7344625014519404 -0.8922891630417892
630029000.0 1.6119139591990792 0.6371584645898765
645028500.0 -0.029919628002530174 2.251059629598279
660028000.0 0.8865104229549027 3.312058023079704
675027500.0 1.720111615541269 2.3322811658829403
690027000.0 -0.8748725402944014 0.3892064978454381
705026500.0 1.2073670060148385 -2.109847948098436
720026000.0 -2.237755917467238 -2.029573511597
735025500.0 -19.768132865358705 -0.7515704816077671
750025000.0 0.160182388726039 -2.7563319605853263
765024500.0 0.4900931831375398 1.299219859468043
780024000.0 0.07757046141491408 0.2532512996111139
795023500.0 0.30940777668758745 -0.44095849047086705
810023000.0 0.4111946966246048 0.026621827789973757
825022500.0 0.8174090887017249 1.3076620738051472
840022000.0 -1.0085308853399928 -0.19315696536996835
855021500.0 -2.372829871321534 0.6094152868177206
870021000.0 -0.21494660355866568 0.3762050871343901
885020500.0 -0.6496807222421717 -0.504983046992697
900020000.0 -4.557523073504532 2.5622276976004676
915019500.0 -2.757642255367348 0.5086306942568896
930019000.0 0.9839570431056763 0.014551358423219836
945018500.0 -0.7062500335392924 0.09800895117513393
960018000.0 -1.2352422559104248 3.652912973838723
975017500.0 1.8368371352662296 1.7966127964850787
990017000.0 5.496542402942528 0.5713949923264952
1005016500.0 1.322901945501156 -0.8968903266341078
1020016000.0 0.9291573733858237 -2.4423136509476895
1035015500.0 0.8505189047252579 -0.050266391674850315
1050015000.0 1.2724021267891437 0.3880963274660737
1065014500.0 3.7328150098565924 -1.8644179152351825
1080014000.0 -0.3047820584875736 -0.6888207820810895
1095013500.0 2.625494397241187 -0.7099609493827257
1110013000.0 -6.360431819878789 5.840591920315313
1125012500.0 1.0963082278012164 -0.3662222230568035
1140012000.0 -0.6677035418045484 0.6877015845355544
1155011500.0 -0.4877756979852449 -1.461051338924816
1170011000.0 0.14649922327618178 0.38908675429309386
1185010500.0 0.12578194475361654 0.3316793336966905
1200010000.0 1.6974882080074933 -0.07684048035733854
1215009500.0 -3.0294880048572175 1.0662487113717283
1230009000.0 -2.1528561657686804 0.15004756611698802
1245008500.0 2.632036420307178 1.0744173778957866
1260008000.0 0.26444637657133924 0.5064257802580906
1275007500.0 -2.41962642219687 4.326755375427581
1290007000.0 0.7337739324450718 0.45448279065919267
1305006500.0 -2.0617689619355413 -1.5845538641278507
1320006000.0 -0.6708279045724557 2.5092164618843706
1335005500.0 -2.1037887569276648 -2.5669409035922732
1350005000.0 -1.1395435391488982 0.39891028727562877
1365004500.0 -0.971579781218172 2.2386287382017676
1380004000.0 1.2085034932126562 0.4044035968683636
1395003500.0 0.4512538703805763 0.3643487742652522
1410003000.0 -0.6078469103511726 0.8088860316882176
1425002500.0 -7.058628091444091 1.4993141117931619
1440002000.0 0.23629467787719072 -1.2482046674929481
1455001500.0 -0.364329072438769 -1.4971755338740915
1470001000.0 0.5747045907029852 0.5700301378075445
1485000500.0 -0.1432090451849647 -0.7711445672190053
1500000000.0 1.3675938083291723 0.6268072924384293
