! Created with skrf 1.8.0 (http://scikit-rf.org).
# Hz S RI R 50.0 
!freq ReS11 ImS11
50000.0 1.7219832345463255 -0.4258456503010055
15049500.0 -1.0078404374714942 -0.9474157426853949
30049000.0 -0.31535199248938756 0.9396097811960198
45048500.0 0.06880176922496345 0.3304321889142424
60048000.0 0.6518096893826748 -0.5199948033207649
75047500.0 -0.8817877435397186 -2.8270134324597196
90047000.0 1.4016920078911608 -0.5978180598783964
105046500.0 -1.6792938763259186 -1.0210841638695116
120046000.0 1.5273779184774112 0.8708903269813796
135045500.0 -1.1117733131450562 0.7939216605301318
150045000.0 -0.6882497216924754 -3.5504612175425083
165044500.0 1.0274330759514767 -0.08528394971287322
180044000.0 0.9906835152759627 -1.7960787617244316
195043500.0 -0.9947201053590892 1.2119030576576428
210043000.0 2.4575427219929478 2.7494496874472794
225042500.0 1.3708760325360019 -0.13796900186530778
240042000.0 3.5578991028215476 -1.1752884818417797
255041500.0 -1.1019378984953583 1.1642665994177581
270041000.0 -1.4129408639728553 1.20212411554271
285040500.0 0.39432378020390035 0.48078174190368506
300040000.0 -0.20445556695316436 -1.0956541010152712
315039500.0 -1.1339402858463303 0.8194062731186401
330039000.0 -1.1896221978253347 -0.5281364428586697
345038500.0 12.895583345878485 -6.453057882931294
360038000.0 0.8877403928880597 2.5543467561790574
375037500.0 -0.894522806665864 0.3520981777447346
390037000.0 -0.15387756220724616 0.915985748184902
405036500.0 -1.8741955659306957 0.2986119998882639
420036000.0 0.3363408287901621 -0.5727851432162407
435035500.0 0.8057979966309168 1.5941316326461346
450035000.0 -3.999719632159893 3.7706084323039977
465034500.0 -7.743448195172161 4.233080130393293
480034000.0 0.4458128982349166 3.161416556783229
495033500.0 -6.234299052679699 -7.366322483954884
510033000.0 -1.1439862941014738 -6.145839800177718
525032500.0 -1.2490108251134102 0.960135809124889
540032000.0 0.47925267011843425 -2.4634141315353464
555031500.0 -2.6139616680794524 -0.667061809352802
570031000.0 0.9964143915664928 -1.2185825102490881
585030500.0 -1.1971458193430267 0.32889439173497803
600030000.0 -1.7238068559689725 -1.6129795820421409
615029500.0 -1.0860269403759828 -5.861812274313322
630029000.0 -1.1024725455441167 5.946107630116735
645028500.0 -0.8213018080490573 -0.9992106622011062
660028000.0 -1.6590279231310339 -0.5703872037817799
675027500.0 1.0382003607077448 1.4154216127445038
690027000.0 -2.2333709451518273 -5.949058340068624
705026500.0 22.22735863162373 -27.28535696185295
720026000.0 -0.4994837834410236 0.15777573388914223
735025500.0 -1.10692657520987 1.0630892607846318
750025000.0 0.45347751535790903 1.4246126976940112
765024500.0 -0.26137751618275123 0.34197240332083684
780024000.0 -2.070032740391344 4.9875422763378285
795023500.0 0.9515672905560574 1.9949641651471373
810023000.0 -0.6156958848779055 -0.48635610044593186
825022500.0 2.131075521676204 -0.29233015021355624
840022000.0 -1.7263150922288146 0.2772879420955143
855021500.0 1.9501031160587956 -2.624737849638227
870021000.0 -0.3505992649739637 0.7366094478385318
885020500.0 0.2973618735720568 -0.6174837448348233
900020000.0 -0.369771379177632 -0.7449515934167774
915019500.0 0.5126819441109067 2.744679830944791
930019000.0 2.378386900582759 -4.43229384834121
945018500.0 -1.6645625811558413 1.540830820391313
960018000.0 -1.1993027027649337 -0.17575340610874415
975017500.0 -0.99006752143854 -1.6597838960264037
990017000.0 0.22582858952527748 -1.4743947398586832
1005016500.0 1.2604911910812613 -0.620517107895548
1020016000.0 0.043007752755980413 2.3241438646956936
1035015500.0 -0.7994993010828032 0.1266172967293728
1050015000.0 -1.040813405602851 -0.0675797298728125
1065014500.0 0.3708376779291306 -0.27142965157234283
1080014000.0 0.5310422175812333 -1.3509811744952613
1095013500.0 0.2676529070446747 0.17890772653332235
1110013000.0 -2.9332718475281783 -0.893177489876466
1125012500.0 0.11671604658586113 -0.36567939441427527
1140012000.0 1.0663960837173163 2.2724692860265727
1155011500.0 6.991775198841097 0.7795768706234661
1170011000.0 0.05216214011161675 -0.2963002412762766
1185010500.0 -3.294951380768304 0.9061616440846024
1200010000.0 0.3768560825372218 -1.1678730665640866
1215009500.0 -0.7883732007985591 -1.0308168634600525
1230009000.0 0.5034812075089568 0.041235044543176044
1245008500.0 0.6160939382411342 -2.402694237988154
1260008000.0 0.1414237194522359 -1.7956442790194482
1275007500.0 -2.056991585638832 0.07379447771446927
1290007000.0 -0.1784644709016232 1.054757636608283
1305006500.0 2.241043790499087 -1.659628620088022
1320006000.0 0.4008162731657764 0.18984468299165005
1335005500.0 -0.0444217362238586 1.4248044703860618
1350005000.0 1.3002267197189057 -2.4854109378744162
1365004500.0 1.36398873945617 0.6111025019762278
1380004000.0 2.232439258704492 6.883118676365793
1395003500.0 3.0994812551913293 -1.4545526153179635
1410003000.0 2.6925927877866385 -0.05778945352935087
1425002500.0 0.24581347286395 -1.7255915127724064
1440002000.0 2.854655328146067 2.381262561294119
1455001500.0 -0.19326717261335466 -0.8875497712141894
1470001000.0 0.5666601784300606 1.3431209331683842
1485000500.0 -0.24178974024031957 0.6895561757807832
1500000000.0 -1.0776846355808096 -1.8464896040070242
