! Created with skrf 1.8.0 (http://scikit-rf.org).
# Hz S RI R 50.0 
!freq ReS11 ImS11
50000.0 -0.41356909208771014 2.2527452161582664
15049500.0 -1.170322685187046 0.32175946568759184
30049000.0 1.223043205872491 1.835182097329207
45048500.0 -9.819593058310286 -5.56915388416864
60048000.0 -0.27009484584038007 -0.08645529196190724
75047500.0 1.0355492303657743 -0.7906202014916404
90047000.0 0.2175583408563024 -1.172073772701959
105046500.0 -2.889377653595746 2.339931198187266
120046000.0 2.846364123271345 -1.113627756674197
135045500.0 -1.2377437150161976 5.580050864236309
150045000.0 6.702142997981382 -8.384848120397713
165044500.0 -0.9892294653102769 -0.5120124876585411
180044000.0 0.7144924945848175 0.5494342700904097
195043500.0 0.536018364682472 0.49310765073684626
210043000.0 -0.5857198179205262 -1.0448415867709013
225042500.0 -3.3838199015501003 3.631253850854601
240042000.0 0.016736632122220593 -0.8886615789189691
255041500.0 -2.545664575454067 2.202386141491693
270041000.0 0.3656031692760528 0.1894239978287347
285040500.0 -4.1848901219315415 0.4558570534405498
300040000.0 1.4922021232053553 0.42941998392095476
315039500.0 -2.374099551946983 1.1705244290506522
330039000.0 -0.6545519907695152 -3.4834846324893225
345038500.0 0.3562383263388352 2.027614118584824
360038000.0 0.7603962054173525 2.1604498769265073
375037500.0 2.1061849221412414 3.7078139695549646
390037000.0 -6.451229880180531 4.914077038106577
405036500.0 -1.5154471753597456 -1.8355630081266816
420036000.0 1.314190586936848 0.18168486979550158
435035500.0 2.1179960283491797 0.36621397456115273
450035000.0 0.16808966834555078 -1.3284999876262689
465034500.0 3.955947736435313 -0.6139649473343952
480034000.0 1.9215817190015159 3.2530140322971692
495033500.0 0.9276749857610447 -0.22774945694165066
510033000.0 2.3346544979008796 -3.805397354151111
525032500.0 -0.4004968470485232 0.08113436293822587
540032000.0 -8.263764362993166 0.699172926020198
555031500.0 1.1640892200819324 -0.5894808763113092
570031000.0 -2.3807543910595546 1.8539351680186313
585030500.0 -0.6909269362795125 -1.1102005373924004
600030000.0 1.925726280696332 0.36823700558159805
615029500.0 -0.16103885456475514 -1.549889434211086
630029000.0 -1.096139926489745 -0.6592729644125263
645028500.0 1.4461982817112353 4.838354137726422
660028000.0 2.7969454526355224 -0.33499100514634816
675027500.0 2.4828675980111674 3.6150545233597606
690027000.0 -1.1039736752737197 0.3118576495816284
705026500.0 0.863788437005685 -1.0488132957678606
720026000.0 -1.7330840974784896 0.8631749559290245
735025500.0 -0.5806451609801109 -0.1848377951351753
750025000.0 -1.0056827225766722 -0.2853211453838817
765024500.0 -1.9429216703376615 5.928013382613051
780024000.0 1.2692960608135178 -0.6389373989396667
795023500.0 26.434061229452993 0.42127088415722513
810023000.0 1.007582178610582 0.703973791525871
825022500.0 0.6697426431555262 0.11892841099599476
840022000.0 -0.015803781295371175 0.16881567284278048
855021500.0 -0.8035343415000271 -0.8134595871782326
870021000.0 0.6403603738714427 0.06520997550944811
885020500.0 1.8333010974608577 -0.41082293787715435
900020000.0 0.5614600742791006 -2.3360510915711976
915019500.0 0.8633694432615497 0.24042533993673343
930019000.0 -1.4838952381437729 3.225113169827077
945018500.0 -1.8722746415620255 -2.406317563445225
960018000.0 -1.4982639120381476 2.052530331587966
975017500.0 -2.4932545720503945 -0.8724348766847134
990017000.0 1.4209617947097954 -0.5576912892454928
1005016500.0 -1.0263611834901536 -1.6781366517857843
1020016000.0 0.45268671353092726 -1.1714744210609618
1035015500.0 2.249028985588874 -2.8821800900522314
1050015000.0 -1.3687851444556858 0.6795730245965875
1065014500.0 -0.436985479644225 -2.5090095677045605
1080014000.0 -0.5485208530416769 0.6298625429469573
1095013500.0 0.327270169932647 0.12242030443779427
1110013000.0 -2.3632506310330847 13.464845194441336
1125012500.0 2.3431557202781073 4.338049048352064
1140012000.0 -0.5739841493587368 -1.3853736942747987
1155011500.0 -0.9725597544895263 2.3471080753912643
1170011000.0 3.6870463327277694 -23.66752763149017
1185010500.0 0.3243643395248652 1.8699420313364337
1200010000.0 -0.9811345484012792 -1.0556328155658459
1215009500.0 1.8983658363373297 4.120471697177482
1230009000.0 -0.9331019198976904 0.5265159284367574
1245008500.0 -0.49793592167949696 -0.15316545657175665
1260008000.0 0.32345604095912894 -1.01817180985794
1275007500.0 -0.06508303300961563 -0.2390418113134551
1290007000.0 0.9155106884174653 0.30256592720399605
1305006500.0 -0.14143901634159503 2.122530231442754
1320006000.0 -0.12449567361137964 2.395484423276291
1335005500.0 1.0569739934453368 -0.4687805039128571
1350005000.0 -0.2711551951276147 -3.6231755815276316
1365004500.0 3.2895335503121297 4.907353953842375
1380004000.0 11.507196363216565 -1.0677503235985837
1395003500.0 -0.1162562756471896 0.19265599191319754
1410003000.0 -0.2597252372672649 -0.09073677061297118
1425002500.0 0.5076017327027463 1.1364841761390243
1440002000.0 -0.009557135744656905 -0.1027657008633001
1455001500.0 1.0627102747394264 2.6491066473040106
1470001000.0 -7.293140910003198 -1.3434609432915698
1485000500.0 -1.0652325776412692 -1.4162105965784455
1500000000.0 0.3095575878569412 2.690199670116732
