! Created with skrf 1.8.0 (http://scikit-rf.org).
# Hz S RI R 50.0 
!freq ReS11 ImS11
50000.0 -5.322486570151208 -4.796359360389492
15049500.0 2.5254910948944964 -4.598032569041349
30049000.0 1.0448880772907834 -0.5657234129220833
45048500.0 -1.4468932414885158 3.457233964232078
60048000.0 -1.2819765460530055 -0.4228950969236754
75047500.0 -0.11142359374816319 -1.819311076949185
90047000.0 -0.9832095714138991 0.40412388728752674
105046500.0 -0.1129809699675265 -0.4176512414017479
120046000.0 3.9546161383968346 -3.9504781690600166
135045500.0 -1.7343241767465487 -1.562029709218746
150045000.0 1.399226441519924 0.5549317273531907
165044500.0 -1.4233144592676976 -0.06888653157166309
180044000.0 10.596118058154559 1.5442863532059254
195043500.0 -0.11718248506485242 0.547017368774948
210043000.0 1.2528018439390638 1.321386518756952
225042500.0 0.27230263449112385 -2.6488866088546277
240042000.0 -0.7593497049028565 -4.545222551374725
255041500.0 -0.05179834800580215 -0.1458401583508681
270041000.0 -2.3007688507361124 0.676574811537553
285040500.0 -0.0012796366616010925 0.5184708936642608
300040000.0 3.244260119015526 1.0621857461670967
315039500.0 -0.35259957826921523 -0.5298815253424034
330039000.0 1.05786516846544 1.5560569368556232
345038500.0 -1.4532581504041768 1.0537269911783504
360038000.0 -0.6984877841367965 0.228904425115174
375037500.0 1.6101685028963264 0.2733014769127279
390037000.0 -2.1996870187502107 1.8573144376147968
405036500.0 0.2716968367140074 0.6156036149056449
420036000.0 -0.05678485560942414 -0.2242540113893131
435035500.0 -0.21625724900354343 -0.03733112069657805
450035000.0 0.7952446454484695 0.45183421882918434
465034500.0 -1.0124243216438022 -0.29508940730500277
480034000.0 0.955144698504525 -2.5807254727307583
495033500.0 -1.2259329746757672 0.6101156620042852
510033000.0 -0.15446694377025058 0.12370039058277714
525032500.0 1.1117996185164079 -0.9210319898151353
540032000.0 -1.7347322547936044 2.02497574629855
555031500.0 0.44047062235495227 1.5322833279998227
570031000.0 0.29263936855100714 0.41827775760605634
585030500.0 0.624541768226032 -1.9735959888536623
600030000.0 -3.9209157864895716 -0.40003481188205187
615029500.0 0.7497733077324348 -2.782131030165208
630029000.0 -0.8583971338213057 -0.9151227394767891
645028500.0 2.495648907537726 1.3419512171025954
660028000.0 0.894851879540524 -1.6057890317124905
675027500.0 0.36776726331546133 -1.0943554259607533
690027000.0 -5.608754253943639 0.17503657351565055
705026500.0 -1.7272097185491284 0.7869866739726533
720026000.0 -0.49030958219508824 -1.9834195908101497
735025500.0 -0.142226861249337 -0.30968280049374086
750025000.0 0.3254957035133734 -1.2113786134578512
765024500.0 -0.11731964237026837 0.2856367280557374
780024000.0 1.478208713642642 2.630390090674233
795023500.0 6.769910840774551 -3.5131240382918234
810023000.0 3.3344684996079166 -4.77855140592274
825022500.0 12.004927947614643 17.032409074259547
840022000.0 0.6547017197383187 1.757160990776371
855021500.0 -1.0947915447329526 4.029958784936945
870021000.0 2.872682772854758 -0.27621960947009966
885020500.0 1.0761746469756308 -1.2093748145855219
900020000.0 -2.4081121337296807 -0.10520558726949475
915019500.0 -1.0488896335888584 1.9583856760244327
930019000.0 -2.3915177530179905 -5.347925536649446
945018500.0 -2.256732850214456 5.279198304763939
960018000.0 0.545820372810863 0.0848885456551203
975017500.0 -2.411879818998062 -2.4192943596783816
990017000.0 0.15660001804808096 0.4741493775124731
1005016500.0 1.5491423475088473 -1.53160197308514
1020016000.0 -1.3449357780071665 3.120419662442485
1035015500.0 1.681953390104445 0.03320144670568909
1050015000.0 -0.7068720884301314 1.7136571975897803
1065014500.0 0.9265242165344773 0.4875537081715334
1080014000.0 -0.7600002821066965 -2.54352973463893
1095013500.0 0.9605112669220981 1.1180086122467687
1110013000.0 0.8369320237330861 -0.050917580420808725
1125012500.0 -0.8046256018538758 1.7178347254024555
1140012000.0 -0.9696494620015236 -0.6022042387307648
1155011500.0 -5.508168239235448 -0.48254203923178873
1170011000.0 -0.7120089883682771 0.7938739248000983
1185010500.0 -0.41451124831283426 2.3546706763600573
1200010000.0 -0.08330018684962248 2.7541237897261444
1215009500.0 0.44823432176815386 1.2355889177215578
1230009000.0 2.4316553703466512 0.8181557461053424
1245008500.0 -2.4644612604507237 4.302897475973518
1260008000.0 0.678242306437281 1.927630297890098
1275007500.0 -0.03209641205418737 -1.0880671040787284
1290007000.0 0.8580846768324303 -0.3618669375368762
1305006500.0 -2.567870864263836 4.834721041443973
1320006000.0 4.32740737302018 -2.705249264215499
1335005500.0 -1.6589036972877096 3.0150433482610755
1350005000.0 -0.7154389419141001 -0.6480981667768055
1365004500.0 -2.2000552972002025 -0.9942368535625511
1380004000.0 1.4863018753970314 -0.20061959975940075
1395003500.0 0.3251328417823937 -1.2418942074715682
1410003000.0 -1.1219817315100609 -0.21049450646949597
1425002500.0 -0.08174349654364833 0.679105338385339
1440002000.0 -0.009165929323486276 -0.5804116179122717
1455001500.0 0.3831126205058701 -0.019901591164406866
1470001000.0 0.1386567703167474 -1.8521956312053838
1485000500.0 0.8172249788093757 -0.006423561820826139
1500000000.0 -0.9146102785919239 0.15831355423238244
