! Created with skrf 1.8.0 (http://scikit-rf.org).
# Hz S RI R 50.0 
!freq ReS11 ImS11
50000.0 -1.6936827430324193 -0.2532609189078988
15049500.0 1.8505581516515741 0.4021557683764054
30049000.0 -1.147594422984849 5.633532247079839
45048500.0 -0.286477929774972 -0.5174658247689676
60048000.0 7.8782046911887615 5.1681366676157605
75047500.0 0.386582718895982 1.967582334494024
90047000.0 4.984892679838809 -2.280862273499332
105046500.0 -1.5290854472102275 -0.7657101194663405
120046000.0 1.6681351940933442 1.0591661857067414
135045500.0 0.9488387252616268 -2.1585186011591966
150045000.0 1.0166016216346763 0.2951434198736743
165044500.0 1.1083933214393729 1.4916164763371367
180044000.0 0.5114926009141088 -1.1852155854399715
195043500.0 -0.4933279957085599 0.26580222367268014
210043000.0 -2.0624472700563214 0.7391755114749692
225042500.0 1.7465451857489305 2.6048301869204242
240042000.0 0.2857265972736141 -1.4234413289220367
255041500.0 -3.989951402284276 -2.954321957615866
270041000.0 0.39641695107152813 -0.39353323092716247
285040500.0 -2.1991158917884466 -0.7736142934492151
300040000.0 -0.6463289859253913 0.4582078867512593
315039500.0 2.078016332155466 1.0689215860338057
330039000.0 1.814125616275787 -6.4451387652424925
345038500.0 -1.9025504814360648 0.0037504540639426488
360038000.0 0.24262201053667243 -4.45797410882201
375037500.0 0.6874878854207662 0.11712657051591341
390037000.0 2.3226403749165008 -6.198625927143695
405036500.0 3.44146958541367 -4.316052676191508
420036000.0 -1.318277107918548 0.9236287794550349
435035500.0 3.0954700187297446 2.790303942955697
450035000.0 2.7796079745330147 -0.8672863237970841
465034500.0 0.5161431889094927 -1.6356847430466515
480034000.0 0.7596573997148589 0.6568492815947847
495033500.0 -3.817362591959485 -2.655100631084286
510033000.0 0.22606810485681156 -0.7736191546348204
525032500.0 -1.3699910917735372 1.478866520181768
540032000.0 1.1440628217628677 -5.1204584390341426
555031500.0 -0.9162059049444896 2.9135444396658214
570031000.0 -1.7130717183493236 -1.8914209100942
585030500.0 13.249591877403526 -0.7997050888171281
600030000.0 -0.7903328851825623 0.16454774819123077
615029500.0 1.9026132051754956 -3.0652358240416753
630029000.0 9.233322922435807 4.258403523348496
645028500.0 0.8283267163156416 -0.11935233132217221
660028000.0 1.3650910785093224 -0.18671091199321344
675027500.0 -1.1652592334592793 -2.2482310904404557
690027000.0 2.7561810479197653 0.7225474289176038
705026500.0 -1.043424029880839 -1.2211104454882666
720026000.0 -1.7050851792226065 -0.9855550665264838
735025500.0 -0.20854839543707504 0.43724764673714506
750025000.0 0.10926876060382688 -1.1682138105503368
765024500.0 1.0972370430377052 -1.5577517626717863
780024000.0 2.696298757331126 -3.316205477963344
795023500.0 -2.980733437247889 -1.0330494532867316
810023000.0 2.1754569988369727 -0.314885039982979
825022500.0 0.07735790476874248 -0.6086592794316327
840022000.0 1.9298109295803023 1.2188253255254613
855021500.0 2.1935854333754707 -0.6338702837119473
870021000.0 -1.1804864856244277 0.654224614923166
885020500.0 0.5749250327540025 -2.228432882176547
900020000.0 1.2683123567277523 -0.6386644113100781
915019500.0 -0.24108423973171836 0.9480510018046449
930019000.0 1.1302374597017177 0.9562999847613282
945018500.0 2.0153535851388873 -0.6614646997733414
960018000.0 1.2434477938917472 -1.4032989096864354
975017500.0 -0.4286341168379822 0.6459282166728976
990017000.0 -0.7365471836693265 1.4866380710935123
1005016500.0 -0.6408701865640708 0.8898737866627751
1020016000.0 27.664269753838663 -15.179140278899945
1035015500.0 -0.41460298142353486 0.3835463400653181
1050015000.0 0.08589765830582381 -0.11482096677033247
1065014500.0 0.9812684803675291 -0.7906737949843913
1080014000.0 5.241843659926006 3.6913626036712617
1095013500.0 0.8780956547892989 1.4648468821923186
1110013000.0 1.2281594692892415 -2.0688339873987203
1125012500.0 -0.3959565200208818 -0.0721471868653983
1140012000.0 0.7837684654380046 -3.749241784911248
1155011500.0 1.6971915486489229 -1.49197034979262
1170011000.0 -0.3587767779980042 0.9108769964875175
1185010500.0 -0.8233778346600064 0.7164793067537044
1200010000.0 0.22754348940923583 0.04386269223254586
1215009500.0 -0.08214633284408986 0.5916515171933951
1230009000.0 -0.04297055526249045 1.2080042434889302
1245008500.0 -0.3253505742980813 -2.021799029231887
1260008000.0 -0.6047706655763535 4.475856221651311
1275007500.0 -1.0522974719653195 1.886700876641179
1290007000.0 1.2243138073062498 -2.308006760743189
1305006500.0 1.168826243221574 -0.3860032041472771
1320006000.0 -0.43677184127909685 0.9404852102462217
1335005500.0 -1.6405591501863852 -1.6095997106784352
1350005000.0 -1.9517738853739643 1.6864894609700292
1365004500.0 -1.3936297636472326 -2.488724457390911
1380004000.0 -0.1927214938439877 0.4657212884597714
1395003500.0 -0.06936791517049264 0.3208812696223986
1410003000.0 -1.1959472833441525 -1.8556099425534447
1425002500.0 -2.0389183672089013 1.4053248677253172
1440002000.0 0.6945821828639323 -0.6271974304997683
1455001500.0 -0.7986911033740071 0.2339081008086045
1470001000.0 0.06663212168103085 0.8068473034335162
1485000500.0 2.6855597832178795 2.3772863413361462
1500000000.0 -1.0434701076229251 0.3310498528257863
