! Created with skrf 1.8.0 (http://scikit-rf.org).
# Hz S RI R 50.0 
!freq ReS11 ImS11
50000.0 -1.0958577739923672 -0.2259615336339682
15049500.0 0.41166886271645053 -1.0482100024876102
30049000.0 -6.997914127555435 -5.823812233907254
45048500.0 -0.7810850744325952 1.9667790916830212
60048000.0 -1.8289646186267494 0.4244084568372571
75047500.0 -1.6240817160964647 -1.4217786883077563
90047000.0 -0.3401358191049782 -0.08481193975479712
105046500.0 1.2597814870542778 0.4364088465979442
120046000.0 0.9906617894053421 1.3347741920924243
135045500.0 1.2850771158760914 -0.2134517089555157
150045000.0 -0.42301822303965586 -0.31145987539550285
165044500.0 -2.996157166983495 -1.7614964281833323
180044000.0 -0.738083627604393 5.6996317223511035
195043500.0 1.1127336570115125 -0.6051398043241131
210043000.0 -0.4154071182734892 -0.5281784218226405
225042500.0 3.1975099211094618 3.0974316108368676
240042000.0 -3.810928836329643 -1.1315432635092335
255041500.0 1.6490296390557302 1.1528896364126326
270041000.0 -1.7298197889895912 3.816527708022443
285040500.0 0.48572854262312837 -0.5553431053864856
300040000.0 -1.6595148388816923 -1.1203565910345927
315039500.0 0.15405682328229522 0.5923552077991423
330039000.0 -2.0398559144662496 -3.2698407346450025
345038500.0 0.8766482747031704 -0.6103880799665324
360038000.0 1.2427988494251963 -0.2968071987450139
375037500.0 -0.3439329427475868 1.39767325393034
390037000.0 -1.0487076581867638 -1.189258761585692
405036500.0 0.5615226540276387 0.8841013172967893
420036000.0 -0.06503442239465482 1.8810885054110764
435035500.0 0.8196074115796623 -1.0992754774559221
450035000.0 -1.720814937667338 -3.5522051372627375
465034500.0 -0.44896177494363976 0.7024588129833258
480034000.0 0.4943938963944455 2.1838326712372265
495033500.0 0.6259994901047471 0.2781362199321844
510033000.0 -0.9407285118293522 -0.07960149600756213
525032500.0 -0.5316866588872123 -1.3371994989870926
540032000.0 2.2850634467668147 -0.2973507086138398
555031500.0 -2.438082942743149 1.1176804498845605
570031000.0 -1.6626557132478752 -0.476351432100433
585030500.0 1.1180171207119223 -0.4690613853493462
600030000.0 0.40789906023011646 -0.49968536238659494
615029500.0 3.9888698609917905 -2.196142186059364
630029000.0 0.8216580177989453 -0.152295875099774
645028500.0 0.3619478013064402 -0.7697467285389529
660028000.0 0.8505317469025552 -0.4701456138168749
675027500.0 0.9554157736725616 -0.6267160582953284
690027000.0 -2.599531067307466 4.4430460943802945
705026500.0 0.2711661393851182 -0.7435141188048979
720026000.0 0.6025416825264247 -2.277228636899498
735025500.0 -3.456958978814378 7.776825578962661
750025000.0 1.7269204239773024 3.8800400305121006
765024500.0 0.3348530812453674 -0.8959803459859238
780024000.0 -1.02761040741161 -0.12207550677678979
795023500.0 -1.4927762412527479 -0.4996831423554817
810023000.0 0.8998493372831783 -1.5585437868169894
825022500.0 -1.1780306052596847 0.16493320690058264
840022000.0 -0.3952692002649181 0.07692586343256161
855021500.0 0.6168649063171158 -1.4463135660435003
870021000.0 -4.434281481004986 -3.432565398948137
885020500.0 2.1816981272204905 -0.3529327614398743
900020000.0 0.6168879229347525 -2.6931252331146207
915019500.0 -14.703506385818285 -12.01458147925975
930019000.0 0.48602479004879706 0.7766274342453816
945018500.0 -0.6514631126198326 1.6702739713904287
960018000.0 -0.8233503562779878 -4.495057094193568
975017500.0 0.7658323880995561 1.0520594504505743
990017000.0 -0.757863682907273 0.17794255615867463
1005016500.0 -1.3489640895854544 -0.9351027158655641
1020016000.0 0.2051551986626343 0.39722713803508997
1035015500.0 -2.715728185395587 1.0942868982553835
1050015000.0 1.0331102342681715 0.34143127599069995
1065014500.0 2.687859810965504 3.09238298312191
1080014000.0 -2.6347459064691128 -0.3666045485906494
1095013500.0 1.228312091153385 -1.235229072868168
1110013000.0 0.38897732734505175 0.06524889046684373
1125012500.0 -1.864008229161557 5.520782102950857
1140012000.0 -1.747132923344902 -5.770663526242791
1155011500.0 -3.6930616913388885 2.052640931967313
1170011000.0 0.918890604511449 -0.5190114528426459
1185010500.0 -1.5765232407253136 -2.1187997477034775
1200010000.0 -0.2655426690400278 -0.22286471387581888
1215009500.0 -0.19671706472845663 1.1444944452663792
1230009000.0 0.059880186325503466 -1.0894345853940626
1245008500.0 -1.2330502366214364 -2.305540731803741
1260008000.0 0.5705451694764825 3.570896159378585
1275007500.0 -1.9153194080941531 0.041593982949922656
1290007000.0 -1.3883609895046136 1.3289345825579348
1305006500.0 -1.080365927851706 -0.3612206477876932
1320006000.0 0.5335162384416094 0.8981771153612818
1335005500.0 0.4276451884513686 -1.0301906119632964
1350005000.0 0.7215603099837983 0.1519123801999301
1365004500.0 0.36636844383742406 1.636322413997805
1380004000.0 2.6737099110928546 1.0480488182569563
1395003500.0 1.1812510558682376 0.8498903969513482
1410003000.0 0.9140782823968197 5.287447110863524
1425002500.0 0.40824195694695375 0.9995627630126768
1440002000.0 -0.37972667169662755 0.6116576072639649
1455001500.0 0.7801476108307719 -0.6072652511297442
1470001000.0 0.7635821766893071 -0.39881257697289213
1485000500.0 -1.1561651410686178 -0.5308832511427155
1500000000.0 -0.41620284770985483 0.16154990269468003
