! Created with skrf 1.8.0 (http://scikit-rf.org).
# Hz S RI R 50.0 
!freq ReS11 ImS11
50000.0 -0.0005534195353008373 -0.00010320484313255886
15049500.0 0.0009182000599170292 -0.00022620866308829433
30049000.0 0.0001624508390800399 -0.0007660952158625146
45048500.0 0.0003025199629679225 -0.0001577066250173622
60048000.0 9.996075011092402e-05 5.509869308330487e-05
75047500.0 -0.0016090549701839932 0.0006844278717629032
90047000.0 0.0003216379997930902 0.0007768795339173665
105046500.0 -6.436251323395573e-05 8.095246404787724e-05
120046000.0 0.0009074327475459991 -0.0009415802198088004
135045500.0 0.009562966301179018 0.003421536007957769
150045000.0 0.0009654830580915561 1.2296647825489747e-05
165044500.0 -0.00024362641238994897 0.0022266240277068815
180044000.0 0.000182971996764699 9.108543608868968e-06
195043500.0 0.000413759835295881 0.00029790794671220253
210043000.0 -0.00040045998475470745 0.000559827864043185
225042500.0 -0.00046892698315512485 0.0001682828965127662
240042000.0 -0.0024235844309130486 -0.0005338797260957609
255041500.0 0.0005478141440102736 -4.908838348593955e-05
270041000.0 -0.0045107465816524575 -0.004431385314113007
285040500.0 0.0009638364274244568 -0.0017262554238587431
300040000.0 1.3938165419908387e-05 -0.0018684877570477986
315039500.0 -0.0014778754897883486 0.0007689011201144301
330039000.0 0.0011249807621080516 -0.0029869060659458713
345038500.0 -0.0035545064229059345 -0.0010020947724098176
360038000.0 0.0027281144222900946 0.014289448214689663
375037500.0 -0.001889068820744578 0.0011820100720054967
390037000.0 -0.003851222621172186 0.006898460867006536
405036500.0 0.0022130415951466752 -0.002356276966201698
420036000.0 0.006531136620933978 0.007990045312094548
435035500.0 0.003962997485163008 0.0019945642537010752
450035000.0 0.08860322738917968 0.16837028218376845
465034500.0 0.003621475723865984 0.0026311715766237456
480034000.0 -0.0003337697365743854 0.006403301918423957
495033500.0 -0.011879368190357094 -0.01144231120692261
510033000.0 -0.006467413329066534 0.001358544752839627
525032500.0 -0.0025950265016432875 0.0027070929278102595
540032000.0 0.00209832552441932 -0.00016141742907709912
555031500.0 0.003975190406638869 -0.00447935287621671
570031000.0 0.010101573884124375 -0.009602831430384838
585030500.0 0.027848087613291248 0.00197049635237886
600030000.0 -0.00027098305612964095 0.005916001599845683
615029500.0 -0.007887585475234842 0.006128034687009723
630029000.0 -0.019321846897916498 0.00013316104703866148
645028500.0 -0.0030299991523173152 -0.0014164084578903511
660028000.0 -0.0009487335849182249 0.002072005482506918
675027500.0 -0.003852343153266641 0.009937978772876546
690027000.0 0.004063140196472555 -0.0011001043032605802
705026500.0 -0.00409510257853912 -0.015413424652614536
720026000.0 0.01673662073003071 0.00818534060714527
735025500.0 -0.0008978621073387212 -0.0026069284066094767
750025000.0 -0.004042246417548407 -0.0044654424407789325
765024500.0 -0.0074297343956486505 -0.0002935735433006091
780024000.0 -0.01427315468569506 0.050643039875688925
795023500.0 0.004384239226629408 0.012999436453519931
810023000.0 0.038108000910612824 -0.012719456091959992
825022500.0 -0.0044909528369918945 -0.002131535789177036
840022000.0 -0.0015917244146633044 -0.0017430105372459954
855021500.0 0.004299350254142378 -0.0020605024535260926
870021000.0 0.00032491416672894227 -0.0014922358640634102
885020500.0 0.004249746755131054 0.0048596721657206896
900020000.0 0.001925729071740501 0.005476615585671923
915019500.0 0.0037540983431054633 -0.019538217635640922
930019000.0 0.000996319016652136 -0.0066238595609328715
945018500.0 0.011642797780935122 5.7657822173095054e-05
960018000.0 0.00552462316456241 0.0012471218141567447
975017500.0 0.0669397157751576 -0.04832656581129852
990017000.0 0.011750310711969107 -0.011813609291130962
1005016500.0 0.023775314978463333 0.0072821050345991895
1020016000.0 0.008401958118085175 -0.0218210708546809
1035015500.0 -0.00856420279454654 0.003957526095251907
1050015000.0 0.0019624089677677528 -0.005542102061671822
1065014500.0 0.0018883329406199436 0.003967080339234247
1080014000.0 -0.011788843684228405 -0.002362182567978702
1095013500.0 -0.028004456999968678 0.04206301815555461
1110013000.0 -0.015561406330396054 0.0091620876204921
1125012500.0 0.01701499034556139 -0.022658723225425302
1140012000.0 0.009825871690289112 -0.0191905317080062
1155011500.0 0.11408521914673848 -0.07506822216642298
1170011000.0 -0.009533882265830323 0.0094164465462834
1185010500.0 -0.0022313831816331265 -0.008831288284070257
1200010000.0 0.018900858833126494 0.008841642223578836
1215009500.0 -0.010676345758342897 0.005409631293941991
1230009000.0 -0.030343472548949223 0.09128711358563968
1245008500.0 0.005607113204366838 0.0019267398460532767
1260008000.0 -0.0010614029848430271 0.0585156480358009
1275007500.0 -0.004082865540302949 0.01787647207001224
1290007000.0 -0.00568196975779073 -0.013302238954650023
1305006500.0 0.0018963655284403565 -0.006964137750184408
1320006000.0 -0.007325584165101454 0.003718542712682404
1335005500.0 0.011402591424822627 -0.011544295247359126
1350005000.0 0.005564428808941725 -0.016710178295081927
1365004500.0 0.03337354742365963 0.1727316979847079
1380004000.0 0.006597991045765739 0.0010230946360294355
1395003500.0 -0.007327979124688285 0.016680507884697004
1410003000.0 0.0005156513307959084 -0.00299800884059331
1425002500.0 0.017957314886633532 -0.0048890224985675464
1440002000.0 0.05825790345937222 -0.06664032035319896
1455001500.0 0.006739544111849946 0.003148198693529308
1470001000.0 0.010472618314865765 0.003972037884738287
1485000500.0 0.012303811611424836 0.012538914590372405
1500000000.0 -0.013140044738152922 0.08163792946115252
