! Created with skrf 1.8.0 (http://scikit-rf.org).
# Hz S RI R 50.0 
!freq ReS11 ImS11
50000.0 -0.0016722411195483878 -0.002363882387960153
15049500.0 0.00013708374305943538 0.0001691848042430311
30049000.0 -0.0003790549737723147 0.0005478448112967519
45048500.0 0.0020172585660319796 0.002304915961195084
60048000.0 0.00011157416985127554 -1.2333405244635522e-05
75047500.0 7.043334898322793e-05 -3.9650886543643755e-05
90047000.0 -7.820100386542875e-05 -0.0002881952409336429
105046500.0 -0.0007424135622388408 0.0004598732102555072
120046000.0 -0.00018573321209460093 0.0006097913678714159
135045500.0 0.006188946892174735 -0.008219613316749266
150045000.0 -0.00879576891314289 0.0008430903721685439
165044500.0 0.00023926304508454824 -0.00015167110852523562
180044000.0 -7.835690494961772e-05 -7.604248830361994e-05
195043500.0 -0.00032744201301880283 0.00010312014000721424
210043000.0 0.00046220765657303364 0.0003541651319113524
225042500.0 -0.0017765376565759448 0.0049244903441469584
240042000.0 0.0005408414747853 0.0005464289297041497
255041500.0 0.0033860583454822005 -0.0014289334912261867
270041000.0 -0.0005908246759712681 -0.0003483927208784888
285040500.0 -0.0013979548627041855 -0.0040905065689516105
300040000.0 0.0005512214628160395 0.0014275924882969633
315039500.0 -0.003054920604266507 -0.0007603106634381306
330039000.0 -0.004917150887797853 0.006680467479896798
345038500.0 0.001150491551393721 -0.009130428283109143
360038000.0 0.0024998145126488088 -0.008649872213588204
375037500.0 -0.003228511914821291 0.013565812998667586
390037000.0 -0.2504798816410742 -0.047227687421426426
405036500.0 -0.008511425713258532 -0.0025709260471939426
420036000.0 0.0009043900159645708 0.0006356436876066757
435035500.0 -0.006565912634866665 0.003173760905572146
450035000.0 -0.009583647555601819 0.024268994823422985
465034500.0 0.0012370587031933686 0.01715524649084601
480034000.0 -0.005380603785203729 -0.01600860624918592
495033500.0 -0.0007388697812781705 -0.0006292390570112277
510033000.0 0.021863021632691552 -0.012519093761480995
525032500.0 0.0002753708348013392 0.0013939769356999061
540032000.0 0.027023884969775428 -0.020418362765412444
555031500.0 4.582023417114243e-05 0.0013351517470556302
570031000.0 0.018762412478467314 -0.0007959546054377659
585030500.0 -0.0018553687610786465 0.005799380145570013
600030000.0 -0.008503610056382628 -0.0038865682139764194
615029500.0 -0.006173611497816209 -0.005488508520507131
630029000.0 -0.0022907185889794114 0.0036899988246789383
645028500.0 0.03701330408042133 -0.005587713714689167
660028000.0 0.012746717051287514 -0.0009673436856885825
675027500.0 0.029254121487839412 0.012982750329649012
690027000.0 -0.0018031237228370862 0.002451178028483843
705026500.0 -0.0004508097450366326 -0.0050804629020318876
720026000.0 0.005698223907012062 0.002612530434368352
735025500.0 0.0013878638578465135 -0.0008639723059159009
750025000.0 -0.0009141126724808122 0.0011654970437350704
765024500.0 0.016435571143588214 0.00981706523518989
780024000.0 0.030933304275041876 -0.024164426485184534
795023500.0 -0.13188295385383875 -0.010919846312903615
810023000.0 0.0021397898399424637 -0.00012114133281202089
825022500.0 0.0015717681240023857 0.0003966825142791375
840022000.0 0.0033967392949536615 0.0024911830916643884
855021500.0 0.0035510506267908653 -0.0027256024490439168
870021000.0 -0.0011618862868511745 -0.000632079056991295
885020500.0 -0.005869630727801609 0.005470603914214442
900020000.0 0.01993502009595704 -0.005910600727183462
915019500.0 0.00021075025856584536 0.0028393778466912567
930019000.0 0.008208412607534733 0.026198205749568663
945018500.0 -0.015753358518073798 -0.01999716138548906
960018000.0 0.001285701053111181 -0.018185130945048658
975017500.0 0.019343373307764603 0.010112795932416324
990017000.0 0.004231708927611918 -0.004876381859080667
1005016500.0 -0.005514978146227101 0.014068235212343422
1020016000.0 0.01255673205299559 0.016320900471584736
1035015500.0 0.04300912398220975 -0.02443978780708655
1050015000.0 0.012229127546364174 0.010368339757806546
1065014500.0 -0.020471604037143896 0.01819478440304631
1080014000.0 0.006815331875885836 -0.0019138485945367576
1095013500.0 0.0029401642679869155 -0.0014526252580524706
1110013000.0 0.13113550566524304 0.1122789441868726
1125012500.0 0.004837526542628945 -0.030209882652266106
1140012000.0 0.004212347075118237 0.006810924923093635
1155011500.0 -0.09738113688698773 0.05827483523961767
1170011000.0 -0.16541698113258405 0.4223348467949309
1185010500.0 -0.0028180318167790918 -0.012731075112400073
1200010000.0 -0.006613457744279874 -0.002461227434931215
1215009500.0 -0.0076912847633785015 -0.03494131277879833
1230009000.0 -0.0009651494271726663 -0.004968861348843971
1245008500.0 -0.0010365558874770278 0.0032123974964837973
1260008000.0 -0.018897134084623294 0.010984438626176927
1275007500.0 -0.0008921016060042034 -0.008081106473887182
1290007000.0 -0.0002277663532997475 -0.007494014299745595
1305006500.0 -0.0017788956683883826 0.02397449002260871
1320006000.0 -0.030757234933774656 0.021701028399377906
1335005500.0 0.003417743232195386 -0.010596008452720938
1350005000.0 -0.03903022460839091 0.022930853234900832
1365004500.0 0.23347168885862854 0.07905643454274813
1380004000.0 0.15694323875587524 -0.26579919127156904
1395003500.0 0.01051988116234926 -0.00337470129389591
1410003000.0 -0.005754895769111595 -0.0029040087098700634
1425002500.0 -0.003577931591332081 0.008859038477641738
1440002000.0 0.010499156027801548 -0.007743432667208367
1455001500.0 -0.020975088456011804 0.07544990105799869
1470001000.0 0.005062025161229022 0.1486313943046374
1485000500.0 0.02743342825061775 -0.014181704514121044
1500000000.0 -0.04820024674738957 0.016032424830315823
