! Created with skrf 1.8.0 (http://scikit-rf.org).
# Hz S RI R 50.0 
!freq ReS11 ImS11
50000.0 0.0002361467882528291 -0.00028078716035213923
15049500.0 0.0004169838770467114 -0.00014249636263288115
30049000.0 0.0013728915721358005 -0.0020133385708617944
45048500.0 0.00012984579033790196 0.00011000451012241917
60048000.0 0.0012422269707771396 0.0027139910823972134
75047500.0 -0.00039209227281618774 0.000368659517988016
90047000.0 -0.0013574287778024409 -0.0006969034712995932
105046500.0 0.00027757917380289213 7.008115594794257e-05
120046000.0 -3.5318767303750265e-05 0.00017707685861608063
135045500.0 -0.0009670208183296895 0.0036850297377574
150045000.0 8.391098023749943e-05 -8.513925534821908e-05
165044500.0 -0.0002548113548730139 -0.0005390548437914147
180044000.0 -0.00014661222512983932 0.0005546218543224789
195043500.0 -0.00021486137488162152 -0.00017479569563371198
210043000.0 0.000817152238668386 0.0004831132519482084
225042500.0 -0.002180184510473525 -0.0012199551674660415
240042000.0 0.0004988357127550607 0.00023800244221269996
255041500.0 0.0006591215859974892 -0.001349306995682125
270041000.0 0.0009270249778060386 0.0006574432458683479
285040500.0 -0.0025877134893190286 -0.0011291961630843683
300040000.0 1.808486385711331e-05 -0.0012761941239707965
315039500.0 -0.0035568899886273394 -4.1183271515397366e-05
330039000.0 0.021410318968608184 0.007694342774324026
345038500.0 0.003188972195114216 0.0009827482650170975
360038000.0 0.0049145978371069555 0.020602960639241347
375037500.0 0.0001774945119511683 0.001388998321819586
390037000.0 0.19514987676491585 -0.09742800684701583
405036500.0 0.016662993877424644 0.031650948700980834
420036000.0 0.0006308440651904302 0.003070345044640219
435035500.0 0.01797213647498196 0.0037524216088445765
450035000.0 -0.02351967793700535 0.0038606140108463313
465034500.0 0.0036601618725240247 -0.002222474834817529
480034000.0 0.0005462361242474055 0.003420798849585716
495033500.0 0.008659831936374528 0.004421567801055169
510033000.0 0.003093801254291708 -0.0009240303966334429
525032500.0 -0.005340157680927177 -0.00624558934838748
540032000.0 -0.008700198686410853 0.006755550915382322
555031500.0 0.014135743861225332 -0.00782104885648944
570031000.0 -0.003498762833883623 -0.008807798213803826
585030500.0 -0.16479224012747126 0.1942279690955672
600030000.0 -0.0015272180615239382 -0.00014030389429923762
615029500.0 0.01811937092586991 0.009108531293157864
630029000.0 0.04564505270006722 0.09349604359516411
645028500.0 0.0014782762775775657 -0.00036301739618544614
660028000.0 -0.0011223989323230754 -0.004996386940367344
675027500.0 -0.009570177290138268 0.018418183068480226
690027000.0 -0.01361862436815269 0.01025891322514551
705026500.0 0.004866661217006593 -0.003996353825230414
720026000.0 -0.016049870356982503 0.003560081312429665
735025500.0 -0.004469165726217735 -0.00025514071267414496
750025000.0 0.0002485161818025083 0.006397917090617515
765024500.0 -0.0025711371100742174 0.009614838093163939
780024000.0 -0.09897339837734982 0.12078875344714969
795023500.0 -0.005129015776739246 0.0063069123939042205
810023000.0 0.00824602024259911 0.0076159312608529385
825022500.0 -0.0028590441758357768 -0.0018385445659332622
840022000.0 0.004158675730039913 0.005989980249798682
855021500.0 0.0036779898596715883 0.004995918103281083
870021000.0 -0.00016285846440685 -0.001179759410877427
885020500.0 -0.009482175416475065 0.007646892227568613
900020000.0 0.005928790034422877 -0.003909525006215925
915019500.0 0.0035434623163181304 0.0021400644624434083
930019000.0 -0.003687982601562202 -0.009437900921490744
945018500.0 -0.0045755538634435974 -0.00890908975719187
960018000.0 -0.002962755578264806 0.009969017930462225
975017500.0 -0.00042830713179401445 0.010366076096698481
990017000.0 0.00949523215468734 -0.004616661903017076
1005016500.0 0.009069837065116186 -0.0007310610955587975
1020016000.0 0.2725158470912208 -0.4753271686773693
1035015500.0 -0.003551161115332195 0.002553549267001027
1050015000.0 0.012085055746399247 0.004910024932114766
1065014500.0 -0.0003970944906209144 -0.005252878739257128
1080014000.0 -0.008008281707393464 -0.06372417969721554
1095013500.0 0.003923421928000097 0.016040785447716956
1110013000.0 0.007238138616732926 0.018033851682395633
1125012500.0 -0.0027555202604339127 0.006013514443461842
1140012000.0 0.02271882553879653 -0.021372598721954062
1155011500.0 0.08613349652873671 -0.028589432215926188
1170011000.0 0.02387950363036696 -0.019573957973782714
1185010500.0 0.006003691723913097 -0.006127054967724958
1200010000.0 0.0005401026255686303 0.010061350513277107
1215009500.0 -0.009013307647603809 0.0016269332742353307
1230009000.0 -0.015113760650708049 -0.003674842340610935
1245008500.0 0.034719549308614206 0.02964710598955332
1260008000.0 -0.06717956961459844 -0.04851715655417173
1275007500.0 -0.0016961104790366107 -0.035927644384171606
1290007000.0 0.0005705359408953726 -0.04570577516045914
1305006500.0 -0.006493991996894568 -0.0014453281173793223
1320006000.0 -0.005209459313405123 -0.008939563666404722
1335005500.0 -0.03833393170117305 -0.007153647789569463
1350005000.0 0.054216024468015434 0.000914130418131268
1365004500.0 -0.1668264216312996 -0.05509094613364799
1380004000.0 -0.014942754824882096 -0.00264771423014391
1395003500.0 0.0020049665081354135 0.01170693279911819
1410003000.0 0.01969415940463311 -0.014778637055478883
1425002500.0 0.020895509575842307 0.007377987958575082
1440002000.0 0.006458940328491452 -0.007738659429088198
1455001500.0 0.0024137857819966995 0.003611576319056828
1470001000.0 0.00511519809889113 -0.017667723236172425
1485000500.0 -0.002301582340379335 0.06568369767628059
1500000000.0 0.006123361965797187 -0.004837655524460358
