! Created with skrf 1.8.0 (http://scikit-rf.org).
# Hz S RI R 50.0 
!freq ReS11 ImS11
50000.0 0.0001432872982013777 1.3106661903093269e-06
15049500.0 0.00016514966257167365 0.0005023441211226199
30049000.0 -0.003136435623373464 -0.0007752659325147866
45048500.0 0.0005273088497174079 0.0007509548280437036
60048000.0 0.0002949362652836056 3.3339180555607284e-05
75047500.0 -0.0002423329725098697 5.292172513907716e-05
90047000.0 0.00014682869035349304 6.655682957006355e-05
105046500.0 -0.0001479063109753797 8.30511392134217e-05
120046000.0 -1.7187634201700565e-05 0.0005915073270724134
135045500.0 0.00010010396818822989 -0.0002726020825470373
150045000.0 7.363746308996056e-05 -0.00017074655539586894
165044500.0 -0.0005792337190746005 -0.0013094248870629643
180044000.0 -0.0020838748650289056 0.001977595293114656
195043500.0 4.624422085034385e-05 -0.0001849378160838427
210043000.0 -0.0003222532329351613 0.00044431352623678543
225042500.0 0.00015372999652318566 0.002870188415051539
240042000.0 -0.0024138507173527687 0.00015718036872226668
255041500.0 0.000850097630928011 0.0009222920631908536
270041000.0 0.0004071897051916059 -0.0018599216951229018
285040500.0 -0.00010027361417322236 -0.000535046804479589
300040000.0 0.005117246023988915 -0.00011478942139177683
315039500.0 0.0001285253895726362 -0.0017513146236533496
330039000.0 -0.004360467657404814 -0.0031247441321327948
345038500.0 0.0007441189234943445 -0.0011291091482859995
360038000.0 0.00047413391182866114 -0.0011242588633774764
375037500.0 -0.0018496112299888627 -0.002184135751041707
390037000.0 0.025537864977639827 -0.013935072628634443
405036500.0 0.0014381152885599813 0.0064260637616876835
420036000.0 0.0006821788932780408 0.007023320785604068
435035500.0 0.002260394282826214 -0.0005667263757417768
450035000.0 0.002571529096961372 0.06699958218870974
465034500.0 -0.0042900442027538205 0.002310022968775896
480034000.0 -0.0008792099966728009 -0.020124199325394363
495033500.0 0.00015190337349080176 -0.0012227985044296723
510033000.0 -0.0004349153298257731 0.0007224340974168846
525032500.0 0.00019227746797425307 -0.005671854066331895
540032000.0 0.00481042747658316 -0.0017720820200330303
555031500.0 0.004258438439539369 0.011104507805482403
570031000.0 -0.0029576356349556485 -0.0036954454640340906
585030500.0 0.0014236322151023814 0.0023143779397654684
600030000.0 0.0035242617345350624 0.00019467445692974297
615029500.0 0.03152428134327314 -0.01222720895311502
630029000.0 0.0009108389743705113 0.00017884616907345776
645028500.0 0.004886927505659988 0.001194264159294665
660028000.0 0.004000451644167883 -0.002087327660940017
675027500.0 0.0030565514813565456 0.00808095189345673
690027000.0 -0.013772067988610697 -0.025923027607060806
705026500.0 0.0060348438009092805 -0.002719379735008773
720026000.0 0.00649670159657489 0.00923883094376572
735025500.0 -0.013938875628704281 -0.03807243626768045
750025000.0 0.03157398123510992 -0.014437714832510933
765024500.0 0.0022168112331165937 -0.0014569884180486079
780024000.0 0.0018205975116713858 0.0008505328198423525
795023500.0 -0.001730606417397727 0.0012611327023538635
810023000.0 -0.0032881394031811033 -0.006154091647593792
825022500.0 0.00021355006572984714 -0.0013750649154315663
840022000.0 -0.0021928122874798313 -0.0024018043472633995
855021500.0 0.006798464353922551 0.001493898875121579
870021000.0 0.03452512095870432 0.016100968204672907
885020500.0 -0.005835599005019193 -0.0071604275126126785
900020000.0 0.006135340841076197 -0.028478197411719617
915019500.0 0.04317897886956979 -0.1396235022836384
930019000.0 0.007310174787067402 -0.0017023434493063246
945018500.0 0.0015308833499744065 0.0156769698946134
960018000.0 -0.03982408381700503 -0.04111160174314051
975017500.0 0.020550877722246685 0.007450706088557604
990017000.0 0.001757407699439562 -0.003416639966791606
1005016500.0 -0.0013961074487705244 0.004853572530045285
1020016000.0 -0.010988633278819788 -0.00014075439899155793
1035015500.0 0.013512869856436613 -0.003050754216924631
1050015000.0 0.019228603606764937 0.0044066386092662235
1065014500.0 0.03797036182506231 0.03669922959351652
1080014000.0 0.011736677143251542 -0.00609692729869777
1095013500.0 -0.001537512469890528 -0.009490726530790337
1110013000.0 0.0016622506876253084 0.002989927273030196
1125012500.0 -0.017021474167308526 -0.07982393977880523
1140012000.0 0.022987317556855482 -0.05736140574097234
1155011500.0 0.1294009180510858 -0.061089439790558614
1170011000.0 -0.015106887632306774 0.010860074742631998
1185010500.0 0.004680609983352206 0.025387554805468802
1200010000.0 -0.005836754849034974 -0.0026558246530598737
1215009500.0 0.0021583736194038155 0.006777248174372536
1230009000.0 -0.015246869562072978 0.0010998146656871508
1245008500.0 0.014351590436457754 -0.009745775360949947
1260008000.0 0.04158320998224505 0.058809353036017496
1275007500.0 -0.0027194325140730623 0.006251886316564651
1290007000.0 0.006941962959374473 0.013613035513490048
1305006500.0 -0.00380893472425099 -0.00013782747237233274
1320006000.0 -0.00738681456195842 0.019826955243098077
1335005500.0 -0.013163514127153664 -0.007598225027078939
1350005000.0 0.004809758333236486 -0.004204968513500567
1365004500.0 -0.12472658495087914 -0.031867803315815194
1380004000.0 -0.025658136811906273 0.00851553360626629
1395003500.0 0.0185587311097182 -0.007345127697649929
1410003000.0 0.000927492884770278 0.0653195094117535
1425002500.0 0.0024783978393649307 0.031199684136030865
1440002000.0 0.003677344657996177 0.014286944447700392
1455001500.0 0.03185393692283185 -0.011455655910536615
1470001000.0 -0.0045589366873066695 -0.00562743363443257
1485000500.0 -0.008064635700141383 0.0025232713881061814
1500000000.0 0.009126892427654652 -0.006897361771282097
