! Created with skrf 1.8.0 (http://scikit-rf.org).
# Hz S RI R 50.0 
!freq ReS11 ImS11
50000.0 9.831948300993323e-05 0.0007392896852827629
15049500.0 -1.1262258381755233e-06 0.0002713786927788329
30049000.0 0.0004411880380543584 -4.2247096938483496e-05
45048500.0 0.0011589976085904913 -0.00040520826915510174
60048000.0 5.839432513267254e-05 -0.0002687730663423953
75047500.0 0.00036161803447690567 -0.0002476425220005296
90047000.0 0.0006953405964115043 -0.0009286324845916127
105046500.0 -0.00022143600018668816 -0.0002691575796002846
120046000.0 0.00013065223994482137 0.00014277483484121517
135045500.0 -0.0017090175568461503 -0.00040249580574409867
150045000.0 0.00035563437682112304 -0.0002080081950766552
165044500.0 -0.0015627656172548393 0.0017338851469868805
180044000.0 -0.000443127334067289 0.001531075006105974
195043500.0 0.00041896373539836103 -0.0003531265017856396
210043000.0 -0.003958897742297177 0.001351289115918341
225042500.0 0.0043231891706275866 -0.0005481211854384578
240042000.0 4.704315612167704e-05 -0.0008193130910398715
255041500.0 0.00012850731685672378 -8.588733490215864e-05
270041000.0 0.004814113522855428 2.623416868290371e-05
285040500.0 -0.007655038650209228 -0.00139199645400363
300040000.0 -0.0007494046617544133 -0.0035132836838837134
315039500.0 -0.001983649958246852 -0.004547938169046654
330039000.0 -0.005045930389053251 0.0005561320958189093
345038500.0 -0.0030453881472747783 0.0001271887325482187
360038000.0 0.0010054636927791275 -0.002555328215818441
375037500.0 0.004634845781894006 -0.009471562439328727
390037000.0 0.00473002239539785 0.0011536246755220509
405036500.0 0.0007097562057046921 -0.00030308264547337655
420036000.0 0.0016343229581879393 -0.0021739329784173037
435035500.0 0.002628500732526889 -0.0007902306757692242
450035000.0 0.002909329337893479 0.0021300975800452528
465034500.0 -0.0007318734918727368 0.0010817013353301864
480034000.0 -0.0005780409979147294 0.007529344793047378
495033500.0 0.0079500264671773 -0.008161896293630042
510033000.0 8.159850344858793e-05 -0.0006478199618300907
525032500.0 -0.000532958174913228 0.0020459182740696596
540032000.0 0.004827971578784991 -0.01479418139219009
555031500.0 0.0067279724716809465 -0.0073186139266052325
570031000.0 0.0008415335102514454 0.004836997447023408
585030500.0 -0.00023754268338605804 0.010929632097694184
600030000.0 -0.010001136509725806 -0.007483255843014052
615029500.0 0.005140353314322235 0.003141552175198896
630029000.0 -3.888231280987134e-05 -0.0022182962186271605
645028500.0 0.0025825253313286585 -0.0028823482619728274
660028000.0 -0.001413666576226082 -0.006412257718717734
675027500.0 0.002174924722168953 0.0009863349448662895
690027000.0 0.005391825785296962 0.0003883725737485321
705026500.0 0.0015478479521764611 -0.004604285550414187
720026000.0 0.0011216490304632428 0.0033935431144311596
735025500.0 -0.01020709460606448 0.015486295461975531
750025000.0 0.0001655612605517185 0.014558484626796297
765024500.0 -0.0006486318713730653 -0.002905497322356342
780024000.0 -0.03397856034002016 -0.0673057946605379
795023500.0 -0.003243619001667113 0.002455065833555175
810023000.0 -0.0012322029847840678 0.012395503492377004
825022500.0 0.00012172535203154545 0.0011844193945112615
840022000.0 -0.021040623717656526 0.0038895751515715957
855021500.0 -0.00875288881186169 0.007781416721048985
870021000.0 -0.0013099080325958937 -0.004739599100591242
885020500.0 -0.0005755838521164801 0.0007709167138808914
900020000.0 -0.0015638841917304293 0.0005700444110107647
915019500.0 -0.003832456396897214 0.004969331528961318
930019000.0 0.003177968122134082 -0.002536176610612263
945018500.0 0.00637483786517402 -0.009731939975225224
960018000.0 0.005398531188524787 0.009351376726206862
975017500.0 -0.02241689533825778 0.014989670393247258
990017000.0 0.004572481698402693 -0.0014913187774357314
1005016500.0 0.025837415350094442 -0.011560954350707732
1020016000.0 0.02382942026042159 0.008779160436308775
1035015500.0 0.016585076069111252 -0.013951733676308711
1050015000.0 -0.0544217672205887 -0.05720460058354249
1065014500.0 0.003988489797616315 -0.00081663151816632
1080014000.0 0.0029244106205871157 -0.019210501480674807
1095013500.0 -0.005767583717211308 -0.00047216162683741555
1110013000.0 0.001725023898418874 0.009238212550345336
1125012500.0 0.005234483022976298 0.004524882554116626
1140012000.0 0.0047097817906346096 0.007375648060249542
1155011500.0 0.10472928128110875 -0.03405463899389559
1170011000.0 0.008353205086367596 -0.04315201694856404
1185010500.0 0.027912036723637457 -0.0012352592595164923
1200010000.0 -0.0050932240417080965 -0.006199522581974641
1215009500.0 0.06435137941618721 -0.007467802638871068
1230009000.0 -0.015217322324241432 0.003826936970104994
1245008500.0 -0.007060048004355345 -0.00425413783500968
1260008000.0 0.00855837762649221 -0.0037725404314313702
1275007500.0 -0.002418589755128395 -0.002749016814660625
1290007000.0 0.1407920663343599 -0.006785526346340119
1305006500.0 0.005069321024222249 0.004614036153206263
1320006000.0 -0.05271967379408589 -0.07473241790539241
1335005500.0 -0.00414144644428205 -0.004707880703839409
1350005000.0 0.019042053977821286 -0.0021923682904435343
1365004500.0 -0.01848836562648404 0.015664695866797508
1380004000.0 0.0022543718455954515 0.004492559250193384
1395003500.0 0.00964087137201338 0.005979372360401478
1410003000.0 -0.008760465659233954 -0.010859838386375931
1425002500.0 0.009996610478633913 -0.015415929230048272
1440002000.0 0.005308068972364059 0.005051050658277578
1455001500.0 -0.008410978400571355 -0.030418529865226987
1470001000.0 0.016183401287519054 -0.02226927100246756
1485000500.0 0.016314448385721422 0.003092778171287877
1500000000.0 -0.003339648310925809 -0.04457208697939776
