! Created with skrf 1.8.0 (http://scikit-rf.org).
# Hz S RI R 50.0 
!freq ReS11 ImS11
50000.0 0.0033306443442938085 -0.0011936893671294795
15049500.0 -0.0014149932150363937 0.0033443645484692594
30049000.0 -0.00015947490761974276 -0.00010282851139835759
45048500.0 0.00016456411823714893 0.0001400509980928607
60048000.0 -3.0828795027484896e-05 -5.016796291608754e-05
75047500.0 -0.0005362594762854721 0.000676323248544106
90047000.0 2.3567362504204202e-05 5.4024735359123315e-05
105046500.0 -4.210635451204106e-05 0.00014404021122629498
120046000.0 -0.000867601696148077 0.00016478278124774093
135045500.0 0.0027775487948338523 -0.0005672817215972511
150045000.0 5.3188336744877615e-05 0.00022324397050007194
165044500.0 0.00015235570343695285 0.0001716553627886239
180044000.0 -0.0010623842175628837 -0.004650513877959026
195043500.0 -0.00037363259895788377 -0.00010450793788202564
210043000.0 -0.0006665216313439744 9.994562315257416e-05
225042500.0 -0.0007143437365665202 -0.0015164999043649333
240042000.0 0.003300437553501 -0.0011852063941901587
255041500.0 0.00032293672853982787 2.0215603406325505e-05
270041000.0 -0.0008979982938066319 -0.0006564243247492832
285040500.0 0.0013319673222206487 0.0007008838374385878
300040000.0 0.002216881163554669 -0.0030752010192294536
315039500.0 8.422235742431696e-05 0.0017290231379506412
330039000.0 -0.007882775365780331 0.011124882090605645
345038500.0 0.0042543487269317715 -4.332411052961221e-05
360038000.0 0.0005909125429495475 -0.0005920741924321065
375037500.0 0.0012805421066949714 0.003157748562622249
390037000.0 0.04657819645990462 0.06129107665488816
405036500.0 -0.0031655598296214944 -0.00134552880821997
420036000.0 0.0008545836649529562 -0.0005417793154036931
435035500.0 0.00022825766873112518 0.002008884142552522
450035000.0 -0.00395672422260878 0.008221550878119288
465034500.0 0.0007970036185189822 -0.00027401029402089193
480034000.0 -0.00860723322277028 0.011611153561517238
495033500.0 0.0006383923179480651 0.0026090529041500215
510033000.0 -0.002134244813308822 -0.0021707695770614996
525032500.0 -0.001765047081304251 -0.004163747398400546
540032000.0 -0.010125933538858954 -0.0039906829197877075
555031500.0 -0.004624022459300878 0.003349078367868034
570031000.0 0.002988869801006848 0.00222582508261706
585030500.0 0.01971545285324693 -0.0016350470609594234
600030000.0 -0.0005782471661530494 -0.01382865430209072
615029500.0 -0.0026994732575152105 -0.013345649410737973
630029000.0 -0.001625044511634226 -0.0044296352004706205
645028500.0 -0.00815521896197707 -0.017617650797957136
660028000.0 -0.010298889409971534 0.006117011551410441
675027500.0 0.0036582898169341825 -0.009230040465615113
690027000.0 0.030453115634235185 -0.04400671405591064
705026500.0 -0.004490328896656099 -0.002835680611991299
720026000.0 -0.009158846780187052 -0.00287037573217159
735025500.0 0.002703985829493834 -0.002405521030312949
750025000.0 -0.004763939726232826 0.008096155601667904
765024500.0 0.0015190222984559118 0.002994524417912172
780024000.0 0.083835531030743 0.03823179067596761
795023500.0 0.027610348284652694 -0.03950180720594813
810023000.0 0.0016340279643020062 0.05121536369504528
825022500.0 -0.05185399675966147 -0.01648012688871904
840022000.0 -0.0005070418965521011 0.006595276845662514
855021500.0 0.01803466870096734 -0.022299369046873744
870021000.0 0.006174443268478467 0.00130713181791947
885020500.0 0.002782044637787503 -0.002660725923085545
900020000.0 -0.004337789244753707 -0.006776940291600699
915019500.0 0.0018168733410582909 0.016156893916133324
930019000.0 -0.03363635233688097 0.0014374595314271441
945018500.0 -0.01752886173176607 -0.02979010598249733
960018000.0 -0.0022823089437096406 -0.0018494687330646374
975017500.0 -0.02373754939969866 0.05129026990624028
990017000.0 -0.0012687698522167205 -0.003345298810032113
1005016500.0 -0.00341500421286504 0.0033592096271058357
1020016000.0 -0.05653297810668241 -0.014144095853351584
1035015500.0 -0.006085806703591258 -0.004509094948022344
1050015000.0 -0.07431245818546466 -0.0027265579873903523
1065014500.0 -0.0007108583011384903 -0.0030438723207811343
1080014000.0 -0.0005447333616053158 -0.014293960134422306
1095013500.0 -0.0069922868536539855 0.00660553214231009
1110013000.0 0.0013268995019367217 0.0016637905081970067
1125012500.0 -0.0009059686889485236 -0.015039256222460709
1140012000.0 -0.0023503116011978917 0.002075727890257464
1155011500.0 0.15016889634886602 0.10065866214598376
1170011000.0 0.013005011154255113 -0.036697661064071005
1185010500.0 0.0029931433364856447 9.734001853929462e-05
1200010000.0 0.01786145506681394 -0.033028849546771176
1215009500.0 -0.003992943785957803 -0.013954375829495729
1230009000.0 -0.026959773789313073 0.009962604578855018
1245008500.0 -0.041615766845777474 0.06570053327708213
1260008000.0 -0.0021521545204441954 -0.03599075624115077
1275007500.0 -0.000686467298294526 0.012931365159642426
1290007000.0 -0.0016476440780173185 -0.006960616001118226
1305006500.0 -0.02903787981080944 -0.0462388736958756
1320006000.0 0.0001193893548017114 0.04079545955744219
1335005500.0 0.04961510767998832 -0.013031933679742497
1350005000.0 0.00542812907547045 0.0033879030446864874
1365004500.0 -0.08275455803478036 0.10513117341268204
1380004000.0 -0.007622003930886691 -0.006177178731239059
1395003500.0 -0.012481805610964559 0.007390045098969927
1410003000.0 -0.0035342022097418495 0.0005642994213007184
1425002500.0 0.011117011666818171 0.0035516486598203816
1440002000.0 -0.0018706423771098536 -0.00713465057489558
1455001500.0 -0.009801923512741137 0.0027797239170792147
1470001000.0 -0.027500637520604526 0.026594970364092245
1485000500.0 0.0036829380940845663 0.0043437237693414255
1500000000.0 0.0013999141282296428 -0.005957705973363876
