! Created with skrf 1.8.0 (http://scikit-rf.org).
# Hz S RI R 50.0 
!freq ReS11 ImS11
50000.0 0.001095242824818909 -0.0019270743984169483
15049500.0 -0.0004454647486664654 6.514978093291418e-05
30049000.0 2.905453046899266e-05 -0.00014314772187804347
45048500.0 -0.0011306488925856319 0.0003486773937101898
60048000.0 -0.0012288076476477503 -0.0002377533959408614
75047500.0 -0.00046504722113744577 -0.0001482092608780146
90047000.0 -9.16648562906167e-05 -4.2250333566076904e-05
105046500.0 -0.000506640656817016 0.0005217244902893426
120046000.0 -0.0016817717762768816 -0.0028878434693507212
135045500.0 -0.001124207558095163 -0.0013821682559259996
150045000.0 -0.00010411461272739812 -0.00012077838081918051
165044500.0 -0.0003151819825845627 -0.00019120867497581185
180044000.0 -0.0002112953060900092 4.002723007707877e-05
195043500.0 -0.00017022935740623814 -0.00024553640417758146
210043000.0 -0.00011804621800740156 -0.0006448171188389767
225042500.0 0.000676166270305294 -1.3269411465611437e-05
240042000.0 0.00016846989921786258 0.0003493303732964506
255041500.0 -0.0006513759250038523 -3.7968396391612184e-06
270041000.0 0.0015685321438656326 -0.002522461833588271
285040500.0 -0.0017402807840012735 0.0027445988846804335
300040000.0 -0.002248726392198281 0.007398556336551497
315039500.0 -0.004007475888990747 -0.004162471755114224
330039000.0 0.0007518392510237912 -0.02256029452262955
345038500.0 0.0033479328094894946 0.004331181415593326
360038000.0 0.006318744866946074 0.003294249474491312
375037500.0 0.005367530530385216 0.017945117044903456
390037000.0 0.006877799217704418 0.018708251216920282
405036500.0 0.0037841928064404422 -0.019334068608955965
420036000.0 0.0052318571243647515 0.0025548928952371544
435035500.0 -0.006278104284379922 0.004641440065923853
450035000.0 -0.009195085102962705 -0.01368019499711037
465034500.0 -0.0012101214332527598 0.010132173652723557
480034000.0 0.0013161386337843873 0.0007530244202446278
495033500.0 -0.002046928588710277 0.0016112435822061351
510033000.0 -0.0007458995917908128 0.002162520607334801
525032500.0 0.002613356411901607 -0.007715360304599695
540032000.0 0.00231466230944887 -0.0011194677711040312
555031500.0 -0.004228238005641303 -0.000686030292680178
570031000.0 -0.0016645464234746827 0.0007891956219741388
585030500.0 -0.0032877244958771663 0.0008363116110646372
600030000.0 -7.275888745859845e-05 0.0069944528551728075
615029500.0 -0.005106696954501466 0.004279443531576611
630029000.0 0.005526412736179843 -0.0028004951812868922
645028500.0 -0.006243227821981498 0.0047052103352165095
660028000.0 -0.021512534199853533 -0.020525012173403023
675027500.0 0.006800553035769344 0.02265402482213311
690027000.0 -0.002498622872319705 0.0016850832451042142
705026500.0 -0.009938169992220873 0.0032592783763709626
720026000.0 0.00553580837052799 -0.02341533236799214
735025500.0 0.046365224959032926 -0.03414597304806046
750025000.0 -0.0020528767352660632 -0.01850886515129441
765024500.0 0.003677824513430456 0.0005025777385092022
780024000.0 -0.014723334341630515 -0.023526901332128446
795023500.0 -0.0016789686104029579 -0.001359116431359809
810023000.0 -0.003961379716367674 -0.0041163847916900745
825022500.0 -0.0013267059428598836 0.0022715139898025
840022000.0 -4.4681035762384144e-05 -0.0007690836232903178
855021500.0 0.002548666521835576 -0.004686396856323624
870021000.0 -0.001662636369067493 0.002055634500460704
885020500.0 0.00014217428449765025 -0.0025554230428790235
900020000.0 -0.01605750895342445 0.0036811394241770693
915019500.0 0.019434535150956868 -0.0035487519278299905
930019000.0 -1.0553025699258855e-07 4.9013537366733474e-05
945018500.0 -0.0021957414796158104 -0.001046936296212779
960018000.0 -0.032608144599449086 -0.016829563610434008
975017500.0 0.030687067032730216 -0.008097524776194019
990017000.0 -0.023914522953051683 -0.03539085707034871
1005016500.0 -0.0046891499651945485 0.0007329295599866316
1020016000.0 -0.005949376850216101 -0.015887909278610165
1035015500.0 0.0010776809967218916 3.828325591802846e-05
1050015000.0 0.009006160852539547 -0.016137077805452846
1065014500.0 -0.03564072355920701 -0.0067600294908669555
1080014000.0 0.00902108383538829 0.004289700859314642
1095013500.0 0.012226107651654782 -0.0038686605614945127
1110013000.0 0.04571635771064355 0.02982083171818616
1125012500.0 1.7573957908560144e-05 -0.0009155752728252399
1140012000.0 0.010078526090681396 0.0032937080903976015
1155011500.0 0.039021757916400564 -0.05712670542396079
1170011000.0 0.006180261806816344 0.009752532042149447
1185010500.0 -0.001893276126885138 0.004448573894114179
1200010000.0 0.005643225630241714 3.560573563277845e-06
1215009500.0 0.0004004134529391884 0.009070849540032897
1230009000.0 -0.010154097109580085 0.0066677370810840795
1245008500.0 -0.017860229892616247 -0.03819706157472244
1260008000.0 0.01566743658270507 0.004104083282518795
1275007500.0 -0.008013008560657644 -0.0859124551933867
1290007000.0 0.005059319376845757 -0.0002801444356724515
1305006500.0 -0.01505934196200303 -0.038397054384962305
1320006000.0 0.008523934062400656 0.006870958036259758
1335005500.0 -0.030272796053257976 0.07243122154364381
1350005000.0 -0.0022671023410779137 0.0014221801633134846
1365004500.0 0.09750273215927958 -0.013059017338523365
1380004000.0 -0.004336164314913403 -0.006126343788508534
1395003500.0 -0.001993308170727931 0.010400938744725013
1410003000.0 -0.001329165883628991 0.01433893140027343
1425002500.0 0.1563176171594444 0.08230434026010931
1440002000.0 0.010981004667921176 0.03292632874779111
1455001500.0 -0.025848239666638732 0.012265105167302318
1470001000.0 -0.008456830167446847 -0.004082058960338726
1485000500.0 0.012370368853068962 0.0016941363802146841
1500000000.0 0.012864816570812863 0.004879961587416263
