! Created with skrf 1.8.0 (http://scikit-rf.org).
# Hz S RI R 50.0 
!freq ReS11 ImS11
50000.0 -0.0018945955181232995 0.003091821464286619
15049500.0 -0.0004195914125695775 0.00021231226224501583
30049000.0 -0.0002222795548501836 0.00011492028024158011
45048500.0 -0.0002815322356275939 4.4408248072581526e-05
60048000.0 2.8778826469620047e-05 -0.0001084005025293317
75047500.0 -0.0009472176514116133 2.6727612003850274e-05
90047000.0 0.00016177089131016905 -0.00014620475122014272
105046500.0 -0.00035316176655261696 0.00040623874111343273
120046000.0 -0.00010567121014485348 -0.00014132295857900544
135045500.0 -0.00047622232778898014 -0.0006079391138719352
150045000.0 0.0009305478876578502 -0.0012122666936768914
165044500.0 5.581108383874557e-05 3.820772561073689e-05
180044000.0 -0.0002839054010848674 0.0009109164577257088
195043500.0 0.0007096827442811753 -0.00032308882984533245
210043000.0 0.0028274812313871375 -0.0008552336162560906
225042500.0 0.00021609013185830875 0.0002572118578042068
240042000.0 -0.0020100682504234327 0.0006670175476982529
255041500.0 0.00015280794880146074 -0.00037681504313604304
270041000.0 -0.00042411270001899826 -0.0022134055089075262
285040500.0 -0.001588611268045476 -0.00017265085286034538
300040000.0 -0.0002236634396465449 -0.0012335208148839035
315039500.0 -0.0014005909848233767 0.0016487603891730642
330039000.0 0.0015410799631309434 -0.002364697513600963
345038500.0 -0.035184385308692556 -0.06392353437981592
360038000.0 -0.0008043639512839787 0.006010939134293605
375037500.0 -0.0011488498099934254 -0.00135037723749188
390037000.0 -0.0069842088085075235 0.019016274505452044
405036500.0 0.00580203522909773 -0.003843627868188241
420036000.0 -0.0011194395490523813 0.0016447661300391333
435035500.0 -0.00944296023773544 -0.0038799572857026667
450035000.0 -0.0904698842709371 0.0022880401715007362
465034500.0 0.022078515532215043 0.01259579710992542
480034000.0 -0.007619051464311275 -0.0024688478324229003
495033500.0 0.012564656004863135 -0.018618821675282032
510033000.0 -0.031459405762659556 0.009833938901827557
525032500.0 -0.0010257122461554782 0.0029022091314955607
540032000.0 -0.010179647571137613 0.0025335199972181506
555031500.0 -0.00790002024199803 -0.011514949765250847
570031000.0 -0.004509714257388183 -0.007363020454633206
585030500.0 -0.002917069891641629 0.0019236558006023533
600030000.0 0.016027977402306794 0.00021921884264545767
615029500.0 -0.03341453747632546 -0.01885550943160874
630029000.0 -0.03777004443869261 0.03941700988868179
645028500.0 -0.005384052989706364 -0.004860336163694619
660028000.0 -0.004561730398887555 -0.0076880507381948794
675027500.0 -0.0015015070017240701 -0.007956427683084313
690027000.0 -0.0020003432872439763 -0.05068211880669408
705026500.0 -0.2900203481902006 0.11926351262716783
720026000.0 -0.004712431702815174 -0.0006460001918289089
735025500.0 -0.004753990104170534 8.934604434718124e-06
750025000.0 -0.009037383072088335 0.0071834484863031525
765024500.0 -0.002929783182976242 2.9417768461648868e-05
780024000.0 -0.14646047050271874 0.22169473320399977
795023500.0 0.0073969568451539534 -0.01378287677893865
810023000.0 0.0005591780304726476 0.00303594869406069
825022500.0 0.00199713015471733 0.004678943448143785
840022000.0 0.001046954018448056 0.0035763724270183963
855021500.0 0.0034532794460934604 -0.005016078585131779
870021000.0 -0.003411870215532035 0.003625493858308725
885020500.0 0.0015935140702677524 -0.003334489819324286
900020000.0 0.0017364707048874066 -0.0007211411715206149
915019500.0 -0.02080668189935121 0.001873775195905612
930019000.0 -0.021433666311075343 0.016183067298090933
945018500.0 -0.0035546938166373825 0.002882051485992687
960018000.0 -0.00038801849635031606 -0.0017403497048574241
975017500.0 0.018372403983332942 0.034858352692754384
990017000.0 -0.012018015436729198 0.0025050228110078594
1005016500.0 -0.004682054423758583 -0.007022498877324351
1020016000.0 -0.02635755178575965 -0.018687510553526968
1035015500.0 -0.001391954678358877 0.0024726565557994613
1050015000.0 0.0017291759950011387 -0.0032892905011377574
1065014500.0 -0.0021280875815728726 -0.004013936210792057
1080014000.0 -0.007650347252391434 0.008622042153602247
1095013500.0 -0.00471408241729464 -0.002933870958368552
1110013000.0 -0.0052610805169425665 0.02842398939515275
1125012500.0 0.0021161390497363075 0.00430179956623974
1140012000.0 -0.010979075434916758 -0.018514746889000046
1155011500.0 0.15229079127180323 -0.14789961406233237
1170011000.0 -0.016861942459759804 -0.0015788228762707445
1185010500.0 0.011861576280286541 0.026563551406945028
1200010000.0 -0.007875983622720965 0.001531211513477991
1215009500.0 -0.002409720899944019 0.0005750102468860346
1230009000.0 -0.005919628568299245 -0.0018852672741669918
1245008500.0 0.00451123915556443 0.021386261052002444
1260008000.0 -0.036604505796452545 -0.010790004620747024
1275007500.0 0.0068594973298391265 0.005795938664767073
1290007000.0 0.004938397539739599 0.006616462936404905
1305006500.0 0.0413641726128666 0.015961412334570373
1320006000.0 0.0008433565802590134 0.006794268466606299
1335005500.0 -0.0015328210887976506 0.006146162234962426
1350005000.0 -0.008656923938132725 0.02558198041113472
1365004500.0 -0.030370347611822706 0.0430833830661425
1380004000.0 0.01484177029635023 0.043361009595108004
1395003500.0 0.10064343498506136 0.03760901132501495
1410003000.0 -0.039574736839083184 -0.022977902620856333
1425002500.0 0.002378589597925824 0.017175153013753264
1440002000.0 -0.053893517105596034 0.03186840858712972
1455001500.0 0.0020184358282049376 0.02121083702048648
1470001000.0 -0.0033697522828210866 0.017172221828658636
1485000500.0 0.017368551638359073 9.86157663967663e-06
1500000000.0 0.03107259833243534 0.010253330588287356
