! Created with skrf 1.8.0 (http://scikit-rf.org).
# Hz S RI R 50.0 
!freq ReS11 ImS11
50000.0 -0.001090038 9.0028e-05
15049500.0 -0.0024822 0.000492701
30049000.0 -0.00520752 0.000485239
45048500.0 -0.008826858 -0.000708924
60048000.0 -0.012378716 -0.003865113
75047500.0 -0.01548337 -0.008698644
90047000.0 -0.017693802 -0.014902862
105046500.0 -0.01748805 -0.021849568
120046000.0 -0.015098446 -0.028811366
135045500.0 -0.010303188 -0.034668016
150045000.0 -0.003743289 -0.039100976
165044500.0 0.004040414 -0.04088234
180044000.0 0.010789192 -0.038291384
195043500.0 0.016847376 -0.034588284
210043000.0 0.020342588 -0.02851323
225042500.0 0.02057475 -0.021729834
240042000.0 0.017493364 -0.01585428
255041500.0 0.011078756 -0.012104444
270041000.0 0.002729093 -0.011832092
285040500.0 -0.006259402 -0.01576589
300040000.0 -0.012826208 -0.02381508
315039500.0 -0.018586344 -0.036831176
330039000.0 -0.018017812 -0.052963408
345038500.0 -0.011697514 -0.06967884
360038000.0 0.001699724 -0.086321504
375037500.0 0.022015424 -0.098816648
390037000.0 0.04664532 -0.10488464
405036500.0 0.075183128 -0.101085248
420036000.0 0.103109968 -0.089577032
435035500.0 0.12623872 -0.067914856
450035000.0 0.143260912 -0.036774208
465034500.0 0.149892064 -0.000554819
480034000.0 0.145900848 0.035094444
495033500.0 0.126650064 0.071272768
510033000.0 0.095361584 0.099259112
525032500.0 0.057215616 0.113933696
540032000.0 0.010280778 0.11380552
555031500.0 -0.029537256 0.097056248
570031000.0 -0.06296804 0.06973448
585030500.0 -0.084286312 0.032400042
600030000.0 -0.09237032 -0.014179048
615029500.0 -0.084218912 -0.06155936
630029000.0 -0.05548064 -0.104181832
645028500.0 -0.01230266 -0.13663336
660028000.0 0.035859344 -0.153238992
675027500.0 0.085087616 -0.151839728
690027000.0 0.133350032 -0.137840368
705026500.0 0.170500304 -0.10399164
720026000.0 0.19989592 -0.05390308
735025500.0 0.21147776 0.006246062
750025000.0 0.203851216 0.072193664
765024500.0 0.167665264 0.139269792
780024000.0 0.101498952 0.186770736
795023500.0 0.020097682 0.202569984
810023000.0 -0.058224872 0.17856368
825022500.0 -0.122962416 0.134637264
840022000.0 -0.163721184 0.071136688
855021500.0 -0.186938896 0.000885918
870021000.0 -0.19927304 -0.073940176
885020500.0 -0.203168624 -0.161351856
900020000.0 -0.18785816 -0.268984896
915019500.0 -0.19652272 -0.2728408
930019000.0 -0.214638304 -0.268469536
945018500.0 -0.21469248 -0.261328048
960018000.0 -0.230392448 -0.241031648
975017500.0 -0.232885472 -0.234878816
990017000.0 -0.239784544 -0.220460288
1005016500.0 -0.2498044 -0.203101904
1020016000.0 -0.252757424 -0.182510544
1035015500.0 -0.248268624 -0.159869488
1050015000.0 -0.253671136 -0.144255664
1065014500.0 -0.243086192 -0.117144536
1080014000.0 -0.228882752 -0.095983856
1095013500.0 -0.2052528 -0.080757288
1110013000.0 -0.189234336 -0.067774096
1125012500.0 -0.168267952 -0.06890172
1140012000.0 -0.151875104 -0.053186672
1155011500.0 -0.137160528 -0.061098324
1170011000.0 -0.113980064 -0.0506745
1185010500.0 -0.099024696 -0.048243092
1200010000.0 -0.077118304 -0.052292304
1215009500.0 -0.068517584 -0.05508346
1230009000.0 -0.048567352 -0.064545968
1245008500.0 -0.0376739 -0.073264872
1260008000.0 -0.025156238 -0.083235472
1275007500.0 -0.00962901 -0.076105504
1290007000.0 0.002789857 -0.099773928
1305006500.0 -0.008170722 -0.081172752
1320006000.0 -0.001819134 -0.12037772
1335005500.0 -0.016687574 -0.116958552
1350005000.0 -0.005944252 -0.130369144
1365004500.0 -0.008841152 -0.11751616
1380004000.0 -0.03250188 -0.104827648
1395003500.0 -0.02895085 -0.111956032
1410003000.0 -0.019912996 -0.078126872
1425002500.0 -0.034431268 -0.06777356
1440002000.0 -0.043460912 -0.078427552
1455001500.0 -0.067245128 -0.042995224
1470001000.0 -0.020192162 -0.029452564
1485000500.0 -0.053724232 -0.021006608
1500000000.0 -0.02197196 -0.005996024
