! Created with skrf 1.8.0 (http://scikit-rf.org).
# Hz S RI R 50.0 
!freq ReS11 ImS11
50000.0 -0.006569037 -0.004140777
15049500.0 -0.002277918 0.004579311
30049000.0 -0.005397635 0.006512787
45048500.0 -0.010924878 0.006566914
60048000.0 -0.01742859 0.004060049
75047500.0 -0.0241719 -0.000778761
90047000.0 -0.029984374 -0.00765965
105046500.0 -0.033633088 -0.015647512
120046000.0 -0.034661768 -0.02376286
135045500.0 -0.032518036 -0.030701186
150045000.0 -0.028546642 -0.036126324
165044500.0 -0.022519316 -0.038540088
180044000.0 -0.01641404 -0.035699768
195043500.0 -0.010775286 -0.031104446
210043000.0 -0.007315306 -0.023415928
225042500.0 -0.006580358 -0.014321286
240042000.0 -0.009408536 -0.005085489
255041500.0 -0.01552392 0.002211193
270041000.0 -0.023882286 0.005497542
285040500.0 -0.033147182 0.004376963
300040000.0 -0.039145244 -0.00271834
315039500.0 -0.044953484 -0.01269039
330039000.0 -0.043285748 -0.02643316
345038500.0 -0.033043962 -0.043257688
360038000.0 -0.01580472 -0.05871216
375037500.0 0.00973719 -0.070481632
390037000.0 0.042378608 -0.075272512
405036500.0 0.07957904 -0.070323056
420036000.0 0.117648776 -0.054827744
435035500.0 0.152651904 -0.028740504
450035000.0 0.179281184 0.005118347
465034500.0 0.19752616 0.047891908
480034000.0 0.202486224 0.092803488
495033500.0 0.191749344 0.135624608
510033000.0 0.170228896 0.1720012
525032500.0 0.13611968 0.194918416
540032000.0 0.093039528 0.202009776
555031500.0 0.056461716 0.193564768
570031000.0 0.02725913 0.168586224
585030500.0 0.005104237 0.13200772
600030000.0 -0.004240003 0.089006432
615029500.0 0.002311256 0.0410852
630029000.0 0.025792928 -0.005282613
645028500.0 0.063601284 -0.041138312
660028000.0 0.10825836 -0.065209276
675027500.0 0.156967856 -0.073718216
690027000.0 0.204086624 -0.067338648
705026500.0 0.241313792 -0.044514312
720026000.0 0.268074368 -0.002828897
735025500.0 0.283451936 0.048251524
750025000.0 0.274672672 0.107734808
765024500.0 0.235623424 0.166419088
780024000.0 0.164074032 0.21662784
795023500.0 0.080901816 0.217712016
810023000.0 -0.003632187 0.185414624
825022500.0 -0.070504848 0.134249488
840022000.0 -0.115027264 0.060835236
855021500.0 -0.14020184 -0.02014326
870021000.0 -0.155589392 -0.106662784
885020500.0 -0.161799376 -0.213953424
900020000.0 -0.149661632 -0.340308704
915019500.0 -0.193601328 -0.35490848
930019000.0 -0.254462 -0.354482816
945018500.0 -0.308500608 -0.328551584
960018000.0 -0.345246944 -0.286787168
975017500.0 -0.361592672 -0.22470512
990017000.0 -0.361769984 -0.155193152
1005016500.0 -0.340897824 -0.09740264
1020016000.0 -0.299806336 -0.043383436
1035015500.0 -0.245925872 -0.014684874
1050015000.0 -0.198918272 -0.013232978
1065014500.0 -0.142615952 -0.006002602
1080014000.0 -0.098993488 -0.027829406
1095013500.0 -0.065605312 -0.058158096
1110013000.0 -0.04821752 -0.087933448
1125012500.0 -0.039524112 -0.139348432
1140012000.0 -0.067166984 -0.168318592
1155011500.0 -0.090114208 -0.19094432
1170011000.0 -0.11492832 -0.18641896
1185010500.0 -0.150465952 -0.16649176
1200010000.0 -0.180807472 -0.136030032
1215009500.0 -0.165879216 -0.083131416
1230009000.0 -0.15223984 -0.058465396
1245008500.0 -0.109199032 -0.03965352
1260008000.0 -0.080085056 -0.028901116
1275007500.0 -0.031192022 -0.013222012
1290007000.0 -0.001457025 -0.032327246
1305006500.0 0.032602724 -0.047641588
1320006000.0 0.05508204 -0.116943496
1335005500.0 0.040052216 -0.1524336
1350005000.0 0.010695026 -0.15876072
1365004500.0 -0.018930096 -0.191259072
1380004000.0 -0.067615176 -0.161342688
1395003500.0 -0.115102 -0.112937792
1410003000.0 -0.122508728 -0.0542383
1425002500.0 -0.14021464 -0.005774816
1440002000.0 -0.0994536 0.054969052
1455001500.0 -0.059132432 0.114674872
1470001000.0 0.01770071 0.128754768
1485000500.0 0.057912432 0.145447488
1500000000.0 0.114015928 0.14241608
