! Created with skrf 1.8.0 (http://scikit-rf.org).
# Hz S RI R 50.0 
!freq ReS11 ImS11
50000.0 -0.8628173554525121 1.2196750650471233
15049500.0 0.42210461207513505 1.39001630627208
30049000.0 -0.6938649291930902 -1.1286435023939174
45048500.0 -2.1946285889934316 4.202383186918442
60048000.0 0.9703462227573892 0.4662171564339703
75047500.0 0.7844484334411942 2.0665304702569
90047000.0 0.05158804041448438 -0.6034230882824181
105046500.0 1.9901930433188648 0.7905953980696162
120046000.0 1.809634564685683 -0.06518609338979475
135045500.0 -2.568652904454478 -0.7431362552538626
150045000.0 1.5527577287478962 0.2192052417901405
165044500.0 -0.8625544964135818 -0.18845562335866675
180044000.0 -0.6025120406719271 -1.030102544899186
195043500.0 1.8368153280071082 -0.393860498031165
210043000.0 0.9617680960654743 0.38011150192933457
225042500.0 0.5632362465656425 0.2544672883278016
240042000.0 45.822132865214215 72.7665024259402
255041500.0 0.2944406122182962 1.1180271069357968
270041000.0 0.27064887007500543 0.4751665071325302
285040500.0 -0.9745871081299601 0.14413991443460872
300040000.0 -1.1056540764371314 0.8965704429285566
315039500.0 -0.8923893188590687 0.2105040712580599
330039000.0 1.7052948250739537 -0.7084056642014978
345038500.0 0.872593887161279 0.11571788033002907
360038000.0 -7.500324704036333 0.28414641612443464
375037500.0 -0.25827058431784305 1.0266949890544077
390037000.0 -2.3056524543497448 -0.6578085716735066
405036500.0 -1.2867225940055547 -0.017652416421113
420036000.0 0.20008293580412295 -0.3570067968074758
435035500.0 4.414909089365534 0.9718793900358129
450035000.0 -3.0112709015944166 1.7427249604975157
465034500.0 0.4650855424346571 0.7646170436815045
480034000.0 -0.5866933605109247 1.5360750876318556
495033500.0 -1.3346716119224182 3.663022896386864
510033000.0 -0.6503992324675729 -1.1835183974510712
525032500.0 -0.6081406730121839 -0.9004630220688784
540032000.0 -0.3348676722817536 5.42058979854313
555031500.0 2.3233652687458224 2.9953091451329157
570031000.0 -0.47506107446594165 -0.9827424077051774
585030500.0 1.197207055311558 0.7091671670540856
600030000.0 -0.7932937886724599 -0.4046648760087661
615029500.0 -3.7107622305577985 -2.7256507967068786
630029000.0 1.1900839142830981 -1.2506800713935915
645028500.0 -2.2144855096176985 2.0305516660302483
660028000.0 1.451916602616334 -2.0669669381076603
675027500.0 0.582920846811121 0.08761514528958153
690027000.0 1.6851745903064255 0.32580552610716285
705026500.0 1.6953219562273707 -5.955519250963031
720026000.0 -1.7760157251267874 -0.19798507964967166
735025500.0 0.4702797643231603 -0.263487290459595
750025000.0 3.1470895849555194 -1.0309761965012099
765024500.0 2.1418134287142143 1.0990046225509011
780024000.0 0.22729901784523612 -1.9372837676406747
795023500.0 1.595251865862471 -0.6163815581252994
810023000.0 -0.39974429291084407 0.8245222950389652
825022500.0 -1.1586672846268131 1.382333487185701
840022000.0 0.05865390944061499 2.3200081639820382
855021500.0 -3.4317607328669903 2.476560450199209
870021000.0 3.541220940029378 -3.644865184020659
885020500.0 -2.271391842791779 -1.4095529159321298
900020000.0 -1.7802551797203099 -3.2578342979753376
915019500.0 0.4235469382744923 1.014764484546514
930019000.0 -0.21411682687137754 0.30745333243145984
945018500.0 0.2381131318021652 -2.8836496959363056
960018000.0 0.2056414648088131 -1.957564251314177
975017500.0 1.3135114846894664 -2.8794517489894313
990017000.0 -0.3449581648919492 -2.370062421681395
1005016500.0 0.08001386845296969 -0.400993759171572
1020016000.0 -0.6049488747994803 0.4268480726611978
1035015500.0 4.464260286462505 -3.4964695823328475
1050015000.0 -0.30366743886422753 -1.9724979960894922
1065014500.0 0.9493914307662975 0.013887331706921573
1080014000.0 -0.10428873322893939 0.4450378217668089
1095013500.0 -0.347901834984588 0.24600281654441544
1110013000.0 -5.879654234121021 -0.25177574830834604
1125012500.0 -0.0018505059033213345 -0.2567428025928621
1140012000.0 -3.137035401531145 -2.058324161754172
1155011500.0 -3.6128768788560937 -1.1643375637439708
1170011000.0 -0.46863562291978544 -0.6841467721249231
1185010500.0 -0.8142987385014886 1.528159684839852
1200010000.0 -1.6225334023716635 3.940256096600058
1215009500.0 0.3608213342087095 -1.0210641036957266
1230009000.0 -0.8918344413383181 1.1197409322003693
1245008500.0 1.153881091463182 -1.4409421459031018
1260008000.0 0.8358601053543154 -1.911620619900249
1275007500.0 7.25098906998896 -2.1590268708995164
1290007000.0 -0.5748417858773084 1.049436428806138
1305006500.0 -0.8848172969915198 1.1797787470981835
1320006000.0 -0.7641021154366074 -2.0976504902305564
1335005500.0 0.8538347804540573 2.3533128089770843
1350005000.0 1.2916236043592095 0.6853809339178416
1365004500.0 -1.6506191869896238 0.8045902084180581
1380004000.0 -0.8024826331309107 0.07264890464471753
1395003500.0 -0.252917828439387 -1.2598438679097745
1410003000.0 -1.0877503866935774 0.22513221440901174
1425002500.0 0.2155939762232693 -0.34600727627102396
1440002000.0 1.0292849645050808 -0.8092336921148331
1455001500.0 1.8632665077297068 -0.14684371230859128
1470001000.0 -1.6800796349037257 -0.4841578101041755
1485000500.0 -0.14479256087213843 0.3614612641235304
1500000000.0 3.928818871643097 -4.9813473771759185
