! Created with skrf 1.8.0 (http://scikit-rf.org).
# Hz S RI R 50.0 
!freq ReS11 ImS11
50000.0 -8.431917975642747e-05 0.0005087044315358688
15049500.0 3.990757435061228e-05 -0.00010637363690410294
30049000.0 3.662044665813379e-06 -5.779741809827583e-05
45048500.0 -6.926400625605631e-05 -0.00036774228119998946
60048000.0 8.439870528780856e-06 4.136104247870703e-05
75047500.0 6.0584282666877916e-05 -0.00018904944289433977
90047000.0 -9.953491726724745e-05 1.4645099875953451e-08
105046500.0 6.943860191573761e-05 0.0001641159135527318
120046000.0 8.677450277699424e-05 -0.0001148639307120287
135045500.0 -0.0001844967154095205 -0.000357954644232489
150045000.0 1.4163781980253172e-05 1.497934445693426e-05
165044500.0 3.725617181677061e-06 3.1800061340303415e-05
180044000.0 -7.892756679264125e-05 1.8509433031657714e-05
195043500.0 0.00011561248899842718 3.9228150465848966e-05
210043000.0 -7.276895398065229e-05 2.6629570410410096e-07
225042500.0 5.8341039551678714e-05 -3.869422786181353e-05
240042000.0 -0.0009794397344518079 0.00314702810686997
255041500.0 1.6305440286700023e-05 -0.00010469614337419938
270041000.0 1.1414355289225702e-05 -8.6627914459357e-05
285040500.0 2.286388646648734e-06 -2.6493415686107726e-05
300040000.0 5.954812908467775e-05 -0.0002889381160287671
315039500.0 0.0002116321923733861 -5.403715768880041e-05
330039000.0 0.00025507595366663 0.0016726334365929154
345038500.0 -0.00025330786618269727 -2.8638563497534586e-05
360038000.0 -0.002458548942191761 -0.0021061343529497167
375037500.0 -0.0004053686372258038 -0.001123263670738936
390037000.0 0.001958855270062712 0.002465920524595986
405036500.0 0.0003243181409533062 5.623561841987888e-05
420036000.0 0.00044596754822490695 0.0002733410161007546
435035500.0 -0.00029060429351888517 0.004142834484246395
450035000.0 0.0005497600401759591 0.003126148325094584
465034500.0 -0.000979784814272158 0.00036689570566196636
480034000.0 0.0008392242042187927 0.0007891030132139421
495033500.0 -0.002745613677714799 -0.0026830735454121263
510033000.0 -0.0006926253051666064 -0.0012181925737664696
525032500.0 -0.0007210326470657187 0.0005724390439534767
540032000.0 0.0022725752255533696 0.008831430606744042
555031500.0 -0.0021910670787513298 -0.004321921949108872
570031000.0 -0.0007089729654797028 -0.0008921375163559841
585030500.0 -0.001090306359530989 0.0012733657293940532
600030000.0 -0.0005647567964593928 -0.0003822841987127946
615029500.0 -0.0034952121617806723 -0.0057192975559401844
630029000.0 0.0015792772763767633 -0.0007932808338466783
645028500.0 -0.004409079293006094 0.0019995621606265384
660028000.0 0.0007955111490395355 0.0013118949905481085
675027500.0 -0.0004958302991481119 -4.656111156259877e-05
690027000.0 0.0012577686979864913 0.0014939514624930875
705026500.0 0.011352309519671316 0.00700164731761355
720026000.0 0.0011903100322882324 -0.0014029584236434926
735025500.0 -0.000501242986857413 -0.00011086505506084262
750025000.0 0.0037226725363416315 -0.00013486238660295833
765024500.0 0.0021867755150862755 -0.0021582392999042674
780024000.0 0.015588110178128436 0.011047187120904344
795023500.0 -0.0011677603811799425 -0.0005913812518688577
810023000.0 0.0010474255450838054 -0.001174351734028218
825022500.0 0.0013809837813529814 -0.0005405952175144846
840022000.0 0.00022711927866249842 -0.002322988040601703
855021500.0 0.0009099723012838203 -0.005508572009378203
870021000.0 0.012335895035347915 0.010072590586556273
885020500.0 0.0028661645318957653 0.0025646421234264243
900020000.0 -0.018146710652127064 -0.009495883875946822
915019500.0 -0.006589186835594924 0.0021708064938660136
930019000.0 -0.003293123780886598 -0.0014371794342749242
945018500.0 -0.00354700518217252 0.019210700745759497
960018000.0 -0.013637377757520245 -0.0034013619470850296
975017500.0 -0.015353945326744185 -0.023753815997491202
990017000.0 0.010509057911774247 0.005145155920984432
1005016500.0 -1.4887381659110836e-05 -0.00200661954369939
1020016000.0 -0.005952847674448828 -0.00043422742829672624
1035015500.0 0.038883593139055275 0.02081778146979357
1050015000.0 -0.01762802528061439 0.00963163259910701
1065014500.0 -0.0005475769488140851 7.938717591831971e-05
1080014000.0 0.003565820009149022 0.001025348241869118
1095013500.0 -0.0030766139951712884 0.0014615223195433
1110013000.0 0.047503419826466275 -0.027173264617028726
1125012500.0 0.00421852808638804 -0.006775326484778451
1140012000.0 0.036192097617258064 0.011767195235970621
1155011500.0 -0.033901899518647784 0.02184247501287262
1170011000.0 0.005454530582671102 -0.006079927966818246
1185010500.0 -0.012138302777850763 0.004643509175228421
1200010000.0 0.008174353849172943 -0.080933681295098
1215009500.0 0.019511459739095804 -0.001976449142492982
1230009000.0 -0.015255154853983552 0.0009692567078707362
1245008500.0 -0.0201616469994473 -0.016493396845219062
1260008000.0 -0.02102532647755383 0.019380441088546967
1275007500.0 0.08271546676439744 0.0012164092217642009
1290007000.0 0.0026760422665941734 -0.014210023987868577
1305006500.0 -0.029387043158909262 0.00466954117753682
1320006000.0 -0.07079757104704891 -0.049534821006619434
1335005500.0 0.05705450405431222 -0.04529549921756675
1350005000.0 -0.009572609731924395 0.01135913199319909
1365004500.0 0.010262052306423502 0.04342616469906317
1380004000.0 0.0058499537621248075 0.005626025719482474
1395003500.0 0.032980079889946716 -0.013059321656436383
1410003000.0 -0.008493077236841477 0.0030325995408537116
1425002500.0 0.005991559033612797 0.01552769986473677
1440002000.0 -0.0003056556304419256 -0.02200936215028174
1455001500.0 0.03039683889211025 0.006726805099049736
1470001000.0 -0.04475274362107062 0.015397796182130103
1485000500.0 0.019696885363595755 0.009829140119340392
1500000000.0 0.012538624638239484 0.131481214286511
