! Created with skrf 1.8.0 (http://scikit-rf.org).
# Hz S RI R 50.0 
!freq ReS11 ImS11
50000.0 0.12256946826879993 -3.1656204706590603
15049500.0 2.404993037970805 2.775162344829971
30049000.0 -1.6827319757030321 -0.9953590078995268
45048500.0 0.020798939426376083 -0.6112712576427748
60048000.0 -0.8542611602852552 -3.616392705499012
75047500.0 -2.5805898572933965 3.252547576015756
90047000.0 1.2145502278866853 -0.5205545683949768
105046500.0 0.5353892593653097 -1.4731591444943153
120046000.0 -1.3621158536015143 0.12764146968205786
135045500.0 -5.177855274959022 6.720208197885498
150045000.0 -0.30552297381519467 -1.4489335226786377
165044500.0 -0.09790488484193276 -0.9720541771904937
180044000.0 0.026734332994684498 -0.7536919376789267
195043500.0 1.7214813330263918 1.582236247743411
210043000.0 -1.1007151078825157 -3.1722954631497218
225042500.0 -0.5513872362837818 -0.41784362235539263
240042000.0 -0.03864532294841459 1.8681778745006414
255041500.0 0.31308906247221274 0.8242754274631293
270041000.0 1.1998959702264989 -2.614439608163876
285040500.0 -0.7879386332239744 0.871622239068879
300040000.0 2.231350784416137 -0.42984341698944595
315039500.0 1.2596480942868138 0.3057862813424075
330039000.0 0.7455037277243962 -0.5812449537685533
345038500.0 3.1501487041664142 0.4313506355342792
360038000.0 -1.1076532729532913 0.7343658793796028
375037500.0 -0.9533110511667079 -0.2779906364571087
390037000.0 1.1303832006344883 0.7599806235524503
405036500.0 0.15065018722512874 -0.6775423951548056
420036000.0 -0.08477267359772932 1.0230387439048434
435035500.0 -4.0601340255914335 -0.8732807459908754
450035000.0 -1.3972471837321172 1.8763696420796145
465034500.0 -1.9981899541989425 2.8440100614933708
480034000.0 -0.5077971155296346 0.6565340420616445
495033500.0 0.5276325249592239 -0.351572635792092
510033000.0 -0.6242951182084561 2.735519723520728
525032500.0 0.5404000636671767 1.5543966678748669
540032000.0 1.1211872158040714 -0.8276971051594959
555031500.0 -0.544763539472191 0.7911207225311485
570031000.0 2.870950742517324 -1.4819098875100782
585030500.0 -1.2175449385519523 -0.05650221881217551
600030000.0 -0.656420577926389 1.1213359152553855
615029500.0 -1.1599931651700641 4.0489709552544495
630029000.0 -0.787151322965865 0.28711796243591325
645028500.0 3.4914565580314725 1.9658345010808516
660028000.0 4.2974910981997825 2.2360364004011473
675027500.0 0.19819939030633277 1.0759750488807411
690027000.0 1.9166878732636168 3.1369630780143605
705026500.0 4.359571286263726 -3.7975340025532076
720026000.0 -1.0049957570866952 -1.0271179832029638
735025500.0 -0.6707258839926742 -1.6575868383731402
750025000.0 2.3992756460459046 4.408014476861416
765024500.0 2.349533381283977 0.6243837444764851
780024000.0 -7.804086747562636 1.1090036893099149
795023500.0 -0.12573723734887002 -0.33074766897212404
810023000.0 3.567030828887181 -2.2331241006664344
825022500.0 1.1878480120117376 0.5441570619268562
840022000.0 -2.0386299167786284 1.6997554644313064
855021500.0 10.166305733430704 -8.332445391221292
870021000.0 -0.05548939141826138 0.09403793279600982
885020500.0 -1.075300679992136 0.7060497865021025
900020000.0 2.4350940884803274 -1.2917647888715242
915019500.0 -1.0367157634752016 0.5463361210088836
930019000.0 -0.68798631622595 -0.6200436518449497
945018500.0 5.058861928138054 1.1959068532226829
960018000.0 0.29759253762882004 -0.38377964691972444
975017500.0 -0.2214444651314702 -2.3961648560580153
990017000.0 -5.696182013276671 -1.7433118071349867
1005016500.0 2.3108177586213166 -2.4906315206306853
1020016000.0 1.3227215402937256 0.9251264542924478
1035015500.0 1.1163160113612254 -0.6545362881435817
1050015000.0 2.011190981340404 0.24398281296120453
1065014500.0 -0.7741973666192735 -1.9479814632027477
1080014000.0 11.003453992338375 4.866711307994045
1095013500.0 0.7495444295407462 -0.1212477919506748
1110013000.0 0.10239622676011916 0.8485278671926741
1125012500.0 -0.3824073031264711 -3.2213115131099523
1140012000.0 -0.06424987506209139 -0.7608427729119485
1155011500.0 5.081820008577649 0.26825778682284995
1170011000.0 0.47361435653973205 -0.9601734731961841
1185010500.0 1.0909601431758011 0.27917457798845
1200010000.0 -0.9531053216212445 1.4639914691097975
1215009500.0 -0.0340609266888227 1.0696751398589532
1230009000.0 1.3538707650182091 1.5411936577271035
1245008500.0 -0.6074719462866526 3.77856658618328
1260008000.0 1.4102154303859138 1.7263116953133706
1275007500.0 0.8130407617485332 -0.06192079311666129
1290007000.0 -2.121056304899189 -2.6856180534213334
1305006500.0 -0.09070285871876055 -0.9289094951456399
1320006000.0 1.0334733908962759 3.10387911914546
1335005500.0 -0.5878025099838072 -2.7696849001591066
1350005000.0 0.37524585660619975 0.806082946139849
1365004500.0 0.7824483800497813 0.3571995023865048
1380004000.0 -1.4795911969013802 -1.4723086657979143
1395003500.0 -0.38060719555181655 0.938645634551581
1410003000.0 -0.1429643891326053 -0.8396202322718375
1425002500.0 -1.0545121966536097 -0.1659131237917666
1440002000.0 -0.1759148981617749 1.2269454366947392
1455001500.0 0.43127424100726613 0.6837800447737115
1470001000.0 -1.7639034529935436 0.3041041170560599
1485000500.0 1.3968279826088308 -0.8965221669916222
1500000000.0 -1.4752942492561734 1.7534219060142757
