! Created with skrf 1.8.0 (http://scikit-rf.org).
# Hz S RI R 50.0 
!freq ReS11 ImS11 ReS21 ImS21 ReS12 ImS12 ReS22 ImS22
50000.0 0.0 0.0 -6.2471e-05 9.0738e-05 0.0 0.0 0.0 0.0
15049500.0 0.0 0.0 -1.5808e-05 2.6433e-05 0.0 0.0 0.0 0.0
30049000.0 0.0 0.0 -5.5543e-05 1.174e-06 0.0 0.0 0.0 0.0
45048500.0 0.0 0.0 -5.0657e-05 -9.639e-06 0.0 0.0 0.0 0.0
60048000.0 0.0 0.0 -2.3485e-05 1.9336e-05 0.0 0.0 0.0 0.0
75047500.0 0.0 0.0 -5.4152e-05 -4.8038e-05 0.0 0.0 0.0 0.0
90047000.0 0.0 0.0 -4.1924e-05 2.8798e-05 0.0 0.0 0.0 0.0
105046500.0 0.0 0.0 -2.6652e-05 -2.0081e-05 0.0 0.0 0.0 0.0
120046000.0 0.0 0.0 -6.8426e-05 -2.4163e-05 0.0 0.0 0.0 0.0
135045500.0 0.0 0.0 -6.8665e-05 3.8593e-05 0.0 0.0 0.0 0.0
150045000.0 0.0 0.0 -1.4121e-05 3.982e-05 0.0 0.0 0.0 0.0
165044500.0 0.0 0.0 -3.3521e-05 3.4505e-05 0.0 0.0 0.0 0.0
180044000.0 0.0 0.0 -8.499e-06 1.0957e-05 0.0 0.0 0.0 0.0
195043500.0 0.0 0.0 -4.4046e-05 5.0871e-05 0.0 0.0 0.0 0.0
210043000.0 0.0 0.0 -2.089e-06 3.5375e-05 0.0 0.0 0.0 0.0
225042500.0 0.0 0.0 -2.9292e-05 4.2983e-05 0.0 0.0 0.0 0.0
240042000.0 0.0 0.0 6.577e-06 3.1319e-05 0.0 0.0 0.0 0.0
255041500.0 0.0 0.0 -5.841e-06 2.0497e-05 0.0 0.0 0.0 0.0
270041000.0 0.0 0.0 3.5497e-05 6.6465e-05 0.0 0.0 0.0 0.0
285040500.0 0.0 0.0 2.0828e-05 -2.1749e-05 0.0 0.0 0.0 0.0
300040000.0 0.0 0.0 0.000179104 0.000337915 0.0 0.0 0.0 0.0
315039500.0 0.0 0.0 0.000225724 0.000148828 0.0 0.0 0.0 0.0
330039000.0 0.0 0.0 0.000255872 0.000127011 0.0 0.0 0.0 0.0
345038500.0 0.0 0.0 0.000326004 6.5706e-05 0.0 0.0 0.0 0.0
360038000.0 0.0 0.0 0.000326342 -0.000117238 0.0 0.0 0.0 0.0
375037500.0 0.0 0.0 -4.2518e-05 -0.000131144 0.0 0.0 0.0 0.0
390037000.0 0.0 0.0 0.000412538 7.566e-06 0.0 0.0 0.0 0.0
405036500.0 0.0 0.0 0.000175395 0.000450827 0.0 0.0 0.0 0.0
420036000.0 0.0 0.0 0.00053815 -1.2884e-05 0.0 0.0 0.0 0.0
435035500.0 0.0 0.0 8.5315e-05 0.000471711 0.0 0.0 0.0 0.0
450035000.0 0.0 0.0 0.000384079 -4.5554e-05 0.0 0.0 0.0 0.0
465034500.0 0.0 0.0 0.000651787 0.000249098 0.0 0.0 0.0 0.0
480034000.0 0.0 0.0 0.000788043 7.9337e-05 0.0 0.0 0.0 0.0
495033500.0 0.0 0.0 -0.000140156 -0.000131419 0.0 0.0 0.0 0.0
510033000.0 0.0 0.0 0.000548105 4.0182e-05 0.0 0.0 0.0 0.0
525032500.0 0.0 0.0 0.000324019 -0.000491181 0.0 0.0 0.0 0.0
540032000.0 0.0 0.0 0.000389086 2.5848e-05 0.0 0.0 0.0 0.0
555031500.0 0.0 0.0 0.000449038 -0.000604229 0.0 0.0 0.0 0.0
570031000.0 0.0 0.0 0.000347093 -0.000226898 0.0 0.0 0.0 0.0
585030500.0 0.0 0.0 0.000219259 -0.000451175 0.0 0.0 0.0 0.0
600030000.0 0.0 0.0 -0.000422602 -0.000294818 0.0 0.0 0.0 0.0
615029500.0 0.0 0.0 -0.000244801 -0.001010779 0.0 0.0 0.0 0.0
630029000.0 0.0 0.0 -0.000102323 -0.000731653 0.0 0.0 0.0 0.0
645028500.0 0.0 0.0 6.9123e-05 7.5114e-05 0.0 0.0 0.0 0.0
660028000.0 0.0 0.0 5.0217e-05 -0.000564886 0.0 0.0 0.0 0.0
675027500.0 0.0 0.0 -0.000263667 -0.000140752 0.0 0.0 0.0 0.0
690027000.0 0.0 0.0 -7.7964e-05 -0.000603597 0.0 0.0 0.0 0.0
705026500.0 0.0 0.0 -0.000201487 -0.000830558 0.0 0.0 0.0 0.0
720026000.0 0.0 0.0 -4.1977e-05 -0.000316453 0.0 0.0 0.0 0.0
735025500.0 0.0 0.0 0.000158496 -0.000252936 0.0 0.0 0.0 0.0
750025000.0 0.0 0.0 -0.000160619 -0.000451274 0.0 0.0 0.0 0.0
765024500.0 0.0 0.0 -0.000100067 -0.000427332 0.0 0.0 0.0 0.0
780024000.0 0.0 0.0 5.45e-07 -0.000122744 0.0 0.0 0.0 0.0
795023500.0 0.0 0.0 -0.000561444 -0.000410268 0.0 0.0 0.0 0.0
810023000.0 0.0 0.0 -0.000264084 -0.00058688 0.0 0.0 0.0 0.0
825022500.0 0.0 0.0 -0.000117206 -0.00020879 0.0 0.0 0.0 0.0
840022000.0 0.0 0.0 -0.000569398 -0.000472806 0.0 0.0 0.0 0.0
855021500.0 0.0 0.0 0.000301301 -0.000791941 0.0 0.0 0.0 0.0
870021000.0 0.0 0.0 -2.4703e-05 -0.000519832 0.0 0.0 0.0 0.0
885020500.0 0.0 0.0 7.451e-06 -0.000822003 0.0 0.0 0.0 0.0
900020000.0 0.0 0.0 -0.000141803 -0.002437598 0.0 0.0 0.0 0.0
915019500.0 0.0 0.0 -0.000312327 -0.000294802 0.0 0.0 0.0 0.0
930019000.0 0.0 0.0 0.000273128 6.351e-05 0.0 0.0 0.0 0.0
945018500.0 0.0 0.0 0.001359668 0.000394626 0.0 0.0 0.0 0.0
960018000.0 0.0 0.0 -0.001863235 -0.000975371 0.0 0.0 0.0 0.0
975017500.0 0.0 0.0 0.001046921 -0.002760384 0.0 0.0 0.0 0.0
990017000.0 0.0 0.0 0.000845791 -0.001342907 0.0 0.0 0.0 0.0
1005016500.0 0.0 0.0 -0.001015754 -0.00210453 0.0 0.0 0.0 0.0
1020016000.0 0.0 0.0 -0.00091397 -0.000851938 0.0 0.0 0.0 0.0
1035015500.0 0.0 0.0 0.001529838 -0.001343265 0.0 0.0 0.0 0.0
1050015000.0 0.0 0.0 -0.00263981 -0.001245036 0.0 0.0 0.0 0.0
1065014500.0 0.0 0.0 -0.000752431 -0.002980701 0.0 0.0 0.0 0.0
1080014000.0 0.0 0.0 -0.000609805 -0.002380619 0.0 0.0 0.0 0.0
1095013500.0 0.0 0.0 -0.000465 -0.002149073 0.0 0.0 0.0 0.0
1110013000.0 0.0 0.0 -0.000810728 -0.003817215 0.0 0.0 0.0 0.0
1125012500.0 0.0 0.0 -0.001714879 -0.003716846 0.0 0.0 0.0 0.0
1140012000.0 0.0 0.0 -0.003384032 0.003494474 0.0 0.0 0.0 0.0
1155011500.0 0.0 0.0 -0.000794473 0.001775774 0.0 0.0 0.0 0.0
1170011000.0 0.0 0.0 -0.001650903 0.000981238 0.0 0.0 0.0 0.0
1185010500.0 0.0 0.0 0.000410721 0.004294295 0.0 0.0 0.0 0.0
1200010000.0 0.0 0.0 0.000918144 -0.003197374 0.0 0.0 0.0 0.0
1215009500.0 0.0 0.0 0.001449343 0.004095994 0.0 0.0 0.0 0.0
1230009000.0 0.0 0.0 8.4911e-05 -0.00365859 0.0 0.0 0.0 0.0
1245008500.0 0.0 0.0 -0.004028672 0.002027391 0.0 0.0 0.0 0.0
1260008000.0 0.0 0.0 0.000691628 0.003489484 0.0 0.0 0.0 0.0
1275007500.0 0.0 0.0 -0.002334848 -0.000180556 0.0 0.0 0.0 0.0
1290007000.0 0.0 0.0 -0.000961505 0.006190066 0.0 0.0 0.0 0.0
1305006500.0 0.0 0.0 0.003179343 0.00373143 0.0 0.0 0.0 0.0
1320006000.0 0.0 0.0 -0.008267229 0.00024422 0.0 0.0 0.0 0.0
1335005500.0 0.0 0.0 -0.002125514 -0.000706956 0.0 0.0 0.0 0.0
1350005000.0 0.0 0.0 -0.000992885 0.01003194 0.0 0.0 0.0 0.0
1365004500.0 0.0 0.0 -0.003844861 -0.004439175 0.0 0.0 0.0 0.0
1380004000.0 0.0 0.0 -0.007722231 -0.003085739 0.0 0.0 0.0 0.0
1395003500.0 0.0 0.0 0.001812318 0.002062291 0.0 0.0 0.0 0.0
1410003000.0 0.0 0.0 0.001506386 0.005635058 0.0 0.0 0.0 0.0
1425002500.0 0.0 0.0 0.010727596 0.016685522 0.0 0.0 0.0 0.0
1440002000.0 0.0 0.0 -0.01001374 -0.008935128 0.0 0.0 0.0 0.0
1455001500.0 0.0 0.0 0.004100705 0.011114236 0.0 0.0 0.0 0.0
1470001000.0 0.0 0.0 0.002130636 0.00685238 0.0 0.0 0.0 0.0
1485000500.0 0.0 0.0 0.003518348 0.004960398 0.0 0.0 0.0 0.0
1500000000.0 0.0 0.0 0.025659622 0.004122161 0.0 0.0 0.0 0.0
