! Created with skrf 1.8.0 (http://scikit-rf.org).
# Hz S RI R 50.0 
!freq ReS11 ImS11 ReS21 ImS21 ReS12 ImS12 ReS22 ImS22
50000.0 0.0 0.0 -6.0569e-05 6.3515e-05 0.0 0.0 0.0 0.0
15049500.0 0.0 0.0 -1.118e-05 -2.3055e-05 0.0 0.0 0.0 0.0
30049000.0 0.0 0.0 -2.3256e-05 9.566e-06 0.0 0.0 0.0 0.0
45048500.0 0.0 0.0 -4.0897e-05 -1.86e-07 0.0 0.0 0.0 0.0
60048000.0 0.0 0.0 -6.8539e-05 -2.626e-05 0.0 0.0 0.0 0.0
75047500.0 0.0 0.0 -6.1137e-05 -6.3178e-05 0.0 0.0 0.0 0.0
90047000.0 0.0 0.0 -7.3696e-05 -1.6561e-05 0.0 0.0 0.0 0.0
105046500.0 0.0 0.0 -9.4732e-05 -2.1675e-05 0.0 0.0 0.0 0.0
120046000.0 0.0 0.0 -6.6129e-05 -1.3799e-05 0.0 0.0 0.0 0.0
135045500.0 0.0 0.0 -3.335e-05 4.615e-05 0.0 0.0 0.0 0.0
150045000.0 0.0 0.0 -3.286e-05 7.507e-06 0.0 0.0 0.0 0.0
165044500.0 0.0 0.0 -2.9037e-05 7.1286e-05 0.0 0.0 0.0 0.0
180044000.0 0.0 0.0 2.887e-06 2.4743e-05 0.0 0.0 0.0 0.0
195043500.0 0.0 0.0 3.135e-06 1.7574e-05 0.0 0.0 0.0 0.0
210043000.0 0.0 0.0 -1.2179e-05 3.4779e-05 0.0 0.0 0.0 0.0
225042500.0 0.0 0.0 -3.497e-06 3.1326e-05 0.0 0.0 0.0 0.0
240042000.0 0.0 0.0 -6.898e-06 3.5082e-05 0.0 0.0 0.0 0.0
255041500.0 0.0 0.0 1.1871e-05 4.3784e-05 0.0 0.0 0.0 0.0
270041000.0 0.0 0.0 3.1584e-05 4.3613e-05 0.0 0.0 0.0 0.0
285040500.0 0.0 0.0 2.882e-06 4.359e-05 0.0 0.0 0.0 0.0
300040000.0 0.0 0.0 0.000101556 9.1083e-05 0.0 0.0 0.0 0.0
315039500.0 0.0 0.0 0.000202776 1.3516e-05 0.0 0.0 0.0 0.0
330039000.0 0.0 0.0 0.000118482 -0.000145135 0.0 0.0 0.0 0.0
345038500.0 0.0 0.0 0.000285205 1.3483e-05 0.0 0.0 0.0 0.0
360038000.0 0.0 0.0 -9.786e-05 0.000125741 0.0 0.0 0.0 0.0
375037500.0 0.0 0.0 0.000114011 0.00015688 0.0 0.0 0.0 0.0
390037000.0 0.0 0.0 0.000295585 0.000165468 0.0 0.0 0.0 0.0
405036500.0 0.0 0.0 8.4841e-05 -0.000138278 0.0 0.0 0.0 0.0
420036000.0 0.0 0.0 7.8499e-05 -0.000124999 0.0 0.0 0.0 0.0
435035500.0 0.0 0.0 0.000169246 7.0658e-05 0.0 0.0 0.0 0.0
450035000.0 0.0 0.0 0.000474289 0.000173394 0.0 0.0 0.0 0.0
465034500.0 0.0 0.0 0.000748998 -0.00012111 0.0 0.0 0.0 0.0
480034000.0 0.0 0.0 0.000309364 -0.000216597 0.0 0.0 0.0 0.0
495033500.0 0.0 0.0 0.000154685 -0.000712348 0.0 0.0 0.0 0.0
510033000.0 0.0 0.0 0.000319001 -0.000253935 0.0 0.0 0.0 0.0
525032500.0 0.0 0.0 0.000269502 -4.947e-05 0.0 0.0 0.0 0.0
540032000.0 0.0 0.0 0.000406392 -0.000414439 0.0 0.0 0.0 0.0
555031500.0 0.0 0.0 6.7507e-05 -0.000346543 0.0 0.0 0.0 0.0
570031000.0 0.0 0.0 0.000313241 -0.000278974 0.0 0.0 0.0 0.0
585030500.0 0.0 0.0 -2.6124e-05 -0.000276723 0.0 0.0 0.0 0.0
600030000.0 0.0 0.0 0.00065098 -0.000562755 0.0 0.0 0.0 0.0
615029500.0 0.0 0.0 0.000258982 -0.000271947 0.0 0.0 0.0 0.0
630029000.0 0.0 0.0 2.9772e-05 -0.00070385 0.0 0.0 0.0 0.0
645028500.0 0.0 0.0 -0.000169835 -9.4682e-05 0.0 0.0 0.0 0.0
660028000.0 0.0 0.0 0.000333052 -0.00020405 0.0 0.0 0.0 0.0
675027500.0 0.0 0.0 0.000731133 -0.000409276 0.0 0.0 0.0 0.0
690027000.0 0.0 0.0 -0.00028782 -0.000308659 0.0 0.0 0.0 0.0
705026500.0 0.0 0.0 -5.2284e-05 -0.000236622 0.0 0.0 0.0 0.0
720026000.0 0.0 0.0 -0.000480517 -0.000969345 0.0 0.0 0.0 0.0
735025500.0 0.0 0.0 -0.00029512 -0.000513685 0.0 0.0 0.0 0.0
750025000.0 0.0 0.0 -0.000181208 -0.000278006 0.0 0.0 0.0 0.0
765024500.0 0.0 0.0 -0.000211882 -0.000802535 0.0 0.0 0.0 0.0
780024000.0 0.0 0.0 -0.00024275 -0.000565407 0.0 0.0 0.0 0.0
795023500.0 0.0 0.0 2.9141e-05 -0.000705469 0.0 0.0 0.0 0.0
810023000.0 0.0 0.0 -0.000179748 -0.000280652 0.0 0.0 0.0 0.0
825022500.0 0.0 0.0 4.6201e-05 -0.000761245 0.0 0.0 0.0 0.0
840022000.0 0.0 0.0 -0.000461617 -0.0006114 0.0 0.0 0.0 0.0
855021500.0 0.0 0.0 0.000136341 -0.000218276 0.0 0.0 0.0 0.0
870021000.0 0.0 0.0 -0.000139498 -0.000423278 0.0 0.0 0.0 0.0
885020500.0 0.0 0.0 -0.000186487 -3.2622e-05 0.0 0.0 0.0 0.0
900020000.0 0.0 0.0 -0.00191009 0.001859085 0.0 0.0 0.0 0.0
915019500.0 0.0 0.0 -0.000227288 8.15e-05 0.0 0.0 0.0 0.0
930019000.0 0.0 0.0 0.000342169 -0.000432232 0.0 0.0 0.0 0.0
945018500.0 0.0 0.0 0.000260243 -0.001687047 0.0 0.0 0.0 0.0
960018000.0 0.0 0.0 0.00106551 -0.001725986 0.0 0.0 0.0 0.0
975017500.0 0.0 0.0 -0.00103075 -0.001051624 0.0 0.0 0.0 0.0
990017000.0 0.0 0.0 -0.000811812 -0.002310836 0.0 0.0 0.0 0.0
1005016500.0 0.0 0.0 -0.001877326 0.000267619 0.0 0.0 0.0 0.0
1020016000.0 0.0 0.0 -0.000108979 -0.000426273 0.0 0.0 0.0 0.0
1035015500.0 0.0 0.0 0.002700177 -0.0009747 0.0 0.0 0.0 0.0
1050015000.0 0.0 0.0 -0.000723015 -0.000647993 0.0 0.0 0.0 0.0
1065014500.0 0.0 0.0 -0.000865262 -0.003208778 0.0 0.0 0.0 0.0
1080014000.0 0.0 0.0 -0.00215563 -0.004167413 0.0 0.0 0.0 0.0
1095013500.0 0.0 0.0 0.000615962 -0.001752658 0.0 0.0 0.0 0.0
1110013000.0 0.0 0.0 0.000180653 -0.004413247 0.0 0.0 0.0 0.0
1125012500.0 0.0 0.0 -0.004069073 -0.000447069 0.0 0.0 0.0 0.0
1140012000.0 0.0 0.0 0.002276866 -0.002714011 0.0 0.0 0.0 0.0
1155011500.0 0.0 0.0 -0.000529271 8.7408e-05 0.0 0.0 0.0 0.0
1170011000.0 0.0 0.0 -0.001669542 -0.001336361 0.0 0.0 0.0 0.0
1185010500.0 0.0 0.0 -0.000259021 -0.000848517 0.0 0.0 0.0 0.0
1200010000.0 0.0 0.0 0.002532032 0.000821246 0.0 0.0 0.0 0.0
1215009500.0 0.0 0.0 0.004735741 -0.000797435 0.0 0.0 0.0 0.0
1230009000.0 0.0 0.0 0.001509294 -0.000728131 0.0 0.0 0.0 0.0
1245008500.0 0.0 0.0 -0.001569368 -0.002516063 0.0 0.0 0.0 0.0
1260008000.0 0.0 0.0 0.006667504 0.004686997 0.0 0.0 0.0 0.0
1275007500.0 0.0 0.0 -0.002452072 -0.001225575 0.0 0.0 0.0 0.0
1290007000.0 0.0 0.0 -0.000265578 -0.004300889 0.0 0.0 0.0 0.0
1305006500.0 0.0 0.0 -2.2387e-05 -0.000596935 0.0 0.0 0.0 0.0
1320006000.0 0.0 0.0 0.004217528 0.002702716 0.0 0.0 0.0 0.0
1335005500.0 0.0 0.0 0.005765064 0.005061345 0.0 0.0 0.0 0.0
1350005000.0 0.0 0.0 0.001913392 -0.006361158 0.0 0.0 0.0 0.0
1365004500.0 0.0 0.0 0.001453148 -0.007742938 0.0 0.0 0.0 0.0
1380004000.0 0.0 0.0 0.010163534 -0.007186685 0.0 0.0 0.0 0.0
1395003500.0 0.0 0.0 0.000402015 -0.005110716 0.0 0.0 0.0 0.0
1410003000.0 0.0 0.0 0.005481312 0.004208006 0.0 0.0 0.0 0.0
1425002500.0 0.0 0.0 0.004890605 0.01426378 0.0 0.0 0.0 0.0
1440002000.0 0.0 0.0 -0.003613023 0.004898196 0.0 0.0 0.0 0.0
1455001500.0 0.0 0.0 0.007307119 0.013651628 0.0 0.0 0.0 0.0
1470001000.0 0.0 0.0 0.009856808 -0.000388791 0.0 0.0 0.0 0.0
1485000500.0 0.0 0.0 0.011541952 0.009510922 0.0 0.0 0.0 0.0
1500000000.0 0.0 0.0 0.000327277 -0.004305697 0.0 0.0 0.0 0.0
