! Created with skrf 1.8.0 (http://scikit-rf.org).
# Hz S RI R 50.0 
!freq ReS11 ImS11 ReS21 ImS21 ReS12 ImS12 ReS22 ImS22
50000.0 0.0 0.0 1.5552e-05 1.2295e-05 0.0 0.0 0.0 0.0
15049500.0 0.0 0.0 -3.7584e-05 -1.4278e-05 0.0 0.0 0.0 0.0
30049000.0 0.0 0.0 -3.9861e-05 -1.6941e-05 0.0 0.0 0.0 0.0
45048500.0 0.0 0.0 -2.7649e-05 -1.3706e-05 0.0 0.0 0.0 0.0
60048000.0 0.0 0.0 -7.4901e-05 -1.0186e-05 0.0 0.0 0.0 0.0
75047500.0 0.0 0.0 -5.0641e-05 -4.1264e-05 0.0 0.0 0.0 0.0
90047000.0 0.0 0.0 -5.6407e-05 5.933e-06 0.0 0.0 0.0 0.0
105046500.0 0.0 0.0 -7.6236e-05 -1.9399e-05 0.0 0.0 0.0 0.0
120046000.0 0.0 0.0 -4.6544e-05 3.1843e-05 0.0 0.0 0.0 0.0
135045500.0 0.0 0.0 -4.8089e-05 2.0214e-05 0.0 0.0 0.0 0.0
150045000.0 0.0 0.0 -4.5149e-05 3.6073e-05 0.0 0.0 0.0 0.0
165044500.0 0.0 0.0 1.3598e-05 7.3896e-05 0.0 0.0 0.0 0.0
180044000.0 0.0 0.0 1.6721e-05 1.3819e-05 0.0 0.0 0.0 0.0
195043500.0 0.0 0.0 -1.0279e-05 1.1692e-05 0.0 0.0 0.0 0.0
210043000.0 0.0 0.0 -1.9608e-05 2.5997e-05 0.0 0.0 0.0 0.0
225042500.0 0.0 0.0 1.5913e-05 5.1427e-05 0.0 0.0 0.0 0.0
240042000.0 0.0 0.0 -5.18e-06 6.7673e-05 0.0 0.0 0.0 0.0
255041500.0 0.0 0.0 -1.6363e-05 3.524e-05 0.0 0.0 0.0 0.0
270041000.0 0.0 0.0 -8.904e-06 1.4887e-05 0.0 0.0 0.0 0.0
285040500.0 0.0 0.0 5.511e-05 3.545e-06 0.0 0.0 0.0 0.0
300040000.0 0.0 0.0 0.000156443 -0.000208454 0.0 0.0 0.0 0.0
315039500.0 0.0 0.0 -9.8523e-05 0.000131852 0.0 0.0 0.0 0.0
330039000.0 0.0 0.0 0.000144625 0.000202483 0.0 0.0 0.0 0.0
345038500.0 0.0 0.0 0.00013724 9.6113e-05 0.0 0.0 0.0 0.0
360038000.0 0.0 0.0 0.000201974 -1.4408e-05 0.0 0.0 0.0 0.0
375037500.0 0.0 0.0 -0.000278665 0.000150432 0.0 0.0 0.0 0.0
390037000.0 0.0 0.0 -0.000136355 8.7937e-05 0.0 0.0 0.0 0.0
405036500.0 0.0 0.0 0.00039602 -0.000334143 0.0 0.0 0.0 0.0
420036000.0 0.0 0.0 0.000338117 -0.000135205 0.0 0.0 0.0 0.0
435035500.0 0.0 0.0 0.000226506 -0.000160418 0.0 0.0 0.0 0.0
450035000.0 0.0 0.0 0.000375686 0.00034115 0.0 0.0 0.0 0.0
465034500.0 0.0 0.0 0.000684997 -0.000373445 0.0 0.0 0.0 0.0
480034000.0 0.0 0.0 0.000161673 -8.4602e-05 0.0 0.0 0.0 0.0
495033500.0 0.0 0.0 -6.8606e-05 -0.000793124 0.0 0.0 0.0 0.0
510033000.0 0.0 0.0 8.273e-05 -0.00026879 0.0 0.0 0.0 0.0
525032500.0 0.0 0.0 0.000475883 -0.000461555 0.0 0.0 0.0 0.0
540032000.0 0.0 0.0 2.5975e-05 -8.3307e-05 0.0 0.0 0.0 0.0
555031500.0 0.0 0.0 7.9346e-05 0.000242537 0.0 0.0 0.0 0.0
570031000.0 0.0 0.0 0.000467546 -0.000356947 0.0 0.0 0.0 0.0
585030500.0 0.0 0.0 0.000503059 -0.000129506 0.0 0.0 0.0 0.0
600030000.0 0.0 0.0 -0.000256375 -0.000211826 0.0 0.0 0.0 0.0
615029500.0 0.0 0.0 -0.000233814 -0.000219952 0.0 0.0 0.0 0.0
630029000.0 0.0 0.0 4.7863e-05 -0.000581918 0.0 0.0 0.0 0.0
645028500.0 0.0 0.0 1.5159e-05 -0.000423008 0.0 0.0 0.0 0.0
660028000.0 0.0 0.0 0.00038744 -0.000555154 0.0 0.0 0.0 0.0
675027500.0 0.0 0.0 -0.000188202 -0.00043759 0.0 0.0 0.0 0.0
690027000.0 0.0 0.0 7.3859e-05 -0.000396391 0.0 0.0 0.0 0.0
705026500.0 0.0 0.0 -0.000230514 -0.00033123 0.0 0.0 0.0 0.0
720026000.0 0.0 0.0 4.7e-08 5.9194e-05 0.0 0.0 0.0 0.0
735025500.0 0.0 0.0 0.000424266 -0.000261419 0.0 0.0 0.0 0.0
750025000.0 0.0 0.0 8.1787e-05 -0.000248756 0.0 0.0 0.0 0.0
765024500.0 0.0 0.0 -0.00025697 -0.000607317 0.0 0.0 0.0 0.0
780024000.0 0.0 0.0 -0.000232481 -0.000494931 0.0 0.0 0.0 0.0
795023500.0 0.0 0.0 -0.00039701 -0.000352978 0.0 0.0 0.0 0.0
810023000.0 0.0 0.0 0.00024124 -0.000334052 0.0 0.0 0.0 0.0
825022500.0 0.0 0.0 2.4695e-05 -0.000511826 0.0 0.0 0.0 0.0
840022000.0 0.0 0.0 0.000285889 -0.00049469 0.0 0.0 0.0 0.0
855021500.0 0.0 0.0 -0.000370952 -0.000885902 0.0 0.0 0.0 0.0
870021000.0 0.0 0.0 0.000202115 -0.000392781 0.0 0.0 0.0 0.0
885020500.0 0.0 0.0 -0.000271549 -0.000757216 0.0 0.0 0.0 0.0
900020000.0 0.0 0.0 -3.2155e-05 -0.002086151 0.0 0.0 0.0 0.0
915019500.0 0.0 0.0 0.001058423 -0.001264664 0.0 0.0 0.0 0.0
930019000.0 0.0 0.0 2.6797e-05 -0.001596584 0.0 0.0 0.0 0.0
945018500.0 0.0 0.0 0.000216304 -6.9708e-05 0.0 0.0 0.0 0.0
960018000.0 0.0 0.0 -0.001509789 -0.002004493 0.0 0.0 0.0 0.0
975017500.0 0.0 0.0 0.001876277 -0.001229221 0.0 0.0 0.0 0.0
990017000.0 0.0 0.0 0.000691985 -0.00093959 0.0 0.0 0.0 0.0
1005016500.0 0.0 0.0 0.000541386 0.00017659 0.0 0.0 0.0 0.0
1020016000.0 0.0 0.0 0.002650152 -0.002645178 0.0 0.0 0.0 0.0
1035015500.0 0.0 0.0 -0.000196037 -0.00121705 0.0 0.0 0.0 0.0
1050015000.0 0.0 0.0 -0.001256577 -0.000183975 0.0 0.0 0.0 0.0
1065014500.0 0.0 0.0 -0.000235523 -0.000502983 0.0 0.0 0.0 0.0
1080014000.0 0.0 0.0 -0.002574996 -0.003419176 0.0 0.0 0.0 0.0
1095013500.0 0.0 0.0 -0.000403501 -0.000189001 0.0 0.0 0.0 0.0
1110013000.0 0.0 0.0 -0.000835972 -0.001713213 0.0 0.0 0.0 0.0
1125012500.0 0.0 0.0 -0.001003181 -0.000512835 0.0 0.0 0.0 0.0
1140012000.0 0.0 0.0 -0.002196321 -0.002457467 0.0 0.0 0.0 0.0
1155011500.0 0.0 0.0 -0.00104129 0.004340978 0.0 0.0 0.0 0.0
1170011000.0 0.0 0.0 -0.002796264 0.002455016 0.0 0.0 0.0 0.0
1185010500.0 0.0 0.0 -0.001770344 0.004933016 0.0 0.0 0.0 0.0
1200010000.0 0.0 0.0 -0.000159198 -0.00280219 0.0 0.0 0.0 0.0
1215009500.0 0.0 0.0 -0.00101961 -0.004258092 0.0 0.0 0.0 0.0
1230009000.0 0.0 0.0 0.000229253 -0.000447406 0.0 0.0 0.0 0.0
1245008500.0 0.0 0.0 -0.000147126 0.002951051 0.0 0.0 0.0 0.0
1260008000.0 0.0 0.0 -0.001143679 -0.000583304 0.0 0.0 0.0 0.0
1275007500.0 0.0 0.0 -0.001186468 -0.000747878 0.0 0.0 0.0 0.0
1290007000.0 0.0 0.0 0.004308634 0.002231121 0.0 0.0 0.0 0.0
1305006500.0 0.0 0.0 0.004638288 -0.006098802 0.0 0.0 0.0 0.0
1320006000.0 0.0 0.0 0.007518097 0.001394667 0.0 0.0 0.0 0.0
1335005500.0 0.0 0.0 0.001698229 -0.007861255 0.0 0.0 0.0 0.0
1350005000.0 0.0 0.0 0.002979845 -3.8912e-05 0.0 0.0 0.0 0.0
1365004500.0 0.0 0.0 -0.002838115 0.003880642 0.0 0.0 0.0 0.0
1380004000.0 0.0 0.0 -0.001405333 -0.001535347 0.0 0.0 0.0 0.0
1395003500.0 0.0 0.0 0.007803755 -0.001427581 0.0 0.0 0.0 0.0
1410003000.0 0.0 0.0 0.004984537 0.012116764 0.0 0.0 0.0 0.0
1425002500.0 0.0 0.0 0.00792333 0.000914098 0.0 0.0 0.0 0.0
1440002000.0 0.0 0.0 -0.005407797 -0.005696063 0.0 0.0 0.0 0.0
1455001500.0 0.0 0.0 0.006537947 -0.00123065 0.0 0.0 0.0 0.0
1470001000.0 0.0 0.0 -0.00082302 -0.002105626 0.0 0.0 0.0 0.0
1485000500.0 0.0 0.0 0.007333271 -0.002424962 0.0 0.0 0.0 0.0
1500000000.0 0.0 0.0 0.006138251 0.005138072 0.0 0.0 0.0 0.0
