! Created with skrf 1.8.0 (http://scikit-rf.org).
# Hz S RI R 50.0 
!freq ReS11 ImS11
50000.0 0.996653696 0.00137295
15049500.0 0.939565248 0.360534432
30049000.0 0.749914048 0.672984384
45048500.0 0.461763936 0.892540416
60048000.0 0.10322612 1.013951064
75047500.0 -0.273432704 0.98852288
90047000.0 -0.619423104 0.820117632
105046500.0 -0.891430272 0.546347904
120046000.0 -1.04196894 0.18530672
135045500.0 -1.046379568 -0.210167824
150045000.0 -0.91530432 -0.586251456
165044500.0 -0.64878208 -0.885125568
180044000.0 -0.314520672 -1.0446074
195043500.0 0.064627296 -1.101914048
210043000.0 0.434377632 -1.022243262
225042500.0 0.752676096 -0.8214368
240042000.0 0.995601856 -0.540653248
255041500.0 1.136925696 -0.187844736
270041000.0 1.15176296 0.221797264
285040500.0 1.023409962 0.632776256
300040000.0 0.688110976 0.960219968
315039500.0 0.318644192 1.19061112
330039000.0 -0.13763696 1.255658992
345038500.0 -0.595902784 1.142503264
360038000.0 -0.967082368 0.872056704
375037500.0 -1.25617432 0.477326912
390037000.0 -1.377950784 -0.005383789
405036500.0 -1.290940416 -0.51874064
420036000.0 -1.033152818 -0.969278592
435035500.0 -0.63136288 -1.273903264
450035000.0 -0.161606528 -1.391448736
465034500.0 0.298863776 -1.380171904
480034000.0 0.727240384 -1.212454912
495033500.0 1.077934504 -0.916791104
510033000.0 1.32271696 -0.527652736
525032500.0 1.412061216 -0.073631152
540032000.0 1.363481984 0.38210784
555031500.0 1.158731584 0.800679488
570031000.0 0.814308608 1.116495848
585030500.0 0.391349664 1.287685856
600030000.0 -0.050413516 1.347437248
615029500.0 -0.50078112 1.233613376
630029000.0 -0.875101312 0.968460608
645028500.0 -1.173494576 0.585709376
660028000.0 -1.312170848 0.113529872
675027500.0 -1.27250672 -0.388968992
690027000.0 -1.015188814 -0.864110784
705026500.0 -0.61209184 -1.167091488
720026000.0 -0.141625376 -1.269508608
735025500.0 0.309833536 -1.213142512
750025000.0 0.708382336 -1.00212872
765024500.0 1.000658393 -0.660417408
780024000.0 1.179567344 -0.247418176
795023500.0 1.10677612 0.209385152
810023000.0 0.86750592 0.550751232
825022500.0 0.561588224 0.73292288
840022000.0 0.279186912 0.78251264
855021500.0 0.05654562 0.760121088
870021000.0 -0.122366456 0.73615104
885020500.0 -0.293796736 0.718832512
900020000.0 -0.525308 0.740915584
915019500.0 -0.504508192 0.747119296
930019000.0 -0.487930688 0.740899712
945018500.0 -0.46539504 0.746358784
960018000.0 -0.447355744 0.7482608
975017500.0 -0.442414048 0.754237888
990017000.0 -0.41805232 0.760552512
1005016500.0 -0.390143488 0.762874176
1020016000.0 -0.383422656 0.769797248
1035015500.0 -0.354577472 0.777349632
1050015000.0 -0.338271264 0.774327488
1065014500.0 -0.306546048 0.780496192
1080014000.0 -0.284851968 0.794260864
1095013500.0 -0.270352448 0.799832128
1110013000.0 -0.235256048 0.80364288
1125012500.0 -0.217077376 0.794938752
1140012000.0 -0.180938816 0.808010496
1155011500.0 -0.133652624 0.817534464
1170011000.0 -0.141191728 0.795153664
1185010500.0 -0.100662712 0.812383872
1200010000.0 -0.067098612 0.800212096
1215009500.0 -0.042388528 0.805816256
1230009000.0 -0.016441464 0.810816512
1245008500.0 0.023666262 0.808827648
1260008000.0 0.04108104 0.809952256
1275007500.0 0.083080528 0.81963936
1290007000.0 0.106824264 0.805897664
1305006500.0 0.151280592 0.793991104
1320006000.0 0.173409824 0.788485824
1335005500.0 0.212621872 0.775760192
1350005000.0 0.240481696 0.774740608
1365004500.0 0.254781152 0.733176832
1380004000.0 0.291716032 0.745678208
1395003500.0 0.316240288 0.737715008
1410003000.0 0.345947744 0.700337856
1425002500.0 0.371329792 0.687464448
1440002000.0 0.392026752 0.6765472
1455001500.0 0.426273952 0.664857024
1470001000.0 0.436131552 0.63374592
1485000500.0 0.465425024 0.621501248
1500000000.0 0.472451584 0.612191808
