! Created with skrf 1.8.0 (http://scikit-rf.org).
# Hz S RI R 50.0 
!freq ReS11 ImS11
50000.0 0.7412956914248614 0.03187265670618444
15049500.0 -4.484451848567076 0.7834532908375078
30049000.0 0.9801636762983316 -0.860044675628201
45048500.0 -0.05741399829004051 0.1257958185058119
60048000.0 1.2676418851031526 -0.3403870167387164
75047500.0 -3.37502586469041 2.366385687776534
90047000.0 -0.6073443129893529 -0.6576915112453665
105046500.0 0.3747116765273864 0.43559675431307915
120046000.0 3.4650597329640744 -2.3526408368411813
135045500.0 0.9456782747557719 -1.2493429502344549
150045000.0 -0.9748867025006293 -0.9777180460489603
165044500.0 -1.4001395824640348 -3.322486021806074
180044000.0 -0.6286865605181076 -0.8017751641716337
195043500.0 0.025537126637963755 -0.11779830031118046
210043000.0 1.1704600560322174 8.202901695186743
225042500.0 -0.6241819557272268 -5.830892705418729
240042000.0 -0.5483688130902264 2.3476966440796
255041500.0 -2.4284890734906726 -0.4892328216701037
270041000.0 0.09061195299106911 0.842673874485496
285040500.0 4.063753026962855 -2.4467192797712265
300040000.0 1.845882500831915 -2.378724751589147
315039500.0 -0.05369587846238772 1.7996814956388019
330039000.0 5.773953267628101 0.9781980581018265
345038500.0 1.865263206347213 -0.615283136028447
360038000.0 -0.11901976241917084 1.7489564283139298
375037500.0 -0.4498254800100924 -0.49672962837087925
390037000.0 0.2853252786939184 -1.1151711939650226
405036500.0 3.2141293227782968 -5.459654323319032
420036000.0 1.5154702487314846 -0.5092418218835738
435035500.0 -1.6673551405888976 0.04641292719775277
450035000.0 -0.7600553525768319 0.9219332389161198
465034500.0 0.0704828276841124 0.9881094384342521
480034000.0 0.8818696806858042 0.0038648596622826315
495033500.0 6.498212878278502 -3.569208357311852
510033000.0 1.4552454556912446 -3.4321191194049625
525032500.0 4.151186256758786 0.13469354714420992
540032000.0 5.17883197085432 -3.6824384713842386
555031500.0 -0.8701561372201994 -5.9396089166002906
570031000.0 -1.9837075716911952 0.23304858423524696
585030500.0 -2.7667147325183126 0.25902656653155753
600030000.0 2.4069650302157988 -1.4526040767333448
615029500.0 -1.7823581357663894 -0.7332051416682644
630029000.0 0.4976963263487351 0.8221740954790618
645028500.0 0.03208666049845304 -1.9503374934608215
660028000.0 10.436843844854605 3.5199015937557316
675027500.0 -0.4416408363926153 -0.14239089216136425
690027000.0 -0.3416178328561588 -1.3484943347334133
705026500.0 0.8584670935869273 0.5186260489679034
720026000.0 0.19596753555004548 0.4913647375930712
735025500.0 -1.5762002285666497 -1.1909058243319506
750025000.0 0.6672921023595291 -0.23596215038360244
765024500.0 1.917318362887521 -1.0133858070896453
780024000.0 -0.22619106128546465 0.3183117798361893
795023500.0 0.5221284396100505 0.9255964560143153
810023000.0 2.0534150796346204 -0.023245133638113324
825022500.0 -461.98334501195694 49.20724410903198
840022000.0 0.4967452957987484 0.8509092851882147
855021500.0 0.6793207640033994 0.21619521529613916
870021000.0 -2.538052921064624 0.3452437433356229
885020500.0 -0.3279527617178365 0.02350842743642016
900020000.0 0.9860096054394726 -0.7778182613902314
915019500.0 0.23467192250282926 -1.4752488648953048
930019000.0 0.8013650499828063 0.20025806258423196
945018500.0 -0.4915192838003876 -0.1183558709813485
960018000.0 0.7985842425456645 -0.1928545982138629
975017500.0 0.7841234231034053 -3.9880872341200613
990017000.0 0.0014787389100699197 -1.1410613187997365
1005016500.0 3.658823383345325 1.1702583432866063
1020016000.0 -1.7349065121377127 0.009468901270054673
1035015500.0 -1.162963987440047 -1.9732647401285506
1050015000.0 -0.11596611929629705 -1.0976460123661407
1065014500.0 -3.1306570126616036 0.6799635684947132
1080014000.0 -2.305289437117454 0.4955337698560805
1095013500.0 4.149294133033681 -3.76927413476513
1110013000.0 -2.7017389842653854 3.5010962419463865
1125012500.0 1.7233147189531466 -0.5110251005947533
1140012000.0 -0.16224920833508458 1.069973414313448
1155011500.0 1.0076639552078681 0.7558186903991476
1170011000.0 3.646503448291589 1.738240208657645
1185010500.0 -1.1968346625576511 0.836658788927143
1200010000.0 3.2441227702287025 -2.0081983223027997
1215009500.0 0.26418141389171773 -0.46579017783824095
1230009000.0 -0.9486627097999559 -0.007078600388204191
1245008500.0 0.6225485265822566 0.9858858264810983
1260008000.0 -1.8641679441050891 -0.2720755324309452
1275007500.0 -0.8495716579574306 18.558120513699578
1290007000.0 6.272794130296918 -3.9055325298489048
1305006500.0 -0.707476842260069 3.426898905870518
1320006000.0 -0.7281386624953927 -0.0481265254653692
1335005500.0 0.9881620048308802 1.2849930810533248
1350005000.0 -0.20949045256958415 0.06268111790115427
1365004500.0 -6.224743432086394 -0.5045657971576033
1380004000.0 0.11526215801016829 -0.5746883389310427
1395003500.0 -1.5330994720200524 -0.033230852340282724
1410003000.0 -1.5576041798710303 -0.8844461554426291
1425002500.0 2.017207711629773 -0.09166135628294661
1440002000.0 -0.36951475957789476 0.36421367376229646
1455001500.0 -3.1251442325265733 -0.7300367654136986
1470001000.0 0.8484577123981849 -0.5364058807762291
1485000500.0 0.24500473323029173 -0.7994630259461066
1500000000.0 0.12103830546834045 1.9560538447192164
