! Created with skrf 1.8.0 (http://scikit-rf.org).
# Hz S RI R 50.0 
!freq ReS11 ImS11
50000.0 7.502055969322973e-05 -8.49578358891605e-05
15049500.0 0.0020426369793799634 0.0012637312460326
30049000.0 0.00010146856826721429 9.662433451459985e-05
45048500.0 -0.0001231102930001194 -1.6307276522056058e-05
60048000.0 6.210119329704026e-05 0.00010649909517192093
75047500.0 -0.0005589230487828131 0.0005223591967881126
90047000.0 -6.370440670930156e-05 9.522773150750652e-05
105046500.0 -0.00018924313810407588 1.126003214262417e-06
120046000.0 0.00110900628081653 -0.0009231471852175934
135045500.0 -0.0021483476777036732 0.00013400094776189235
150045000.0 -0.00014817877733318247 0.0004741360488526738
165044500.0 0.00010547554984368107 0.0010370066908499294
180044000.0 0.0002016998289087365 0.00022568230349576465
195043500.0 -0.00014092239510083145 0.0003983147051331338
210043000.0 -0.006248177047917183 -0.00795055297229459
225042500.0 0.0028134158464555503 -0.00024360798780179624
240042000.0 0.0014663052654282824 -0.002115060060799065
255041500.0 0.0007631327802342147 0.001563909520256601
270041000.0 0.0006183939620799303 -0.0005157757072359813
285040500.0 0.005300564515789505 -0.007313673213459828
300040000.0 0.01254580148802596 0.0041744271624737095
315039500.0 0.004802180048962246 -0.0014944991922962738
330039000.0 -0.005152279513795463 -0.020297690125710813
345038500.0 0.0029656784927394185 -0.00019054705544995914
360038000.0 0.0027821199580120755 0.005683088001724166
375037500.0 -0.0008540035628447626 -0.002341998585182244
390037000.0 0.011264131873824065 -0.018669843341494633
405036500.0 0.014587199119572927 -0.016751620634353863
420036000.0 0.00020078866794528315 -0.002707309419449668
435035500.0 -0.0022471304435658494 -0.0019077614308305837
450035000.0 -0.01633767080243726 0.009595260343349657
465034500.0 -0.0019181651893175082 -0.0017441076045319392
480034000.0 0.00012043454438101935 -0.0005837068118874898
495033500.0 0.011268980695631516 -0.006962226241083084
510033000.0 0.0006226725997620354 -0.010521543551297878
525032500.0 0.008258362983071216 -0.014298810950733331
540032000.0 -0.011909716312309216 -0.015353998103360415
555031500.0 -0.012819109698028849 -0.005246789307348929
570031000.0 0.0044350311235581055 -0.00035070591506842477
585030500.0 0.014757444593468802 0.01234473423733062
600030000.0 0.011050557192832999 -0.009817544361557885
615029500.0 0.008694808654264117 -0.0031210056357865155
630029000.0 0.0009756681271144426 -0.0022576633519213103
645028500.0 0.011002992133964119 0.013028223688973335
660028000.0 -0.03317235018298298 0.07520001199178937
675027500.0 -0.003471132095008783 -0.0026360562928434746
690027000.0 -0.0072603804277557495 -0.001890082348600045
705026500.0 -0.0017969392128090503 -0.0016753926695757784
720026000.0 -0.0037040852322793925 -0.004684425122320384
735025500.0 0.00839391400317885 -0.0018423299849214861
750025000.0 -0.001940752255927045 -0.0012817521453009728
765024500.0 -0.003639202159439599 -0.0021414049640856065
780024000.0 0.006280314089314822 0.014891306063719384
795023500.0 -0.0003771539077758464 0.0031319060073660035
810023000.0 -0.0031892116477267997 0.00290198406934795
825022500.0 -1.2169606377242668 1.4351252296007462
840022000.0 -0.005143277444881996 -0.0020047840593283702
855021500.0 0.0003808823305563013 -0.000861847898746069
870021000.0 -0.012151673576766 -0.007603580204694523
885020500.0 -0.0011613471989053812 -0.0017091685770932608
900020000.0 -0.005480477709379822 -0.0005192241670126202
915019500.0 0.009323701763996113 0.006475495329968054
930019000.0 -0.0003234316682418626 -0.0021325735106207887
945018500.0 0.0035532859652448617 0.0007911674437492214
960018000.0 -0.001244529366491599 -0.001014000070701656
975017500.0 -0.013139794447978132 0.048249424342355005
990017000.0 0.006913313149059882 0.008778156138306412
1005016500.0 0.02514796129662982 0.005713752955650976
1020016000.0 0.01576728390841513 0.0028399821198900445
1035015500.0 0.012032103244801981 -0.0018059825738906143
1050015000.0 -0.017988021012307648 0.03797430097273319
1065014500.0 0.00737832686684881 0.024719926905479403
1080014000.0 0.010531219063096392 0.012794040983652404
1095013500.0 -0.045673827172036864 0.05061905385146772
1110013000.0 0.011193303856848937 0.01957968915680693
1125012500.0 -0.006382275626514253 -0.003308598998396017
1140012000.0 0.005773062737057763 0.0025524806510312296
1155011500.0 -0.01673826650745098 0.027482100356788306
1170011000.0 -0.042962792684273096 -0.08683033146370141
1185010500.0 -0.0029226535893467974 -0.006310662301003678
1200010000.0 -0.011164328031949847 -0.05859001723559757
1215009500.0 -0.006065580063571336 -0.0024957847508049868
1230009000.0 -0.0007943057015845173 -0.0002808774450202094
1245008500.0 0.0074756255050135965 0.0031413910982586524
1260008000.0 0.006049406706382628 0.008794125427650715
1275007500.0 -0.3285801465314106 -0.11161847824973459
1290007000.0 -0.06388784469112842 0.04047171099372745
1305006500.0 0.0119971993150432 0.010108268519400151
1320006000.0 -0.003153632344695202 0.0008069661268471068
1335005500.0 0.007034105927239262 -0.007139007989925966
1350005000.0 0.006558213279158285 0.0031273546408263
1365004500.0 0.017382822593607013 0.22096259911712732
1380004000.0 -0.011849717778315389 -0.0016363050201035393
1395003500.0 0.009009794999929516 -0.00426850872539998
1410003000.0 -0.018628541076694215 0.011689177874532927
1425002500.0 -0.00546078617014078 -0.004869035105693129
1440002000.0 0.0011405068278696306 -0.001897224970499176
1455001500.0 0.000832008082738847 -0.050643458111201696
1470001000.0 -0.008782330233666025 -0.0013759260845103856
1485000500.0 0.0046021342905499755 -0.02113600410736066
1500000000.0 -0.00486571923857573 -0.04389554640548014
