! Created with skrf 1.8.0 (http://scikit-rf.org).
# Hz S RI R 50.0 
!freq ReS11 ImS11
50000.0 -0.14898196742092332 -0.003975432825052382
15049500.0 -0.14140357489123026 0.03775434320106282
30049000.0 -0.12674915857034796 0.07119461327112202
45048500.0 -0.10563760294732849 0.09995117871787638
60048000.0 -0.07890665658724348 0.12310984973193276
75047500.0 -0.04802166962543293 0.13938475204307313
90047000.0 -0.012673190523743768 0.1484554407184847
105046500.0 0.022121627899607938 0.14966718885436722
120046000.0 0.055673603538865815 0.14327633703328566
135045500.0 0.08648036364759243 0.12906580325472225
150045000.0 0.11391023973620054 0.10866541950113849
165044500.0 0.13466415737273135 0.08248644477996747
180044000.0 0.1488535047932269 0.05194257046801509
195043500.0 0.1565226709036707 0.01845265443725806
210043000.0 0.15621762734881678 -0.016081662543073645
225042500.0 0.1476810386483073 -0.04901903220475029
240042000.0 0.13148078580181136 -0.07871315173385635
255041500.0 0.10848115278662789 -0.10431467512879238
270041000.0 0.07985384898321651 -0.12410922791850901
285040500.0 0.046806654593312076 -0.136644360831746
300040000.0 0.010047294962693002 -0.14030367694264836
315039500.0 -0.028302514406027837 -0.1350063384088768
330039000.0 -0.06093099453315936 -0.1231103607516323
345038500.0 -0.09227410330876108 -0.10453411887201966
360038000.0 -0.11788158108001931 -0.07740203469431517
375037500.0 -0.136572539369365 -0.04685964547326555
390037000.0 -0.14900937907491996 -0.015202992694409235
405036500.0 -0.1531146279780694 0.023997755009444666
420036000.0 -0.14845317237619532 0.0602694875331763
435035500.0 -0.13605888283371753 0.09513496799263499
450035000.0 -0.11245912910295476 0.12015583714545354
465034500.0 -0.0822397573885036 0.14921652535717034
480034000.0 -0.04810140853337117 0.16804585035608752
495033500.0 -0.01395499999844098 0.1791905424673207
510033000.0 0.023995527383099423 0.18169397254892303
525032500.0 0.06115393415259413 0.1773791575633898
540032000.0 0.09694193408977203 0.16596470362333168
555031500.0 0.12823129386663948 0.1458222220065018
570031000.0 0.15691154754946937 0.1210486802894282
585030500.0 0.17685433051365454 0.08941821604495977
600030000.0 0.19414648195239342 0.05481064181043787
615029500.0 0.1981491443308284 0.016064074867838417
630029000.0 0.19581123595619845 -0.022923825843864515
645028500.0 0.18316379846946212 -0.05807017189330299
660028000.0 0.16370591674443147 -0.09088131738400017
675027500.0 0.13791332440566273 -0.11845027855872084
690027000.0 0.10698803408543109 -0.1378541455495443
705026500.0 0.06983138477465843 -0.14799759339604776
720026000.0 0.03680361981995148 -0.14855116427510168
735025500.0 -0.0042186320006760095 -0.1463158433848731
750025000.0 -0.03898207342451484 -0.1268167883613722
765024500.0 -0.07136258624754792 -0.10598254387736164
780024000.0 -0.10424813343558297 -0.07374977858784985
795023500.0 -0.11871152218525503 -0.043131533697504845
810023000.0 -0.130416291743155 -0.006458176370801117
825022500.0 -0.13324686277885545 0.03322223840509186
840022000.0 -0.12549749888594416 0.07050742519074017
855021500.0 -0.10895016586864628 0.1047642850257311
870021000.0 -0.08915659977172244 0.13489915203974148
885020500.0 -0.057459058819360136 0.15722969290643612
900020000.0 -0.0359848060765204 0.19171256825070357
915019500.0 0.0009048020385485739 0.1965719612679225
930019000.0 0.03999130967293552 0.19394756130852397
945018500.0 0.08101673505752857 0.18596500640223104
960018000.0 0.11918789846516277 0.16415470236875804
975017500.0 0.1411696343917598 0.12886806217635205
990017000.0 0.17401864624594815 0.09844003633898511
1005016500.0 0.1946327958909047 0.058937214736333336
1020016000.0 0.20831393735509682 0.01876355692883023
1035015500.0 0.21662086131526864 -0.029189178892602582
1050015000.0 0.19591403049854672 -0.09846967317777669
1065014500.0 0.19808603703776928 -0.114592404162762
1080014000.0 0.1756378559905742 -0.15157310464611637
1095013500.0 0.1512023867585615 -0.1817635937119266
1110013000.0 0.1135344456935954 -0.20069109310960803
1125012500.0 0.0980578603137338 -0.20057112870930202
1140012000.0 0.05316222437191956 -0.20841519467017483
1155011500.0 0.05880901340570746 -0.20024036938144676
1170011000.0 -0.016472593303377487 -0.17246912152452967
1185010500.0 -0.06736417817646671 -0.14641267807736125
1200010000.0 -0.0695456022578072 -0.11582317749121682
1215009500.0 -0.11200701182409283 -0.05369187324355148
1230009000.0 -0.10409637500869001 -0.008741716970623535
1245008500.0 -0.09859669839068345 0.03356991576040175
1260008000.0 -0.08133009543692306 0.06306605546323983
1275007500.0 -0.06909311476422086 0.14451568591795314
1290007000.0 -0.03036989820818519 0.14786323297286127
1305006500.0 -0.007168175170424719 0.15104343122874536
1320006000.0 0.06800641717169666 0.1410226893779582
1335005500.0 0.11823528179118566 0.12955867333603216
1350005000.0 0.15683928772180664 0.09928778899754205
1365004500.0 0.24128492412709274 0.07543904743603567
1380004000.0 0.2509419002214481 0.030761034256045285
1395003500.0 0.270353605247633 -0.04503243324957266
1410003000.0 0.2741399500280416 -0.12553551969834092
1425002500.0 0.328907025744615 -0.16137704611791978
1440002000.0 0.33942069865721447 -0.23629652283953373
1455001500.0 0.3136621081348965 -0.2815543498434498
1470001000.0 0.35276241497652516 -0.32820858072507425
1485000500.0 0.32160412923973364 -0.3515948788964449
1500000000.0 0.37879912891517653 -0.30799786734490986
