! Created with skrf 1.8.0 (http://scikit-rf.org).
# Hz S RI R 50.0 
!freq ReS11 ImS11
50000.0 0.7573394900095622 -0.00578193037037154
15049500.0 0.7242813948336055 -0.20257647818867236
30049000.0 0.6509529918053827 -0.3703290181044722
45048500.0 0.5403476762363307 -0.5139869195045602
60048000.0 0.4012945480116073 -0.6254295733219548
75047500.0 0.24161779245308107 -0.6987324155018699
90047000.0 0.061943359582619886 -0.73114546720711
105046500.0 -0.11449277337283449 -0.7230701898780549
120046000.0 -0.2816703518629884 -0.6733099429820573
135045500.0 -0.43129118330370686 -0.5846474737232836
150045000.0 -0.5560474146223796 -0.4637601969886366
165044500.0 -0.6474280651474361 -0.31733240991683626
180044000.0 -0.7014218748001221 -0.15401578486141973
195043500.0 -0.7149776091499648 0.017510785626521586
210043000.0 -0.6871888142410328 0.18580533978196032
225042500.0 -0.6199612002752554 0.3427572451996001
240042000.0 -0.5178257380856135 0.47833297717862816
255041500.0 -0.3857893964716751 0.586047301936499
270041000.0 -0.23257239742539906 0.6582393258263658
285040500.0 -0.06798213575588204 0.6912344687809371
300040000.0 0.08790288191813832 0.6862696358655902
315039500.0 0.24760075401488454 0.6435369464269862
330039000.0 0.39015307115248965 0.5615729570552688
345038500.0 0.5093981799602434 0.45188545087052395
360038000.0 0.5976923627248111 0.31794761785821835
375037500.0 0.6507017661044157 0.16920081643093846
390037000.0 0.6650294210802001 0.016403751496979656
405036500.0 0.6454665632448572 -0.13630250567957303
420036000.0 0.5895602173530057 -0.27522883064578646
435035500.0 0.49977500436727307 -0.3986382143108619
450035000.0 0.38562989681607773 -0.4971901791292047
465034500.0 0.2501908800950045 -0.5651638609369128
480034000.0 0.10704948208643039 -0.5992978622844705
495033500.0 -0.03810099696840154 -0.6003433752583962
510033000.0 -0.17500048970353932 -0.5667128008989909
525032500.0 -0.29977856180992246 -0.5053829934790075
540032000.0 -0.40388089105142727 -0.4184022273184376
555031500.0 -0.48512283680102497 -0.3103651886954087
570031000.0 -0.5389455994417033 -0.1900155218381302
585030500.0 -0.5628247837414965 -0.061713833006418715
600030000.0 -0.557497805115333 0.05998405635942847
615029500.0 -0.5243474281271622 0.1836036364532086
630029000.0 -0.4633838801584756 0.29395492925126737
645028500.0 -0.3799798286199452 0.3886119662457505
660028000.0 -0.27825561129956644 0.4614244044498065
675027500.0 -0.16458284613205992 0.5064510818718854
690027000.0 -0.04526176978131851 0.5253951664161971
705026500.0 0.07641382442278284 0.5165482911469905
720026000.0 0.18934458981074168 0.48113931359994383
735025500.0 0.29318663669008166 0.42069779843416644
750025000.0 0.37622041399136147 0.3374061841862995
765024500.0 0.43933343008980524 0.2401867896049753
780024000.0 0.47747984453945586 0.1291295671778596
795023500.0 0.4885010685676805 0.016303896509497984
810023000.0 0.47429062788224224 -0.09489931732182721
825022500.0 0.43419753740924966 -0.20079077819186086
840022000.0 0.37314790298304285 -0.29262125249600135
855021500.0 0.2921394056071131 -0.3670126897355413
870021000.0 0.1994104155252249 -0.4205254549418546
885020500.0 0.09784275937372269 -0.45346443431461103
900020000.0 -0.009407995784784396 -0.46039100531029997
915019500.0 -0.10768645120073475 -0.4478841276556
930019000.0 -0.19825852112585263 -0.4107276925854623
945018500.0 -0.28315723199870274 -0.3581322690743808
960018000.0 -0.35219187875188873 -0.28666736776232077
975017500.0 -0.3988113599311514 -0.20335381514562284
990017000.0 -0.4331662467816702 -0.11413825213065913
1005016500.0 -0.44479448550596845 -0.01732435389270198
1020016000.0 -0.43874051089928495 0.07960663384606409
1035015500.0 -0.41026858849038195 0.17091091460891258
1050015000.0 -0.36748604785417216 0.25590382441557735
1065014500.0 -0.304268080084948 0.3351706136634904
1080014000.0 -0.22513440803371085 0.39659702789145157
1095013500.0 -0.13740467904781262 0.44345990636712956
1110013000.0 -0.03733620982662369 0.46383127576238714
1125012500.0 0.050154591976988364 0.459042308896539
1140012000.0 0.1554282638468727 0.44534386134428205
1155011500.0 0.24116655671986215 0.40192947761026576
1170011000.0 0.3322159536904054 0.3276576213235618
1185010500.0 0.3996038746623764 0.25215011929445524
1200010000.0 0.44632285104020664 0.16235775187378707
1215009500.0 0.46845350916576295 0.061041661462483424
1230009000.0 0.4621266145185004 -0.047417647509543706
1245008500.0 0.43708459277179845 -0.16087827237437843
1260008000.0 0.3840902539597561 -0.25662952141885703
1275007500.0 0.3048399538966114 -0.3496047179009237
1290007000.0 0.2107123339632794 -0.41810565799105226
1305006500.0 0.10487985587171869 -0.4587595910285711
1320006000.0 -0.022731592806648573 -0.47426642280486164
1335005500.0 -0.1416424494619058 -0.4716836733708908
1350005000.0 -0.25931581231738715 -0.45117407050207614
1365004500.0 -0.36766207576649595 -0.37170356783460456
1380004000.0 -0.44018365477624866 -0.2955520903437057
1395003500.0 -0.5230814972819868 -0.20387051730075498
1410003000.0 -0.5793462163232066 -0.10877706452376217
1425002500.0 -0.5792868856763573 -0.0006688735017208018
1440002000.0 -0.5899012537071479 0.09810166103481441
1455001500.0 -0.5608303510171052 0.20604231263004608
1470001000.0 -0.49491498401545186 0.277738954652813
1485000500.0 -0.42568458837634365 0.3509033505318422
1500000000.0 -0.35386579043927097 0.39156751450018823
