! Created with skrf 1.8.0 (http://scikit-rf.org).
# Hz S RI R 50.0 
!freq ReS11 ImS11 ReS21 ImS21 ReS12 ImS12 ReS22 ImS22
50000.0 0.0 0.0 -8.2541e-05 6.5655e-05 0.0 0.0 0.0 0.0
15049500.0 0.0 0.0 -3.4025e-05 3.34e-06 0.0 0.0 0.0 0.0
30049000.0 0.0 0.0 -4.6125e-05 9.66e-07 0.0 0.0 0.0 0.0
45048500.0 0.0 0.0 -3.463e-05 3.503e-05 0.0 0.0 0.0 0.0
60048000.0 0.0 0.0 -7.554e-06 -1.441e-06 0.0 0.0 0.0 0.0
75047500.0 0.0 0.0 -4.2039e-05 -2.787e-06 0.0 0.0 0.0 0.0
90047000.0 0.0 0.0 -2.485e-05 7.195e-06 0.0 0.0 0.0 0.0
105046500.0 0.0 0.0 -3.2206e-05 1.5426e-05 0.0 0.0 0.0 0.0
120046000.0 0.0 0.0 -5.5223e-05 2.29e-06 0.0 0.0 0.0 0.0
135045500.0 0.0 0.0 -3.1036e-05 2.3065e-05 0.0 0.0 0.0 0.0
150045000.0 0.0 0.0 -3.8191e-05 1.5506e-05 0.0 0.0 0.0 0.0
165044500.0 0.0 0.0 -1.409e-06 6.8231e-05 0.0 0.0 0.0 0.0
180044000.0 0.0 0.0 -1.4264e-05 4.8151e-05 0.0 0.0 0.0 0.0
195043500.0 0.0 0.0 6.799e-06 6.957e-06 0.0 0.0 0.0 0.0
210043000.0 0.0 0.0 -3.049e-05 4.3801e-05 0.0 0.0 0.0 0.0
225042500.0 0.0 0.0 -4.58e-06 3.6255e-05 0.0 0.0 0.0 0.0
240042000.0 0.0 0.0 1.3129e-05 4.0265e-05 0.0 0.0 0.0 0.0
255041500.0 0.0 0.0 1.0313e-05 4.5316e-05 0.0 0.0 0.0 0.0
270041000.0 0.0 0.0 -3.65e-07 5.301e-05 0.0 0.0 0.0 0.0
285040500.0 0.0 0.0 1.4577e-05 1.2413e-05 0.0 0.0 0.0 0.0
300040000.0 0.0 0.0 0.000313956 0.00020996 0.0 0.0 0.0 0.0
315039500.0 0.0 0.0 -0.000193278 3.2183e-05 0.0 0.0 0.0 0.0
330039000.0 0.0 0.0 0.000671085 -0.000240481 0.0 0.0 0.0 0.0
345038500.0 0.0 0.0 -7.9234e-05 -0.000130089 0.0 0.0 0.0 0.0
360038000.0 0.0 0.0 0.000187316 0.000267184 0.0 0.0 0.0 0.0
375037500.0 0.0 0.0 0.000280227 0.000273636 0.0 0.0 0.0 0.0
390037000.0 0.0 0.0 -3.2648e-05 0.00012356 0.0 0.0 0.0 0.0
405036500.0 0.0 0.0 0.000362415 0.000242049 0.0 0.0 0.0 0.0
420036000.0 0.0 0.0 0.000149324 1.0168e-05 0.0 0.0 0.0 0.0
435035500.0 0.0 0.0 0.000525822 -1.5701e-05 0.0 0.0 0.0 0.0
450035000.0 0.0 0.0 0.000207739 -0.000250836 0.0 0.0 0.0 0.0
465034500.0 0.0 0.0 1.5195e-05 -0.000290978 0.0 0.0 0.0 0.0
480034000.0 0.0 0.0 1.6091e-05 -0.000243562 0.0 0.0 0.0 0.0
495033500.0 0.0 0.0 0.000119487 -0.000151204 0.0 0.0 0.0 0.0
510033000.0 0.0 0.0 -0.000125036 -0.000300744 0.0 0.0 0.0 0.0
525032500.0 0.0 0.0 0.000360661 -0.000431589 0.0 0.0 0.0 0.0
540032000.0 0.0 0.0 -1.4799e-05 -0.000660845 0.0 0.0 0.0 0.0
555031500.0 0.0 0.0 0.000314095 -0.000397384 0.0 0.0 0.0 0.0
570031000.0 0.0 0.0 0.000246691 -0.00123179 0.0 0.0 0.0 0.0
585030500.0 0.0 0.0 0.000474931 -0.000235455 0.0 0.0 0.0 0.0
600030000.0 0.0 0.0 -0.000102732 -0.000228831 0.0 0.0 0.0 0.0
615029500.0 0.0 0.0 0.000210823 -6.3265e-05 0.0 0.0 0.0 0.0
630029000.0 0.0 0.0 -7.5234e-05 -0.000366993 0.0 0.0 0.0 0.0
645028500.0 0.0 0.0 -0.00024842 -0.000877477 0.0 0.0 0.0 0.0
660028000.0 0.0 0.0 -0.000173708 -0.000207323 0.0 0.0 0.0 0.0
675027500.0 0.0 0.0 1.5173e-05 -0.000360479 0.0 0.0 0.0 0.0
690027000.0 0.0 0.0 0.000131333 -0.000669334 0.0 0.0 0.0 0.0
705026500.0 0.0 0.0 -9.1503e-05 -0.000401215 0.0 0.0 0.0 0.0
720026000.0 0.0 0.0 0.000375722 -0.000134016 0.0 0.0 0.0 0.0
735025500.0 0.0 0.0 -6.6797e-05 -0.000693868 0.0 0.0 0.0 0.0
750025000.0 0.0 0.0 -0.000175197 -0.000444597 0.0 0.0 0.0 0.0
765024500.0 0.0 0.0 0.000435896 -0.000507406 0.0 0.0 0.0 0.0
780024000.0 0.0 0.0 -0.000350212 -0.000691436 0.0 0.0 0.0 0.0
795023500.0 0.0 0.0 -0.000221611 -0.000459701 0.0 0.0 0.0 0.0
810023000.0 0.0 0.0 -6.3032e-05 -0.000578994 0.0 0.0 0.0 0.0
825022500.0 0.0 0.0 -0.000280123 -0.000253653 0.0 0.0 0.0 0.0
840022000.0 0.0 0.0 4.733e-05 -0.000190884 0.0 0.0 0.0 0.0
855021500.0 0.0 0.0 0.000153081 -0.000831253 0.0 0.0 0.0 0.0
870021000.0 0.0 0.0 -0.000458357 -0.000332474 0.0 0.0 0.0 0.0
885020500.0 0.0 0.0 8.8791e-05 -0.000339048 0.0 0.0 0.0 0.0
900020000.0 0.0 0.0 0.001450043 0.000187469 0.0 0.0 0.0 0.0
915019500.0 0.0 0.0 0.000333659 -0.001261421 0.0 0.0 0.0 0.0
930019000.0 0.0 0.0 0.002285347 -0.001878132 0.0 0.0 0.0 0.0
945018500.0 0.0 0.0 -0.000999822 -0.000762074 0.0 0.0 0.0 0.0
960018000.0 0.0 0.0 0.000763377 -0.000534576 0.0 0.0 0.0 0.0
975017500.0 0.0 0.0 0.000651939 0.000956379 0.0 0.0 0.0 0.0
990017000.0 0.0 0.0 0.000549084 0.000421727 0.0 0.0 0.0 0.0
1005016500.0 0.0 0.0 -0.00023079 0.000475167 0.0 0.0 0.0 0.0
1020016000.0 0.0 0.0 0.001930665 -0.000779008 0.0 0.0 0.0 0.0
1035015500.0 0.0 0.0 0.001128747 -0.00090416 0.0 0.0 0.0 0.0
1050015000.0 0.0 0.0 9.0712e-05 -0.002191875 0.0 0.0 0.0 0.0
1065014500.0 0.0 0.0 -0.002742774 -0.001145165 0.0 0.0 0.0 0.0
1080014000.0 0.0 0.0 0.00050285 -0.000775569 0.0 0.0 0.0 0.0
1095013500.0 0.0 0.0 0.000549291 -0.001390219 0.0 0.0 0.0 0.0
1110013000.0 0.0 0.0 0.000324065 -0.000537612 0.0 0.0 0.0 0.0
1125012500.0 0.0 0.0 -0.002862599 -0.000553637 0.0 0.0 0.0 0.0
1140012000.0 0.0 0.0 -0.000670799 -0.000831209 0.0 0.0 0.0 0.0
1155011500.0 0.0 0.0 -0.005787979 -0.001246967 0.0 0.0 0.0 0.0
1170011000.0 0.0 0.0 -0.003707338 -0.003556913 0.0 0.0 0.0 0.0
1185010500.0 0.0 0.0 -0.001116786 -0.000785388 0.0 0.0 0.0 0.0
1200010000.0 0.0 0.0 0.003119538 0.001385042 0.0 0.0 0.0 0.0
1215009500.0 0.0 0.0 -0.004614024 0.004382501 0.0 0.0 0.0 0.0
1230009000.0 0.0 0.0 -0.001814112 0.002951423 0.0 0.0 0.0 0.0
1245008500.0 0.0 0.0 0.002177344 -0.004434159 0.0 0.0 0.0 0.0
1260008000.0 0.0 0.0 -0.005004484 0.002022215 0.0 0.0 0.0 0.0
1275007500.0 0.0 0.0 -0.001378648 0.001828113 0.0 0.0 0.0 0.0
1290007000.0 0.0 0.0 -0.000849606 -0.002243585 0.0 0.0 0.0 0.0
1305006500.0 0.0 0.0 0.001362226 0.006743052 0.0 0.0 0.0 0.0
1320006000.0 0.0 0.0 0.005547886 -0.001883739 0.0 0.0 0.0 0.0
1335005500.0 0.0 0.0 0.00018521 0.007296192 0.0 0.0 0.0 0.0
1350005000.0 0.0 0.0 -0.006879143 -0.002442844 0.0 0.0 0.0 0.0
1365004500.0 0.0 0.0 -0.000353684 0.00074261 0.0 0.0 0.0 0.0
1380004000.0 0.0 0.0 -0.002220451 -0.000922846 0.0 0.0 0.0 0.0
1395003500.0 0.0 0.0 0.002093468 0.009214366 0.0 0.0 0.0 0.0
1410003000.0 0.0 0.0 0.001738881 -0.002978633 0.0 0.0 0.0 0.0
1425002500.0 0.0 0.0 0.009903602 -0.00030406 0.0 0.0 0.0 0.0
1440002000.0 0.0 0.0 -0.005993795 -0.000878244 0.0 0.0 0.0 0.0
1455001500.0 0.0 0.0 -0.002284805 6.2406e-05 0.0 0.0 0.0 0.0
1470001000.0 0.0 0.0 0.00958332 -0.006753858 0.0 0.0 0.0 0.0
1485000500.0 0.0 0.0 -0.006262062 0.009631472 0.0 0.0 0.0 0.0
1500000000.0 0.0 0.0 0.005127737 0.020350816 0.0 0.0 0.0 0.0
