! Created with skrf 1.8.0 (http://scikit-rf.org).
# Hz S RI R 50.0 
!freq ReS11 ImS11 ReS21 ImS21 ReS12 ImS12 ReS22 ImS22
50000.0 0.0 0.0 -0.820005952 -0.01436185 0.0 0.0 0.0 0.0
15049500.0 0.0 0.0 -0.78629664 0.201621072 0.0 0.0 0.0 0.0
30049000.0 0.0 0.0 -0.716238208 0.377038912 0.0 0.0 0.0 0.0
45048500.0 0.0 0.0 -0.607264512 0.530767968 0.0 0.0 0.0 0.0
60048000.0 0.0 0.0 -0.46859584 0.653496192 0.0 0.0 0.0 0.0
75047500.0 0.0 0.0 -0.307995776 0.7392032 0.0 0.0 0.0 0.0
90047000.0 0.0 0.0 -0.12564744 0.785086528 0.0 0.0 0.0 0.0
105046500.0 0.0 0.0 0.05510004 0.792106624 0.0 0.0 0.0 0.0
120046000.0 0.0 0.0 0.229193536 0.758357568 0.0 0.0 0.0 0.0
135045500.0 0.0 0.0 0.390630336 0.68687552 0.0 0.0 0.0 0.0
150045000.0 0.0 0.0 0.532556896 0.581729472 0.0 0.0 0.0 0.0
165044500.0 0.0 0.0 0.648154304 0.449739648 0.0 0.0 0.0 0.0
180044000.0 0.0 0.0 0.73097696 0.295217536 0.0 0.0 0.0 0.0
195043500.0 0.0 0.0 0.778240896 0.12598604 0.0 0.0 0.0 0.0
210043000.0 0.0 0.0 0.786134912 -0.050250736 0.0 0.0 0.0 0.0
225042500.0 0.0 0.0 0.754116928 -0.223623504 0.0 0.0 0.0 0.0
240042000.0 0.0 0.0 0.682823808 -0.386096256 0.0 0.0 0.0 0.0
255041500.0 0.0 0.0 0.576034176 -0.527528928 0.0 0.0 0.0 0.0
270041000.0 0.0 0.0 0.440623616 -0.639934336 0.0 0.0 0.0 0.0
285040500.0 0.0 0.0 0.285281408 -0.718935104 0.0 0.0 0.0 0.0
300040000.0 0.0 0.0 0.128484384 -0.760889024 0.0 0.0 0.0 0.0
315039500.0 0.0 0.0 -0.043643524 -0.768726592 0.0 0.0 0.0 0.0
330039000.0 0.0 0.0 -0.211735792 -0.73803968 0.0 0.0 0.0 0.0
345038500.0 0.0 0.0 -0.369000768 -0.670365568 0.0 0.0 0.0 0.0
360038000.0 0.0 0.0 -0.507011776 -0.572266112 0.0 0.0 0.0 0.0
375037500.0 0.0 0.0 -0.618895232 -0.44692528 0.0 0.0 0.0 0.0
390037000.0 0.0 0.0 -0.69866624 -0.29454928 0.0 0.0 0.0 0.0
405036500.0 0.0 0.0 -0.744752832 -0.1392536 0.0 0.0 0.0 0.0
420036000.0 0.0 0.0 -0.750831104 0.027324192 0.0 0.0 0.0 0.0
435035500.0 0.0 0.0 -0.714202816 0.191011776 0.0 0.0 0.0 0.0
450035000.0 0.0 0.0 -0.641871552 0.346774496 0.0 0.0 0.0 0.0
465034500.0 0.0 0.0 -0.536483776 0.474231488 0.0 0.0 0.0 0.0
480034000.0 0.0 0.0 -0.41017536 0.572553088 0.0 0.0 0.0 0.0
495033500.0 0.0 0.0 -0.26577616 0.642867904 0.0 0.0 0.0 0.0
510033000.0 0.0 0.0 -0.11777336 0.67604192 0.0 0.0 0.0 0.0
525032500.0 0.0 0.0 0.03270981 0.679530176 0.0 0.0 0.0 0.0
540032000.0 0.0 0.0 0.177022576 0.654251008 0.0 0.0 0.0 0.0
555031500.0 0.0 0.0 0.313207456 0.596258432 0.0 0.0 0.0 0.0
570031000.0 0.0 0.0 0.43424256 0.513922336 0.0 0.0 0.0 0.0
585030500.0 0.0 0.0 0.535167392 0.408014432 0.0 0.0 0.0 0.0
600030000.0 0.0 0.0 0.612788288 0.288582752 0.0 0.0 0.0 0.0
615029500.0 0.0 0.0 0.662211776 0.145401664 0.0 0.0 0.0 0.0
630029000.0 0.0 0.0 0.675684224 -0.006576409 0.0 0.0 0.0 0.0
645028500.0 0.0 0.0 0.654030464 -0.15785264 0.0 0.0 0.0 0.0
660028000.0 0.0 0.0 0.597987008 -0.301214048 0.0 0.0 0.0 0.0
675027500.0 0.0 0.0 0.510106688 -0.424595648 0.0 0.0 0.0 0.0
690027000.0 0.0 0.0 0.399527584 -0.519216 0.0 0.0 0.0 0.0
705026500.0 0.0 0.0 0.2703328 -0.589637312 0.0 0.0 0.0 0.0
720026000.0 0.0 0.0 0.134550736 -0.629082944 0.0 0.0 0.0 0.0
735025500.0 0.0 0.0 -0.004170911 -0.635008064 0.0 0.0 0.0 0.0
750025000.0 0.0 0.0 -0.136815904 -0.614594304 0.0 0.0 0.0 0.0
765024500.0 0.0 0.0 -0.265286208 -0.565427904 0.0 0.0 0.0 0.0
780024000.0 0.0 0.0 -0.387570784 -0.486053184 0.0 0.0 0.0 0.0
795023500.0 0.0 0.0 -0.474783456 -0.396851584 0.0 0.0 0.0 0.0
810023000.0 0.0 0.0 -0.54884928 -0.283554592 0.0 0.0 0.0 0.0
825022500.0 0.0 0.0 -0.597578944 -0.152285248 0.0 0.0 0.0 0.0
840022000.0 0.0 0.0 -0.613725248 -0.01290778 0.0 0.0 0.0 0.0
855021500.0 0.0 0.0 -0.601143488 0.12647824 0.0 0.0 0.0 0.0
870021000.0 0.0 0.0 -0.555201088 0.25749504 0.0 0.0 0.0 0.0
885020500.0 0.0 0.0 -0.483779584 0.37338608 0.0 0.0 0.0 0.0
900020000.0 0.0 0.0 -0.363652224 0.478382656 0.0 0.0 0.0 0.0
915019500.0 0.0 0.0 -0.251604432 0.538848896 0.0 0.0 0.0 0.0
930019000.0 0.0 0.0 -0.132876248 0.578472576 0.0 0.0 0.0 0.0
945018500.0 0.0 0.0 -0.009153752 0.594876736 0.0 0.0 0.0 0.0
960018000.0 0.0 0.0 0.113156544 0.585755456 0.0 0.0 0.0 0.0
975017500.0 0.0 0.0 0.240047984 0.556375168 0.0 0.0 0.0 0.0
990017000.0 0.0 0.0 0.34883024 0.497868864 0.0 0.0 0.0 0.0
1005016500.0 0.0 0.0 0.451878912 0.416044096 0.0 0.0 0.0 0.0
1020016000.0 0.0 0.0 0.544462656 0.316696736 0.0 0.0 0.0 0.0
1035015500.0 0.0 0.0 0.614509056 0.192436896 0.0 0.0 0.0 0.0
1050015000.0 0.0 0.0 0.657667008 0.045439756 0.0 0.0 0.0 0.0
1065014500.0 0.0 0.0 0.660634368 -0.103031008 0.0 0.0 0.0 0.0
1080014000.0 0.0 0.0 0.63279584 -0.25956208 0.0 0.0 0.0 0.0
1095013500.0 0.0 0.0 0.560506432 -0.405856288 0.0 0.0 0.0 0.0
1110013000.0 0.0 0.0 0.453245152 -0.53366464 0.0 0.0 0.0 0.0
1125012500.0 0.0 0.0 0.3203616 -0.622615232 0.0 0.0 0.0 0.0
1140012000.0 0.0 0.0 0.16717672 -0.680581376 0.0 0.0 0.0 0.0
1155011500.0 0.0 0.0 0.023791984 -0.71873728 0.0 0.0 0.0 0.0
1170011000.0 0.0 0.0 -0.160288416 -0.696483584 0.0 0.0 0.0 0.0
1185010500.0 0.0 0.0 -0.310316 -0.66783136 0.0 0.0 0.0 0.0
1200010000.0 0.0 0.0 -0.46551904 -0.59230976 0.0 0.0 0.0 0.0
1215009500.0 0.0 0.0 -0.603366144 -0.498143488 0.0 0.0 0.0 0.0
1230009000.0 0.0 0.0 -0.717721536 -0.369086752 0.0 0.0 0.0 0.0
1245008500.0 0.0 0.0 -0.795198848 -0.207026256 0.0 0.0 0.0 0.0
1260008000.0 0.0 0.0 -0.852851776 -0.023398026 0.0 0.0 0.0 0.0
1275007500.0 0.0 0.0 -0.854300672 0.164825936 0.0 0.0 0.0 0.0
1290007000.0 0.0 0.0 -0.803797504 0.359627648 0.0 0.0 0.0 0.0
1305006500.0 0.0 0.0 -0.704049792 0.542068864 0.0 0.0 0.0 0.0
1320006000.0 0.0 0.0 -0.584292544 0.695421696 0.0 0.0 0.0 0.0
1335005500.0 0.0 0.0 -0.421576736 0.811799616 0.0 0.0 0.0 0.0
1350005000.0 0.0 0.0 -0.231254128 0.880503168 0.0 0.0 0.0 0.0
1365004500.0 0.0 0.0 -0.071003112 0.931121664 0.0 0.0 0.0 0.0
1380004000.0 0.0 0.0 0.121052968 0.903088896 0.0 0.0 0.0 0.0
1395003500.0 0.0 0.0 0.31571104 0.876954688 0.0 0.0 0.0 0.0
1410003000.0 0.0 0.0 0.481989824 0.81557696 0.0 0.0 0.0 0.0
1425002500.0 0.0 0.0 0.648084224 0.717347456 0.0 0.0 0.0 0.0
1440002000.0 0.0 0.0 0.78822496 0.601977472 0.0 0.0 0.0 0.0
1455001500.0 0.0 0.0 0.90359872 0.438073184 0.0 0.0 0.0 0.0
1470001000.0 0.0 0.0 0.978976896 0.257367552 0.0 0.0 0.0 0.0
1485000500.0 0.0 0.0 1.041321516 0.071628512 0.0 0.0 0.0 0.0
1500000000.0 0.0 0.0 1.03493452 -0.133212416 0.0 0.0 0.0 0.0
