! Created with skrf 1.8.0 (http://scikit-rf.org).
# Hz S RI R 50.0 
!freq ReS11 ImS11 ReS21 ImS21 ReS12 ImS12 ReS22 ImS22
50000.0 0.0 0.0 -5.8107e-05 9.915e-06 0.0 0.0 0.0 0.0
15049500.0 0.0 0.0 -1.6913e-05 2.8776e-05 0.0 0.0 0.0 0.0
30049000.0 0.0 0.0 -1.4478e-05 -3.7525e-05 0.0 0.0 0.0 0.0
45048500.0 0.0 0.0 -8.0742e-05 -2.5265e-05 0.0 0.0 0.0 0.0
60048000.0 0.0 0.0 -2.7422e-05 -5.19e-05 0.0 0.0 0.0 0.0
75047500.0 0.0 0.0 -7.8933e-05 -4.4892e-05 0.0 0.0 0.0 0.0
90047000.0 0.0 0.0 -1.5689e-05 -3.7091e-05 0.0 0.0 0.0 0.0
105046500.0 0.0 0.0 -7.871e-06 -1.4248e-05 0.0 0.0 0.0 0.0
120046000.0 0.0 0.0 -7.1664e-05 1.4312e-05 0.0 0.0 0.0 0.0
135045500.0 0.0 0.0 -6.6196e-05 2.5382e-05 0.0 0.0 0.0 0.0
150045000.0 0.0 0.0 -5.0178e-05 1.4314e-05 0.0 0.0 0.0 0.0
165044500.0 0.0 0.0 -2.1418e-05 1.7031e-05 0.0 0.0 0.0 0.0
180044000.0 0.0 0.0 4.636e-05 3.859e-05 0.0 0.0 0.0 0.0
195043500.0 0.0 0.0 2.0605e-05 5.8478e-05 0.0 0.0 0.0 0.0
210043000.0 0.0 0.0 8.937e-06 4.9176e-05 0.0 0.0 0.0 0.0
225042500.0 0.0 0.0 2.2075e-05 6.204e-05 0.0 0.0 0.0 0.0
240042000.0 0.0 0.0 1.049e-06 6.6208e-05 0.0 0.0 0.0 0.0
255041500.0 0.0 0.0 2.2775e-05 8.0285e-05 0.0 0.0 0.0 0.0
270041000.0 0.0 0.0 2.5506e-05 5.0413e-05 0.0 0.0 0.0 0.0
285040500.0 0.0 0.0 6.3396e-05 1.5315e-05 0.0 0.0 0.0 0.0
300040000.0 0.0 0.0 0.00029391 0.000129167 0.0 0.0 0.0 0.0
315039500.0 0.0 0.0 3.6925e-05 -9.6906e-05 0.0 0.0 0.0 0.0
330039000.0 0.0 0.0 4.6778e-05 -4.4851e-05 0.0 0.0 0.0 0.0
345038500.0 0.0 0.0 5.9104e-05 0.000119181 0.0 0.0 0.0 0.0
360038000.0 0.0 0.0 7.7475e-05 9.541e-05 0.0 0.0 0.0 0.0
375037500.0 0.0 0.0 -0.000125838 0.000333206 0.0 0.0 0.0 0.0
390037000.0 0.0 0.0 0.000285125 0.000348272 0.0 0.0 0.0 0.0
405036500.0 0.0 0.0 0.000158766 -0.000203588 0.0 0.0 0.0 0.0
420036000.0 0.0 0.0 0.000211514 -0.00013446 0.0 0.0 0.0 0.0
435035500.0 0.0 0.0 0.000262634 -1.4095e-05 0.0 0.0 0.0 0.0
450035000.0 0.0 0.0 0.000100766 0.000364706 0.0 0.0 0.0 0.0
465034500.0 0.0 0.0 0.000407762 0.000218739 0.0 0.0 0.0 0.0
480034000.0 0.0 0.0 0.00011483 -1.4431e-05 0.0 0.0 0.0 0.0
495033500.0 0.0 0.0 0.000397742 -2.7085e-05 0.0 0.0 0.0 0.0
510033000.0 0.0 0.0 0.000832443 0.000202565 0.0 0.0 0.0 0.0
525032500.0 0.0 0.0 5.6384e-05 -0.000202537 0.0 0.0 0.0 0.0
540032000.0 0.0 0.0 0.000470712 -0.000529735 0.0 0.0 0.0 0.0
555031500.0 0.0 0.0 0.000177161 -0.000468572 0.0 0.0 0.0 0.0
570031000.0 0.0 0.0 0.000235946 -0.000327725 0.0 0.0 0.0 0.0
585030500.0 0.0 0.0 0.000294805 -0.000172057 0.0 0.0 0.0 0.0
600030000.0 0.0 0.0 0.000343641 -0.000436884 0.0 0.0 0.0 0.0
615029500.0 0.0 0.0 -0.000240663 -0.000693708 0.0 0.0 0.0 0.0
630029000.0 0.0 0.0 8.634e-05 -0.000227726 0.0 0.0 0.0 0.0
645028500.0 0.0 0.0 0.000266452 -0.000226433 0.0 0.0 0.0 0.0
660028000.0 0.0 0.0 0.000135571 -0.000579323 0.0 0.0 0.0 0.0
675027500.0 0.0 0.0 0.000129123 -0.000425272 0.0 0.0 0.0 0.0
690027000.0 0.0 0.0 -0.00012562 -0.000476615 0.0 0.0 0.0 0.0
705026500.0 0.0 0.0 -0.000117276 -0.000620748 0.0 0.0 0.0 0.0
720026000.0 0.0 0.0 3.8139e-05 -0.000393429 0.0 0.0 0.0 0.0
735025500.0 0.0 0.0 -0.000207245 -0.000821159 0.0 0.0 0.0 0.0
750025000.0 0.0 0.0 -8.6277e-05 -0.000269053 0.0 0.0 0.0 0.0
765024500.0 0.0 0.0 -4.513e-06 -0.000368624 0.0 0.0 0.0 0.0
780024000.0 0.0 0.0 0.000367422 -0.000504279 0.0 0.0 0.0 0.0
795023500.0 0.0 0.0 -6.2225e-05 -0.000675186 0.0 0.0 0.0 0.0
810023000.0 0.0 0.0 -0.00063769 -0.000229742 0.0 0.0 0.0 0.0
825022500.0 0.0 0.0 -0.00031489 -0.000593555 0.0 0.0 0.0 0.0
840022000.0 0.0 0.0 -0.000491893 0.000112648 0.0 0.0 0.0 0.0
855021500.0 0.0 0.0 -0.000529007 -0.000360739 0.0 0.0 0.0 0.0
870021000.0 0.0 0.0 0.00071262 -0.00023039 0.0 0.0 0.0 0.0
885020500.0 0.0 0.0 -0.000178815 -0.000336239 0.0 0.0 0.0 0.0
900020000.0 0.0 0.0 -0.001670911 0.002643008 0.0 0.0 0.0 0.0
915019500.0 0.0 0.0 0.000880618 -0.000500332 0.0 0.0 0.0 0.0
930019000.0 0.0 0.0 0.001424557 -0.000381244 0.0 0.0 0.0 0.0
945018500.0 0.0 0.0 0.000746389 3.6405e-05 0.0 0.0 0.0 0.0
960018000.0 0.0 0.0 0.000224787 -0.001192152 0.0 0.0 0.0 0.0
975017500.0 0.0 0.0 -0.000662923 -0.000911618 0.0 0.0 0.0 0.0
990017000.0 0.0 0.0 0.000167793 -0.000599856 0.0 0.0 0.0 0.0
1005016500.0 0.0 0.0 0.001494216 0.000393299 0.0 0.0 0.0 0.0
1020016000.0 0.0 0.0 0.001979183 -0.002371035 0.0 0.0 0.0 0.0
1035015500.0 0.0 0.0 0.001013182 0.00041704 0.0 0.0 0.0 0.0
1050015000.0 0.0 0.0 -0.000822959 0.000412852 0.0 0.0 0.0 0.0
1065014500.0 0.0 0.0 0.000916663 -0.000977393 0.0 0.0 0.0 0.0
1080014000.0 0.0 0.0 0.001082548 -0.001801663 0.0 0.0 0.0 0.0
1095013500.0 0.0 0.0 0.001142828 -0.000502016 0.0 0.0 0.0 0.0
1110013000.0 0.0 0.0 -0.001532463 -0.002261021 0.0 0.0 0.0 0.0
1125012500.0 0.0 0.0 0.000164587 -0.000369375 0.0 0.0 0.0 0.0
1140012000.0 0.0 0.0 -5.9185e-05 0.000362632 0.0 0.0 0.0 0.0
1155011500.0 0.0 0.0 -0.001361681 -0.003786711 0.0 0.0 0.0 0.0
1170011000.0 0.0 0.0 -0.002708468 -0.004866534 0.0 0.0 0.0 0.0
1185010500.0 0.0 0.0 0.001555967 -0.000668846 0.0 0.0 0.0 0.0
1200010000.0 0.0 0.0 0.000235918 -1.2973e-05 0.0 0.0 0.0 0.0
1215009500.0 0.0 0.0 -0.000653815 -0.003064121 0.0 0.0 0.0 0.0
1230009000.0 0.0 0.0 0.001914941 -0.000569918 0.0 0.0 0.0 0.0
1245008500.0 0.0 0.0 -0.001163425 0.005576436 0.0 0.0 0.0 0.0
1260008000.0 0.0 0.0 0.003150853 -0.00209207 0.0 0.0 0.0 0.0
1275007500.0 0.0 0.0 -0.000742655 -0.001417664 0.0 0.0 0.0 0.0
1290007000.0 0.0 0.0 0.003004991 0.002216973 0.0 0.0 0.0 0.0
1305006500.0 0.0 0.0 0.000991332 0.004940951 0.0 0.0 0.0 0.0
1320006000.0 0.0 0.0 -0.000921504 0.004521444 0.0 0.0 0.0 0.0
1335005500.0 0.0 0.0 0.002809625 -0.001751767 0.0 0.0 0.0 0.0
1350005000.0 0.0 0.0 0.010406498 0.00233829 0.0 0.0 0.0 0.0
1365004500.0 0.0 0.0 -0.003255675 -0.003601225 0.0 0.0 0.0 0.0
1380004000.0 0.0 0.0 -0.008548412 0.001781477 0.0 0.0 0.0 0.0
1395003500.0 0.0 0.0 0.001969838 0.00776462 0.0 0.0 0.0 0.0
1410003000.0 0.0 0.0 0.002701238 -0.002636071 0.0 0.0 0.0 0.0
1425002500.0 0.0 0.0 -0.003359922 -0.003961098 0.0 0.0 0.0 0.0
1440002000.0 0.0 0.0 -0.005760376 -0.000582789 0.0 0.0 0.0 0.0
1455001500.0 0.0 0.0 0.004719582 0.01288114 0.0 0.0 0.0 0.0
1470001000.0 0.0 0.0 0.015354232 0.001770727 0.0 0.0 0.0 0.0
1485000500.0 0.0 0.0 -0.004804092 0.006796154 0.0 0.0 0.0 0.0
1500000000.0 0.0 0.0 0.010812732 0.00047297 0.0 0.0 0.0 0.0
