! Created with skrf 1.8.0 (http://scikit-rf.org).
# Hz S RI R 50.0 
!freq ReS11 ImS11 ReS21 ImS21 ReS12 ImS12 ReS22 ImS22
50000.0 0.0 0.0 -0.816072192 -0.012252818 0.0 0.0 0.0 0.0
15049500.0 0.0 0.0 -0.786240384 0.201323472 0.0 0.0 0.0 0.0
30049000.0 0.0 0.0 -0.716067648 0.376814496 0.0 0.0 0.0 0.0
45048500.0 0.0 0.0 -0.607395712 0.530486528 0.0 0.0 0.0 0.0
60048000.0 0.0 0.0 -0.468908128 0.653448832 0.0 0.0 0.0 0.0
75047500.0 0.0 0.0 -0.308244896 0.739007744 0.0 0.0 0.0 0.0
90047000.0 0.0 0.0 -0.125820248 0.784907904 0.0 0.0 0.0 0.0
105046500.0 0.0 0.0 0.0551325 0.792004672 0.0 0.0 0.0 0.0
120046000.0 0.0 0.0 0.229308736 0.758578688 0.0 0.0 0.0 0.0
135045500.0 0.0 0.0 0.390807456 0.687060096 0.0 0.0 0.0 0.0
150045000.0 0.0 0.0 0.53315824 0.581865536 0.0 0.0 0.0 0.0
165044500.0 0.0 0.0 0.647650624 0.448936064 0.0 0.0 0.0 0.0
180044000.0 0.0 0.0 0.730885184 0.294826272 0.0 0.0 0.0 0.0
195043500.0 0.0 0.0 0.777842048 0.125981984 0.0 0.0 0.0 0.0
210043000.0 0.0 0.0 0.78574784 -0.049869932 0.0 0.0 0.0 0.0
225042500.0 0.0 0.0 0.753675136 -0.223247568 0.0 0.0 0.0 0.0
240042000.0 0.0 0.0 0.682794304 -0.385472896 0.0 0.0 0.0 0.0
255041500.0 0.0 0.0 0.576476224 -0.527078272 0.0 0.0 0.0 0.0
270041000.0 0.0 0.0 0.440523136 -0.6404256 0.0 0.0 0.0 0.0
285040500.0 0.0 0.0 0.284537152 -0.719167872 0.0 0.0 0.0 0.0
300040000.0 0.0 0.0 0.12925708 -0.759559232 0.0 0.0 0.0 0.0
315039500.0 0.0 0.0 -0.041219752 -0.76779168 0.0 0.0 0.0 0.0
330039000.0 0.0 0.0 -0.211675888 -0.737791616 0.0 0.0 0.0 0.0
345038500.0 0.0 0.0 -0.367689824 -0.66975744 0.0 0.0 0.0 0.0
360038000.0 0.0 0.0 -0.504789664 -0.573345344 0.0 0.0 0.0 0.0
375037500.0 0.0 0.0 -0.61826528 -0.447279616 0.0 0.0 0.0 0.0
390037000.0 0.0 0.0 -0.698670144 -0.302124736 0.0 0.0 0.0 0.0
405036500.0 0.0 0.0 -0.74436544 -0.140253744 0.0 0.0 0.0 0.0
420036000.0 0.0 0.0 -0.749459008 0.025848438 0.0 0.0 0.0 0.0
435035500.0 0.0 0.0 -0.714039296 0.19059264 0.0 0.0 0.0 0.0
450035000.0 0.0 0.0 -0.63936064 0.343469536 0.0 0.0 0.0 0.0
465034500.0 0.0 0.0 -0.537570432 0.473006208 0.0 0.0 0.0 0.0
480034000.0 0.0 0.0 -0.410156096 0.573141248 0.0 0.0 0.0 0.0
495033500.0 0.0 0.0 -0.268607328 0.642265792 0.0 0.0 0.0 0.0
510033000.0 0.0 0.0 -0.119385632 0.676489024 0.0 0.0 0.0 0.0
525032500.0 0.0 0.0 0.03186524 0.678810624 0.0 0.0 0.0 0.0
540032000.0 0.0 0.0 0.177702144 0.652803072 0.0 0.0 0.0 0.0
555031500.0 0.0 0.0 0.3132368 0.596039616 0.0 0.0 0.0 0.0
570031000.0 0.0 0.0 0.433518208 0.514044096 0.0 0.0 0.0 0.0
585030500.0 0.0 0.0 0.5342672 0.407314208 0.0 0.0 0.0 0.0
600030000.0 0.0 0.0 0.611173632 0.289202624 0.0 0.0 0.0 0.0
615029500.0 0.0 0.0 0.661200192 0.14589024 0.0 0.0 0.0 0.0
630029000.0 0.0 0.0 0.67548416 -0.00528859 0.0 0.0 0.0 0.0
645028500.0 0.0 0.0 0.654832192 -0.156849392 0.0 0.0 0.0 0.0
660028000.0 0.0 0.0 0.597881536 -0.30014528 0.0 0.0 0.0 0.0
675027500.0 0.0 0.0 0.5128904 -0.422755776 0.0 0.0 0.0 0.0
690027000.0 0.0 0.0 0.401521344 -0.519989376 0.0 0.0 0.0 0.0
705026500.0 0.0 0.0 0.273726624 -0.5897504 0.0 0.0 0.0 0.0
720026000.0 0.0 0.0 0.135671696 -0.629096448 0.0 0.0 0.0 0.0
735025500.0 0.0 0.0 -0.002172213 -0.635718464 0.0 0.0 0.0 0.0
750025000.0 0.0 0.0 -0.138978912 -0.61649856 0.0 0.0 0.0 0.0
765024500.0 0.0 0.0 -0.263571328 -0.567614272 0.0 0.0 0.0 0.0
780024000.0 0.0 0.0 -0.373757536 -0.503645952 0.0 0.0 0.0 0.0
795023500.0 0.0 0.0 -0.47548288 -0.39881344 0.0 0.0 0.0 0.0
810023000.0 0.0 0.0 -0.549650304 -0.28461568 0.0 0.0 0.0 0.0
825022500.0 0.0 0.0 -0.598840384 -0.153799216 0.0 0.0 0.0 0.0
840022000.0 0.0 0.0 -0.616099584 -0.015047198 0.0 0.0 0.0 0.0
855021500.0 0.0 0.0 -0.60286208 0.123432536 0.0 0.0 0.0 0.0
870021000.0 0.0 0.0 -0.557049216 0.256083968 0.0 0.0 0.0 0.0
885020500.0 0.0 0.0 -0.482256352 0.371962592 0.0 0.0 0.0 0.0
900020000.0 0.0 0.0 -0.368695776 0.477757312 0.0 0.0 0.0 0.0
915019500.0 0.0 0.0 -0.251773776 0.544644352 0.0 0.0 0.0 0.0
930019000.0 0.0 0.0 -0.135253504 0.581315072 0.0 0.0 0.0 0.0
945018500.0 0.0 0.0 -0.008583006 0.596544704 0.0 0.0 0.0 0.0
960018000.0 0.0 0.0 0.115967072 0.586675584 0.0 0.0 0.0 0.0
975017500.0 0.0 0.0 0.236893168 0.549616896 0.0 0.0 0.0 0.0
990017000.0 0.0 0.0 0.350112096 0.499273984 0.0 0.0 0.0 0.0
1005016500.0 0.0 0.0 0.456241888 0.421827104 0.0 0.0 0.0 0.0
1020016000.0 0.0 0.0 0.5469248 0.318102272 0.0 0.0 0.0 0.0
1035015500.0 0.0 0.0 0.613899584 0.19074432 0.0 0.0 0.0 0.0
1050015000.0 0.0 0.0 0.661503424 0.045752532 0.0 0.0 0.0 0.0
1065014500.0 0.0 0.0 0.662276608 -0.102903608 0.0 0.0 0.0 0.0
1080014000.0 0.0 0.0 0.630389824 -0.260681216 0.0 0.0 0.0 0.0
1095013500.0 0.0 0.0 0.56178624 -0.40658096 0.0 0.0 0.0 0.0
1110013000.0 0.0 0.0 0.454918816 -0.530246688 0.0 0.0 0.0 0.0
1125012500.0 0.0 0.0 0.32024 -0.621218944 0.0 0.0 0.0 0.0
1140012000.0 0.0 0.0 0.170920816 -0.694385152 0.0 0.0 0.0 0.0
1155011500.0 0.0 0.0 -0.014003788 -0.709091008 0.0 0.0 0.0 0.0
1170011000.0 0.0 0.0 -0.158814496 -0.7033104 0.0 0.0 0.0 0.0
1185010500.0 0.0 0.0 -0.311311744 -0.678793792 0.0 0.0 0.0 0.0
1200010000.0 0.0 0.0 -0.457711936 -0.60054016 0.0 0.0 0.0 0.0
1215009500.0 0.0 0.0 -0.609264192 -0.5047272 0.0 0.0 0.0 0.0
1230009000.0 0.0 0.0 -0.7271264 -0.36712272 0.0 0.0 0.0 0.0
1245008500.0 0.0 0.0 -0.800366784 -0.207937952 0.0 0.0 0.0 0.0
1260008000.0 0.0 0.0 -0.847666176 -0.022040088 0.0 0.0 0.0 0.0
1275007500.0 0.0 0.0 -0.856677696 0.168816448 0.0 0.0 0.0 0.0
1290007000.0 0.0 0.0 -0.809440896 0.36911984 0.0 0.0 0.0 0.0
1305006500.0 0.0 0.0 -0.713253248 0.558573568 0.0 0.0 0.0 0.0
1320006000.0 0.0 0.0 -0.58392256 0.68308704 0.0 0.0 0.0 0.0
1335005500.0 0.0 0.0 -0.423178688 0.798760064 0.0 0.0 0.0 0.0
1350005000.0 0.0 0.0 -0.24037536 0.88418624 0.0 0.0 0.0 0.0
1365004500.0 0.0 0.0 -0.05734492 0.954418432 0.0 0.0 0.0 0.0
1380004000.0 0.0 0.0 0.13871224 0.926645184 0.0 0.0 0.0 0.0
1395003500.0 0.0 0.0 0.313034208 0.881231232 0.0 0.0 0.0 0.0
1410003000.0 0.0 0.0 0.483061184 0.817113024 0.0 0.0 0.0 0.0
1425002500.0 0.0 0.0 0.643851968 0.720130176 0.0 0.0 0.0 0.0
1440002000.0 0.0 0.0 0.80201696 0.605163008 0.0 0.0 0.0 0.0
1455001500.0 0.0 0.0 0.913543808 0.446740544 0.0 0.0 0.0 0.0
1470001000.0 0.0 0.0 1.006425023 0.276996544 0.0 0.0 0.0 0.0
1485000500.0 0.0 0.0 1.04204464 0.070498928 0.0 0.0 0.0 0.0
1500000000.0 0.0 0.0 1.040742516 -0.14266824 0.0 0.0 0.0 0.0
