! Created with skrf 1.8.0 (http://scikit-rf.org).
# Hz S RI R 50.0 
!freq ReS11 ImS11 ReS21 ImS21 ReS12 ImS12 ReS22 ImS22
50000.0 0.0 0.0 -3.3057e-05 7.0851e-05 0.0 0.0 0.0 0.0
15049500.0 0.0 0.0 -3.8695e-05 1.083e-06 0.0 0.0 0.0 0.0
30049000.0 0.0 0.0 -3.8934e-05 1.0256e-05 0.0 0.0 0.0 0.0
45048500.0 0.0 0.0 -5.8247e-05 9.368e-06 0.0 0.0 0.0 0.0
60048000.0 0.0 0.0 -3.555e-05 -2.8726e-05 0.0 0.0 0.0 0.0
75047500.0 0.0 0.0 -4.0968e-05 -7.732e-06 0.0 0.0 0.0 0.0
90047000.0 0.0 0.0 -3.9222e-05 1.1567e-05 0.0 0.0 0.0 0.0
105046500.0 0.0 0.0 -6.5879e-05 9.002e-06 0.0 0.0 0.0 0.0
120046000.0 0.0 0.0 -1.2984e-05 5.85e-06 0.0 0.0 0.0 0.0
135045500.0 0.0 0.0 -2.4075e-05 2.134e-05 0.0 0.0 0.0 0.0
150045000.0 0.0 0.0 -4.1084e-05 3.4024e-05 0.0 0.0 0.0 0.0
165044500.0 0.0 0.0 1.2967e-05 1.1228e-05 0.0 0.0 0.0 0.0
180044000.0 0.0 0.0 -3.1833e-05 -1.1093e-05 0.0 0.0 0.0 0.0
195043500.0 0.0 0.0 -1.6663e-05 1.7326e-05 0.0 0.0 0.0 0.0
210043000.0 0.0 0.0 1.5924e-05 8.512e-06 0.0 0.0 0.0 0.0
225042500.0 0.0 0.0 -1.4272e-05 3.7075e-05 0.0 0.0 0.0 0.0
240042000.0 0.0 0.0 1.009e-05 3.9108e-05 0.0 0.0 0.0 0.0
255041500.0 0.0 0.0 -6.605e-06 4.0972e-05 0.0 0.0 0.0 0.0
270041000.0 0.0 0.0 1.2908e-05 1.4509e-05 0.0 0.0 0.0 0.0
285040500.0 0.0 0.0 2.2226e-05 2.3709e-05 0.0 0.0 0.0 0.0
300040000.0 0.0 0.0 0.000373879 0.000183258 0.0 0.0 0.0 0.0
315039500.0 0.0 0.0 -4.8114e-05 -0.000164224 0.0 0.0 0.0 0.0
330039000.0 0.0 0.0 -0.00017175 -4.9111e-05 0.0 0.0 0.0 0.0
345038500.0 0.0 0.0 0.00036921 -4.7527e-05 0.0 0.0 0.0 0.0
360038000.0 0.0 0.0 6.0871e-05 0.000200384 0.0 0.0 0.0 0.0
375037500.0 0.0 0.0 -3.7742e-05 -0.000300489 0.0 0.0 0.0 0.0
390037000.0 0.0 0.0 0.000449179 9.537e-05 0.0 0.0 0.0 0.0
405036500.0 0.0 0.0 8.9342e-05 -0.000281392 0.0 0.0 0.0 0.0
420036000.0 0.0 0.0 0.000298809 0.000738458 0.0 0.0 0.0 0.0
435035500.0 0.0 0.0 -9.4898e-05 0.000210345 0.0 0.0 0.0 0.0
450035000.0 0.0 0.0 0.000379965 8.8664e-05 0.0 0.0 0.0 0.0
465034500.0 0.0 0.0 0.000795157 -0.000332899 0.0 0.0 0.0 0.0
480034000.0 0.0 0.0 0.000437103 -0.000196089 0.0 0.0 0.0 0.0
495033500.0 0.0 0.0 0.000518721 -7.5984e-05 0.0 0.0 0.0 0.0
510033000.0 0.0 0.0 0.000489929 -2.6357e-05 0.0 0.0 0.0 0.0
525032500.0 0.0 0.0 0.000406568 -0.000135155 0.0 0.0 0.0 0.0
540032000.0 0.0 0.0 -0.000127827 -0.000331743 0.0 0.0 0.0 0.0
555031500.0 0.0 0.0 0.000576087 -0.000195339 0.0 0.0 0.0 0.0
570031000.0 0.0 0.0 9.9504e-05 -0.000196748 0.0 0.0 0.0 0.0
585030500.0 0.0 0.0 6.4351e-05 -0.000428832 0.0 0.0 0.0 0.0
600030000.0 0.0 0.0 -1.7589e-05 0.000172128 0.0 0.0 0.0 0.0
615029500.0 0.0 0.0 0.000141253 -0.000528731 0.0 0.0 0.0 0.0
630029000.0 0.0 0.0 -5.05e-05 -0.00042751 0.0 0.0 0.0 0.0
645028500.0 0.0 0.0 0.000450988 -0.00059994 0.0 0.0 0.0 0.0
660028000.0 0.0 0.0 -0.00024905 -0.000193296 0.0 0.0 0.0 0.0
675027500.0 0.0 0.0 0.000215947 -0.000391629 0.0 0.0 0.0 0.0
690027000.0 0.0 0.0 -0.00018613 -0.000553525 0.0 0.0 0.0 0.0
705026500.0 0.0 0.0 -0.000411251 -0.000504592 0.0 0.0 0.0 0.0
720026000.0 0.0 0.0 5.5365e-05 -0.000459593 0.0 0.0 0.0 0.0
735025500.0 0.0 0.0 3.4983e-05 -0.000384522 0.0 0.0 0.0 0.0
750025000.0 0.0 0.0 -4.7255e-05 -0.0001838 0.0 0.0 0.0 0.0
765024500.0 0.0 0.0 -0.000410683 -0.000645688 0.0 0.0 0.0 0.0
780024000.0 0.0 0.0 -0.000120905 -0.000665735 0.0 0.0 0.0 0.0
795023500.0 0.0 0.0 -0.000325082 -0.000490092 0.0 0.0 0.0 0.0
810023000.0 0.0 0.0 -0.000133841 -0.000835163 0.0 0.0 0.0 0.0
825022500.0 0.0 0.0 0.000142231 -0.00081836 0.0 0.0 0.0 0.0
840022000.0 0.0 0.0 -0.00042921 7.1665e-05 0.0 0.0 0.0 0.0
855021500.0 0.0 0.0 -5.4341e-05 -0.000509698 0.0 0.0 0.0 0.0
870021000.0 0.0 0.0 -0.000218947 -0.000342323 0.0 0.0 0.0 0.0
885020500.0 0.0 0.0 -2.4377e-05 -0.000223826 0.0 0.0 0.0 0.0
900020000.0 0.0 0.0 0.000207884 0.000185171 0.0 0.0 0.0 0.0
915019500.0 0.0 0.0 0.001660776 -0.002059726 0.0 0.0 0.0 0.0
930019000.0 0.0 0.0 0.001469948 -0.000812461 0.0 0.0 0.0 0.0
945018500.0 0.0 0.0 0.000893198 -0.001035182 0.0 0.0 0.0 0.0
960018000.0 0.0 0.0 0.002250505 -0.000843317 0.0 0.0 0.0 0.0
975017500.0 0.0 0.0 0.00036634 0.000173865 0.0 0.0 0.0 0.0
990017000.0 0.0 0.0 -0.000709962 0.000577447 0.0 0.0 0.0 0.0
1005016500.0 0.0 0.0 -0.0001695 -9.3539e-05 0.0 0.0 0.0 0.0
1020016000.0 0.0 0.0 -0.000494087 -0.00039467 0.0 0.0 0.0 0.0
1035015500.0 0.0 0.0 0.001066853 -0.00129612 0.0 0.0 0.0 0.0
1050015000.0 0.0 0.0 0.000327976 -0.001588026 0.0 0.0 0.0 0.0
1065014500.0 0.0 0.0 -0.000316739 -0.000910518 0.0 0.0 0.0 0.0
1080014000.0 0.0 0.0 0.000365581 -0.001510247 0.0 0.0 0.0 0.0
1095013500.0 0.0 0.0 0.001516823 -0.003534953 0.0 0.0 0.0 0.0
1110013000.0 0.0 0.0 -0.002764023 -0.001384753 0.0 0.0 0.0 0.0
1125012500.0 0.0 0.0 -0.002233375 -0.001721372 0.0 0.0 0.0 0.0
1140012000.0 0.0 0.0 -0.000142728 -0.000679099 0.0 0.0 0.0 0.0
1155011500.0 0.0 0.0 -0.000445669 -0.005057055 0.0 0.0 0.0 0.0
1170011000.0 0.0 0.0 -0.001150313 0.00217154 0.0 0.0 0.0 0.0
1185010500.0 0.0 0.0 -0.0069923 -0.001855489 0.0 0.0 0.0 0.0
1200010000.0 0.0 0.0 -0.000454976 -0.002387151 0.0 0.0 0.0 0.0
1215009500.0 0.0 0.0 0.00465693 -0.000614077 0.0 0.0 0.0 0.0
1230009000.0 0.0 0.0 -0.001896496 0.001900323 0.0 0.0 0.0 0.0
1245008500.0 0.0 0.0 4.2177e-05 0.003047634 0.0 0.0 0.0 0.0
1260008000.0 0.0 0.0 -0.000758907 0.002841453 0.0 0.0 0.0 0.0
1275007500.0 0.0 0.0 0.006702258 -0.001587322 0.0 0.0 0.0 0.0
1290007000.0 0.0 0.0 0.006110891 0.004753904 0.0 0.0 0.0 0.0
1305006500.0 0.0 0.0 -0.001344324 0.000679992 0.0 0.0 0.0 0.0
1320006000.0 0.0 0.0 0.000215622 0.001051634 0.0 0.0 0.0 0.0
1335005500.0 0.0 0.0 -0.007326888 -0.002664497 0.0 0.0 0.0 0.0
1350005000.0 0.0 0.0 -0.004465244 0.006806488 0.0 0.0 0.0 0.0
1365004500.0 0.0 0.0 0.006799565 0.001037096 0.0 0.0 0.0 0.0
1380004000.0 0.0 0.0 0.005539516 0.005049124 0.0 0.0 0.0 0.0
1395003500.0 0.0 0.0 -0.001091671 0.004304859 0.0 0.0 0.0 0.0
1410003000.0 0.0 0.0 1.9872e-05 -0.004416387 0.0 0.0 0.0 0.0
1425002500.0 0.0 0.0 0.009699482 -0.002355271 0.0 0.0 0.0 0.0
1440002000.0 0.0 0.0 0.001823398 0.003526027 0.0 0.0 0.0 0.0
1455001500.0 0.0 0.0 0.012133284 -0.004349374 0.0 0.0 0.0 0.0
1470001000.0 0.0 0.0 -0.008197066 -0.002708518 0.0 0.0 0.0 0.0
1485000500.0 0.0 0.0 0.006391261 -0.000365764 0.0 0.0 0.0 0.0
1500000000.0 0.0 0.0 0.003662452 0.003583551 0.0 0.0 0.0 0.0
