! Created with skrf 1.8.0 (http://scikit-rf.org).
# Hz S RI R 50.0 
!freq ReS11 ImS11 ReS21 ImS21 ReS12 ImS12 ReS22 ImS22
50000.0 0.0 0.0 -3.6373e-05 4.2598e-05 0.0 0.0 0.0 0.0
15049500.0 0.0 0.0 -2.3117e-05 7.486e-06 0.0 0.0 0.0 0.0
30049000.0 0.0 0.0 -6.2039e-05 -8.871e-06 0.0 0.0 0.0 0.0
45048500.0 0.0 0.0 -6.829e-06 -3.4273e-05 0.0 0.0 0.0 0.0
60048000.0 0.0 0.0 2.0747e-05 -4.435e-06 0.0 0.0 0.0 0.0
75047500.0 0.0 0.0 -6.9493e-05 -1.4173e-05 0.0 0.0 0.0 0.0
90047000.0 0.0 0.0 -4.4682e-05 1.9447e-05 0.0 0.0 0.0 0.0
105046500.0 0.0 0.0 -6.849e-05 2.1669e-05 0.0 0.0 0.0 0.0
120046000.0 0.0 0.0 -6.0345e-05 2.9877e-05 0.0 0.0 0.0 0.0
135045500.0 0.0 0.0 -5.6108e-05 5.3611e-05 0.0 0.0 0.0 0.0
150045000.0 0.0 0.0 -3.7198e-05 4.2332e-05 0.0 0.0 0.0 0.0
165044500.0 0.0 0.0 6.904e-06 2.5766e-05 0.0 0.0 0.0 0.0
180044000.0 0.0 0.0 3.2653e-05 4.423e-05 0.0 0.0 0.0 0.0
195043500.0 0.0 0.0 2.092e-06 -7.283e-06 0.0 0.0 0.0 0.0
210043000.0 0.0 0.0 -3.351e-06 4.6767e-05 0.0 0.0 0.0 0.0
225042500.0 0.0 0.0 3.79e-06 3.4735e-05 0.0 0.0 0.0 0.0
240042000.0 0.0 0.0 -1.5872e-05 7.4858e-05 0.0 0.0 0.0 0.0
255041500.0 0.0 0.0 2.3697e-05 2.9228e-05 0.0 0.0 0.0 0.0
270041000.0 0.0 0.0 -1.1768e-05 3.9508e-05 0.0 0.0 0.0 0.0
285040500.0 0.0 0.0 2.4297e-05 2.7442e-05 0.0 0.0 0.0 0.0
300040000.0 0.0 0.0 -0.000299687 -8.0156e-05 0.0 0.0 0.0 0.0
315039500.0 0.0 0.0 0.000235312 3.5775e-05 0.0 0.0 0.0 0.0
330039000.0 0.0 0.0 -0.000124406 0.000241174 0.0 0.0 0.0 0.0
345038500.0 0.0 0.0 0.000111395 -0.000355284 0.0 0.0 0.0 0.0
360038000.0 0.0 0.0 -0.00012879 -0.000138094 0.0 0.0 0.0 0.0
375037500.0 0.0 0.0 0.000246167 -0.000235412 0.0 0.0 0.0 0.0
390037000.0 0.0 0.0 5.227e-05 0.000450373 0.0 0.0 0.0 0.0
405036500.0 0.0 0.0 4.1021e-05 -4.3769e-05 0.0 0.0 0.0 0.0
420036000.0 0.0 0.0 0.00023421 -0.000663725 0.0 0.0 0.0 0.0
435035500.0 0.0 0.0 0.000367775 0.000386437 0.0 0.0 0.0 0.0
450035000.0 0.0 0.0 0.000290097 -0.000170308 0.0 0.0 0.0 0.0
465034500.0 0.0 0.0 -0.00021854 -1.557e-06 0.0 0.0 0.0 0.0
480034000.0 0.0 0.0 0.000615483 -0.000390775 0.0 0.0 0.0 0.0
495033500.0 0.0 0.0 0.000409508 -0.000546094 0.0 0.0 0.0 0.0
510033000.0 0.0 0.0 0.000723222 -2.3413e-05 0.0 0.0 0.0 0.0
525032500.0 0.0 0.0 2.957e-06 -7.5258e-05 0.0 0.0 0.0 0.0
540032000.0 0.0 0.0 0.000835681 -0.000214903 0.0 0.0 0.0 0.0
555031500.0 0.0 0.0 -0.000250435 -0.000411726 0.0 0.0 0.0 0.0
570031000.0 0.0 0.0 0.000253013 -0.000371293 0.0 0.0 0.0 0.0
585030500.0 0.0 0.0 8.8122e-05 -0.000992924 0.0 0.0 0.0 0.0
600030000.0 0.0 0.0 0.00016712 2.1482e-05 0.0 0.0 0.0 0.0
615029500.0 0.0 0.0 -0.000320367 -0.00053297 0.0 0.0 0.0 0.0
630029000.0 0.0 0.0 -0.000224883 -0.000461252 0.0 0.0 0.0 0.0
645028500.0 0.0 0.0 -0.000190964 -0.000414225 0.0 0.0 0.0 0.0
660028000.0 0.0 0.0 -0.000169607 -0.000213229 0.0 0.0 0.0 0.0
675027500.0 0.0 0.0 0.000107882 -0.000280845 0.0 0.0 0.0 0.0
690027000.0 0.0 0.0 0.000143908 -0.000331079 0.0 0.0 0.0 0.0
705026500.0 0.0 0.0 -0.000481997 -0.00040632 0.0 0.0 0.0 0.0
720026000.0 0.0 0.0 0.00018313 -0.000573719 0.0 0.0 0.0 0.0
735025500.0 0.0 0.0 -0.000100397 -0.000656654 0.0 0.0 0.0 0.0
750025000.0 0.0 0.0 -7.0797e-05 -0.000541596 0.0 0.0 0.0 0.0
765024500.0 0.0 0.0 3.5324e-05 -0.000471681 0.0 0.0 0.0 0.0
780024000.0 0.0 0.0 -0.000212875 -0.001095407 0.0 0.0 0.0 0.0
795023500.0 0.0 0.0 -0.00034237 -0.000569516 0.0 0.0 0.0 0.0
810023000.0 0.0 0.0 -0.000214336 -0.000108139 0.0 0.0 0.0 0.0
825022500.0 0.0 0.0 0.000206384 -0.000498025 0.0 0.0 0.0 0.0
840022000.0 0.0 0.0 -0.000233175 -0.001059914 0.0 0.0 0.0 0.0
855021500.0 0.0 0.0 0.0003864 -0.000265915 0.0 0.0 0.0 0.0
870021000.0 0.0 0.0 -2.2407e-05 -7.2074e-05 0.0 0.0 0.0 0.0
885020500.0 0.0 0.0 8.5294e-05 -0.00037278 0.0 0.0 0.0 0.0
900020000.0 0.0 0.0 0.001937836 0.001813925 0.0 0.0 0.0 0.0
915019500.0 0.0 0.0 -0.000808374 -7.6184e-05 0.0 0.0 0.0 0.0
930019000.0 0.0 0.0 0.000528425 0.000554128 0.0 0.0 0.0 0.0
945018500.0 0.0 0.0 -2.0304e-05 -0.001924203 0.0 0.0 0.0 0.0
960018000.0 0.0 0.0 -0.001841082 -0.000660963 0.0 0.0 0.0 0.0
975017500.0 0.0 0.0 0.002234028 0.001088246 0.0 0.0 0.0 0.0
990017000.0 0.0 0.0 -0.002489336 0.000572354 0.0 0.0 0.0 0.0
1005016500.0 0.0 0.0 -0.00030243 -0.000597642 0.0 0.0 0.0 0.0
1020016000.0 0.0 0.0 -0.000639053 0.001318908 0.0 0.0 0.0 0.0
1035015500.0 0.0 0.0 0.002471373 -0.000769782 0.0 0.0 0.0 0.0
1050015000.0 0.0 0.0 -0.000117103 -0.000335391 0.0 0.0 0.0 0.0
1065014500.0 0.0 0.0 0.00039176 -0.001466542 0.0 0.0 0.0 0.0
1080014000.0 0.0 0.0 0.000880355 -0.001704229 0.0 0.0 0.0 0.0
1095013500.0 0.0 0.0 0.003561953 0.000702782 0.0 0.0 0.0 0.0
1110013000.0 0.0 0.0 0.000320709 -0.003810478 0.0 0.0 0.0 0.0
1125012500.0 0.0 0.0 0.000150976 -0.003070398 0.0 0.0 0.0 0.0
1140012000.0 0.0 0.0 -0.001918548 -0.001284562 0.0 0.0 0.0 0.0
1155011500.0 0.0 0.0 -0.000220263 -0.000337787 0.0 0.0 0.0 0.0
1170011000.0 0.0 0.0 -0.000517484 0.004482666 0.0 0.0 0.0 0.0
1185010500.0 0.0 0.0 -0.001817825 0.001370284 0.0 0.0 0.0 0.0
1200010000.0 0.0 0.0 0.001888613 -0.002915346 0.0 0.0 0.0 0.0
1215009500.0 0.0 0.0 -0.000210078 0.000360528 0.0 0.0 0.0 0.0
1230009000.0 0.0 0.0 -0.000388152 0.005374309 0.0 0.0 0.0 0.0
1245008500.0 0.0 0.0 -0.006517056 0.004830024 0.0 0.0 0.0 0.0
1260008000.0 0.0 0.0 -0.000520865 0.000428445 0.0 0.0 0.0 0.0
1275007500.0 0.0 0.0 -0.002438869 0.006227946 0.0 0.0 0.0 0.0
1290007000.0 0.0 0.0 0.000178393 -0.002948375 0.0 0.0 0.0 0.0
1305006500.0 0.0 0.0 0.004004826 -0.003875726 0.0 0.0 0.0 0.0
1320006000.0 0.0 0.0 -0.00195808 0.008867134 0.0 0.0 0.0 0.0
1335005500.0 0.0 0.0 -0.00466567 0.002291639 0.0 0.0 0.0 0.0
1350005000.0 0.0 0.0 0.010701656 0.006463107 0.0 0.0 0.0 0.0
1365004500.0 0.0 0.0 0.011869822 0.006485033 0.0 0.0 0.0 0.0
1380004000.0 0.0 0.0 0.009551694 0.003831508 0.0 0.0 0.0 0.0
1395003500.0 0.0 0.0 0.002075254 0.001663183 0.0 0.0 0.0 0.0
1410003000.0 0.0 0.0 0.003202265 -0.009084808 0.0 0.0 0.0 0.0
1425002500.0 0.0 0.0 0.000839266 0.001346638 0.0 0.0 0.0 0.0
1440002000.0 0.0 0.0 -0.005015188 -0.000354957 0.0 0.0 0.0 0.0
1455001500.0 0.0 0.0 -0.003201997 -0.007219737 0.0 0.0 0.0 0.0
1470001000.0 0.0 0.0 0.014714506 0.008576826 0.0 0.0 0.0 0.0
1485000500.0 0.0 0.0 -0.009141666 -0.003260389 0.0 0.0 0.0 0.0
1500000000.0 0.0 0.0 0.010214084 -0.000386905 0.0 0.0 0.0 0.0
