! Created with skrf 1.8.0 (http://scikit-rf.org).
# Hz S RI R 50.0 
!freq ReS11 ImS11 ReS21 ImS21 ReS12 ImS12 ReS22 ImS22
50000.0 0.0 0.0 -0.8199152 -0.01310399 0.0 0.0 0.0 0.0
15049500.0 0.0 0.0 -0.78702176 0.201559952 0.0 0.0 0.0 0.0
30049000.0 0.0 0.0 -0.716943872 0.377003232 0.0 0.0 0.0 0.0
45048500.0 0.0 0.0 -0.608002496 0.53101008 0.0 0.0 0.0 0.0
60048000.0 0.0 0.0 -0.46945456 0.653832768 0.0 0.0 0.0 0.0
75047500.0 0.0 0.0 -0.308862208 0.739312064 0.0 0.0 0.0 0.0
90047000.0 0.0 0.0 -0.12626268 0.785070592 0.0 0.0 0.0 0.0
105046500.0 0.0 0.0 0.054341732 0.792326976 0.0 0.0 0.0 0.0
120046000.0 0.0 0.0 0.228440864 0.759061376 0.0 0.0 0.0 0.0
135045500.0 0.0 0.0 0.390020224 0.687983424 0.0 0.0 0.0 0.0
150045000.0 0.0 0.0 0.532063008 0.583174144 0.0 0.0 0.0 0.0
165044500.0 0.0 0.0 0.647687168 0.451012096 0.0 0.0 0.0 0.0
180044000.0 0.0 0.0 0.730950208 0.296810336 0.0 0.0 0.0 0.0
195043500.0 0.0 0.0 0.778513408 0.127862632 0.0 0.0 0.0 0.0
210043000.0 0.0 0.0 0.78693376 -0.048590564 0.0 0.0 0.0 0.0
225042500.0 0.0 0.0 0.755144448 -0.22274072 0.0 0.0 0.0 0.0
240042000.0 0.0 0.0 0.6836736 -0.385652352 0.0 0.0 0.0 0.0
255041500.0 0.0 0.0 0.576962112 -0.528086304 0.0 0.0 0.0 0.0
270041000.0 0.0 0.0 0.440639552 -0.641709504 0.0 0.0 0.0 0.0
285040500.0 0.0 0.0 0.283464992 -0.719216256 0.0 0.0 0.0 0.0
300040000.0 0.0 0.0 0.130795672 -0.760685632 0.0 0.0 0.0 0.0
315039500.0 0.0 0.0 -0.042043072 -0.76874944 0.0 0.0 0.0 0.0
330039000.0 0.0 0.0 -0.210240464 -0.739648384 0.0 0.0 0.0 0.0
345038500.0 0.0 0.0 -0.368184096 -0.673341504 0.0 0.0 0.0 0.0
360038000.0 0.0 0.0 -0.504911232 -0.57276992 0.0 0.0 0.0 0.0
375037500.0 0.0 0.0 -0.617898112 -0.447664544 0.0 0.0 0.0 0.0
390037000.0 0.0 0.0 -0.695939264 -0.300784384 0.0 0.0 0.0 0.0
405036500.0 0.0 0.0 -0.745550592 -0.140286752 0.0 0.0 0.0 0.0
420036000.0 0.0 0.0 -0.750921088 0.025782452 0.0 0.0 0.0 0.0
435035500.0 0.0 0.0 -0.715634176 0.190921072 0.0 0.0 0.0 0.0
450035000.0 0.0 0.0 -0.642427456 0.345670336 0.0 0.0 0.0 0.0
465034500.0 0.0 0.0 -0.538010432 0.474170336 0.0 0.0 0.0 0.0
480034000.0 0.0 0.0 -0.4114 0.574483136 0.0 0.0 0.0 0.0
495033500.0 0.0 0.0 -0.268232976 0.643733632 0.0 0.0 0.0 0.0
510033000.0 0.0 0.0 -0.118016448 0.67798624 0.0 0.0 0.0 0.0
525032500.0 0.0 0.0 0.03127008 0.683034304 0.0 0.0 0.0 0.0
540032000.0 0.0 0.0 0.177415024 0.653413056 0.0 0.0 0.0 0.0
555031500.0 0.0 0.0 0.312556704 0.59775968 0.0 0.0 0.0 0.0
570031000.0 0.0 0.0 0.434186912 0.515685984 0.0 0.0 0.0 0.0
585030500.0 0.0 0.0 0.532342976 0.408704544 0.0 0.0 0.0 0.0
600030000.0 0.0 0.0 0.61505408 0.29065088 0.0 0.0 0.0 0.0
615029500.0 0.0 0.0 0.663235456 0.147808048 0.0 0.0 0.0 0.0
630029000.0 0.0 0.0 0.678460416 -0.003464096 0.0 0.0 0.0 0.0
645028500.0 0.0 0.0 0.65805792 -0.15671408 0.0 0.0 0.0 0.0
660028000.0 0.0 0.0 0.60304864 -0.297554784 0.0 0.0 0.0 0.0
675027500.0 0.0 0.0 0.515401664 -0.423449472 0.0 0.0 0.0 0.0
690027000.0 0.0 0.0 0.405497536 -0.522759328 0.0 0.0 0.0 0.0
705026500.0 0.0 0.0 0.275790208 -0.591559744 0.0 0.0 0.0 0.0
720026000.0 0.0 0.0 0.139013568 -0.631057664 0.0 0.0 0.0 0.0
735025500.0 0.0 0.0 -0.001163659 -0.641277888 0.0 0.0 0.0 0.0
750025000.0 0.0 0.0 -0.136457184 -0.618409408 0.0 0.0 0.0 0.0
765024500.0 0.0 0.0 -0.264342992 -0.571877504 0.0 0.0 0.0 0.0
780024000.0 0.0 0.0 -0.389955648 -0.49303712 0.0 0.0 0.0 0.0
795023500.0 0.0 0.0 -0.476297568 -0.401314272 0.0 0.0 0.0 0.0
810023000.0 0.0 0.0 -0.551454912 -0.288078592 0.0 0.0 0.0 0.0
825022500.0 0.0 0.0 -0.600973376 -0.156053216 0.0 0.0 0.0 0.0
840022000.0 0.0 0.0 -0.620121472 -0.017939006 0.0 0.0 0.0 0.0
855021500.0 0.0 0.0 -0.607710272 0.12261608 0.0 0.0 0.0 0.0
870021000.0 0.0 0.0 -0.564067648 0.255926608 0.0 0.0 0.0 0.0
885020500.0 0.0 0.0 -0.488895552 0.374319776 0.0 0.0 0.0 0.0
900020000.0 0.0 0.0 -0.374260032 0.480790976 0.0 0.0 0.0 0.0
915019500.0 0.0 0.0 -0.258678288 0.541331648 0.0 0.0 0.0 0.0
930019000.0 0.0 0.0 -0.133534208 0.587876864 0.0 0.0 0.0 0.0
945018500.0 0.0 0.0 -0.006023951 0.606160832 0.0 0.0 0.0 0.0
960018000.0 0.0 0.0 0.114365304 0.595616704 0.0 0.0 0.0 0.0
975017500.0 0.0 0.0 0.233922704 0.563180544 0.0 0.0 0.0 0.0
990017000.0 0.0 0.0 0.355548896 0.502410304 0.0 0.0 0.0 0.0
1005016500.0 0.0 0.0 0.457966656 0.424268064 0.0 0.0 0.0 0.0
1020016000.0 0.0 0.0 0.549240128 0.32104944 0.0 0.0 0.0 0.0
1035015500.0 0.0 0.0 0.620488256 0.192735024 0.0 0.0 0.0 0.0
1050015000.0 0.0 0.0 0.66336448 0.043320732 0.0 0.0 0.0 0.0
1065014500.0 0.0 0.0 0.67335296 -0.107030768 0.0 0.0 0.0 0.0
1080014000.0 0.0 0.0 0.641220928 -0.263530368 0.0 0.0 0.0 0.0
1095013500.0 0.0 0.0 0.573695424 -0.411519712 0.0 0.0 0.0 0.0
1110013000.0 0.0 0.0 0.458386208 -0.542540544 0.0 0.0 0.0 0.0
1125012500.0 0.0 0.0 0.325270208 -0.636761216 0.0 0.0 0.0 0.0
1140012000.0 0.0 0.0 0.17018856 -0.696497536 0.0 0.0 0.0 0.0
1155011500.0 0.0 0.0 -0.024051776 -0.738794176 0.0 0.0 0.0 0.0
1170011000.0 0.0 0.0 -0.17384472 -0.741553664 0.0 0.0 0.0 0.0
1185010500.0 0.0 0.0 -0.322161568 -0.685937536 0.0 0.0 0.0 0.0
1200010000.0 0.0 0.0 -0.475638464 -0.617232768 0.0 0.0 0.0 0.0
1215009500.0 0.0 0.0 -0.62134816 -0.50695712 0.0 0.0 0.0 0.0
1230009000.0 0.0 0.0 -0.737887936 -0.37824192 0.0 0.0 0.0 0.0
1245008500.0 0.0 0.0 -0.827100096 -0.21044776 0.0 0.0 0.0 0.0
1260008000.0 0.0 0.0 -0.87592896 -0.027053592 0.0 0.0 0.0 0.0
1275007500.0 0.0 0.0 -0.882805056 0.176429456 0.0 0.0 0.0 0.0
1290007000.0 0.0 0.0 -0.837893696 0.363568384 0.0 0.0 0.0 0.0
1305006500.0 0.0 0.0 -0.747407168 0.564805888 0.0 0.0 0.0 0.0
1320006000.0 0.0 0.0 -0.6220784 0.700974208 0.0 0.0 0.0 0.0
1335005500.0 0.0 0.0 -0.424043552 0.846928768 0.0 0.0 0.0 0.0
1350005000.0 0.0 0.0 -0.245293424 0.896375232 0.0 0.0 0.0 0.0
1365004500.0 0.0 0.0 -0.083847624 1.019671082 0.0 0.0 0.0 0.0
1380004000.0 0.0 0.0 0.118918728 0.949878912 0.0 0.0 0.0 0.0
1395003500.0 0.0 0.0 0.28677168 0.905758336 0.0 0.0 0.0 0.0
1410003000.0 0.0 0.0 0.481071744 0.84965024 0.0 0.0 0.0 0.0
1425002500.0 0.0 0.0 0.64012032 0.755467456 0.0 0.0 0.0 0.0
1440002000.0 0.0 0.0 0.77372384 0.6295856 0.0 0.0 0.0 0.0
1455001500.0 0.0 0.0 0.933157248 0.473591296 0.0 0.0 0.0 0.0
1470001000.0 0.0 0.0 0.985205888 0.292775904 0.0 0.0 0.0 0.0
1485000500.0 0.0 0.0 1.031064868 0.106747184 0.0 0.0 0.0 0.0
1500000000.0 0.0 0.0 1.051375152 -0.104044656 0.0 0.0 0.0 0.0
