! Created with skrf 1.8.0 (http://scikit-rf.org).
# Hz S RI R 50.0 
!freq ReS11 ImS11 ReS21 ImS21 ReS12 ImS12 ReS22 ImS22
50000.0 0.0 0.0 5.0734e-05 -5.238e-06 0.0 0.0 0.0 0.0
15049500.0 0.0 0.0 -3.4005e-05 9.114e-06 0.0 0.0 0.0 0.0
30049000.0 0.0 0.0 -1.2667e-05 -6.754e-06 0.0 0.0 0.0 0.0
45048500.0 0.0 0.0 -1.8984e-05 3.836e-06 0.0 0.0 0.0 0.0
60048000.0 0.0 0.0 4.315e-06 -3.4354e-05 0.0 0.0 0.0 0.0
75047500.0 0.0 0.0 -8.0539e-05 4.546e-06 0.0 0.0 0.0 0.0
90047000.0 0.0 0.0 -7.9034e-05 7.065e-06 0.0 0.0 0.0 0.0
105046500.0 0.0 0.0 -4.2569e-05 1.237e-05 0.0 0.0 0.0 0.0
120046000.0 0.0 0.0 -2.4222e-05 1.8776e-05 0.0 0.0 0.0 0.0
135045500.0 0.0 0.0 -2.0655e-05 2.4255e-05 0.0 0.0 0.0 0.0
150045000.0 0.0 0.0 -4.2955e-05 1.484e-05 0.0 0.0 0.0 0.0
165044500.0 0.0 0.0 -2.594e-05 1.052e-05 0.0 0.0 0.0 0.0
180044000.0 0.0 0.0 -2.2108e-05 2.0607e-05 0.0 0.0 0.0 0.0
195043500.0 0.0 0.0 -4.2236e-05 4.6702e-05 0.0 0.0 0.0 0.0
210043000.0 0.0 0.0 -8.845e-06 5.0896e-05 0.0 0.0 0.0 0.0
225042500.0 0.0 0.0 -1.4947e-05 5.3279e-05 0.0 0.0 0.0 0.0
240042000.0 0.0 0.0 4.6505e-05 3.5177e-05 0.0 0.0 0.0 0.0
255041500.0 0.0 0.0 2.5036e-05 8.204e-06 0.0 0.0 0.0 0.0
270041000.0 0.0 0.0 1.5103e-05 1.771e-05 0.0 0.0 0.0 0.0
285040500.0 0.0 0.0 9.521e-06 3.2671e-05 0.0 0.0 0.0 0.0
300040000.0 0.0 0.0 -8.1304e-05 -3.6963e-05 0.0 0.0 0.0 0.0
315039500.0 0.0 0.0 0.000213299 -0.00017891 0.0 0.0 0.0 0.0
330039000.0 0.0 0.0 -0.000172639 -0.000216838 0.0 0.0 0.0 0.0
345038500.0 0.0 0.0 -1.0801e-05 -1.2205e-05 0.0 0.0 0.0 0.0
360038000.0 0.0 0.0 -3.9289e-05 0.000156721 0.0 0.0 0.0 0.0
375037500.0 0.0 0.0 0.0002865 -0.000190025 0.0 0.0 0.0 0.0
390037000.0 0.0 0.0 0.000161987 -0.000119737 0.0 0.0 0.0 0.0
405036500.0 0.0 0.0 0.000238893 -7.0696e-05 0.0 0.0 0.0 0.0
420036000.0 0.0 0.0 7.4513e-05 -6.3674e-05 0.0 0.0 0.0 0.0
435035500.0 0.0 0.0 -0.000231446 0.000216245 0.0 0.0 0.0 0.0
450035000.0 0.0 0.0 0.000664829 0.00040587 0.0 0.0 0.0 0.0
465034500.0 0.0 0.0 -4.245e-05 -7.367e-05 0.0 0.0 0.0 0.0
480034000.0 0.0 0.0 0.000563958 -0.000192515 0.0 0.0 0.0 0.0
495033500.0 0.0 0.0 0.000145989 0.000201013 0.0 0.0 0.0 0.0
510033000.0 0.0 0.0 0.000825751 -0.000625732 0.0 0.0 0.0 0.0
525032500.0 0.0 0.0 0.000624667 -0.000248278 0.0 0.0 0.0 0.0
540032000.0 0.0 0.0 0.000441357 -0.000164577 0.0 0.0 0.0 0.0
555031500.0 0.0 0.0 -0.000161608 -0.00014051 0.0 0.0 0.0 0.0
570031000.0 0.0 0.0 0.000173589 -0.000282567 0.0 0.0 0.0 0.0
585030500.0 0.0 0.0 0.000125147 -0.000588 0.0 0.0 0.0 0.0
600030000.0 0.0 0.0 0.000638619 -0.000499705 0.0 0.0 0.0 0.0
615029500.0 0.0 0.0 -3.7773e-05 -0.000205189 0.0 0.0 0.0 0.0
630029000.0 0.0 0.0 4.1513e-05 -0.000611195 0.0 0.0 0.0 0.0
645028500.0 0.0 0.0 6.163e-05 -0.000138588 0.0 0.0 0.0 0.0
660028000.0 0.0 0.0 0.000249768 -0.00018188 0.0 0.0 0.0 0.0
675027500.0 0.0 0.0 0.000283693 -0.00048615 0.0 0.0 0.0 0.0
690027000.0 0.0 0.0 -0.000167742 -0.000502353 0.0 0.0 0.0 0.0
705026500.0 0.0 0.0 8.4653e-05 -0.000341714 0.0 0.0 0.0 0.0
720026000.0 0.0 0.0 -0.00014603 -0.000664303 0.0 0.0 0.0 0.0
735025500.0 0.0 0.0 -2.6165e-05 -0.000510311 0.0 0.0 0.0 0.0
750025000.0 0.0 0.0 7.944e-06 -0.000173482 0.0 0.0 0.0 0.0
765024500.0 0.0 0.0 7.392e-06 -0.000256327 0.0 0.0 0.0 0.0
780024000.0 0.0 0.0 -0.000107274 -0.00065173 0.0 0.0 0.0 0.0
795023500.0 0.0 0.0 0.000195505 -0.000550466 0.0 0.0 0.0 0.0
810023000.0 0.0 0.0 -4.429e-05 -0.000231146 0.0 0.0 0.0 0.0
825022500.0 0.0 0.0 -0.000234064 -0.00015659 0.0 0.0 0.0 0.0
840022000.0 0.0 0.0 0.00034451 -8.0757e-05 0.0 0.0 0.0 0.0
855021500.0 0.0 0.0 0.000262184 -0.000588638 0.0 0.0 0.0 0.0
870021000.0 0.0 0.0 -0.00013839 -0.000799843 0.0 0.0 0.0 0.0
885020500.0 0.0 0.0 -2.5833e-05 -4.15e-05 0.0 0.0 0.0 0.0
900020000.0 0.0 0.0 0.002491339 -0.001909021 0.0 0.0 0.0 0.0
915019500.0 0.0 0.0 0.001717127 -0.001061156 0.0 0.0 0.0 0.0
930019000.0 0.0 0.0 0.002006433 -0.001885356 0.0 0.0 0.0 0.0
945018500.0 0.0 0.0 -0.000141048 -0.001571263 0.0 0.0 0.0 0.0
960018000.0 0.0 0.0 0.000170108 -0.001580219 0.0 0.0 0.0 0.0
975017500.0 0.0 0.0 0.00029944 -0.000297944 0.0 0.0 0.0 0.0
990017000.0 0.0 0.0 0.000554648 -5.5414e-05 0.0 0.0 0.0 0.0
1005016500.0 0.0 0.0 -0.001164676 -0.000562862 0.0 0.0 0.0 0.0
1020016000.0 0.0 0.0 0.000306227 -0.001570667 0.0 0.0 0.0 0.0
1035015500.0 0.0 0.0 -0.00030142 -0.004603434 0.0 0.0 0.0 0.0
1050015000.0 0.0 0.0 0.001619607 0.000369069 0.0 0.0 0.0 0.0
1065014500.0 0.0 0.0 0.000624263 -0.003194208 0.0 0.0 0.0 0.0
1080014000.0 0.0 0.0 -0.001989264 -0.002972278 0.0 0.0 0.0 0.0
1095013500.0 0.0 0.0 0.002439694 -0.004246305 0.0 0.0 0.0 0.0
1110013000.0 0.0 0.0 -0.000951834 -0.003222064 0.0 0.0 0.0 0.0
1125012500.0 0.0 0.0 -0.002558216 -0.000331176 0.0 0.0 0.0 0.0
1140012000.0 0.0 0.0 -0.005372977 -0.000823853 0.0 0.0 0.0 0.0
1155011500.0 0.0 0.0 -0.000506582 -0.000222464 0.0 0.0 0.0 0.0
1170011000.0 0.0 0.0 -0.002206092 0.003225242 0.0 0.0 0.0 0.0
1185010500.0 0.0 0.0 -0.005874895 0.001950925 0.0 0.0 0.0 0.0
1200010000.0 0.0 0.0 -0.000305024 0.004576296 0.0 0.0 0.0 0.0
1215009500.0 0.0 0.0 0.003757248 0.002410599 0.0 0.0 0.0 0.0
1230009000.0 0.0 0.0 -0.001804948 -0.002605621 0.0 0.0 0.0 0.0
1245008500.0 0.0 0.0 -0.001194881 0.002584192 0.0 0.0 0.0 0.0
1260008000.0 0.0 0.0 -0.003259347 -0.001820975 0.0 0.0 0.0 0.0
1275007500.0 0.0 0.0 -0.000361875 -0.003444392 0.0 0.0 0.0 0.0
1290007000.0 0.0 0.0 0.001417092 -0.002121775 0.0 0.0 0.0 0.0
1305006500.0 0.0 0.0 -0.000986008 0.007740119 0.0 0.0 0.0 0.0
1320006000.0 0.0 0.0 0.003501639 -0.00074242 0.0 0.0 0.0 0.0
1335005500.0 0.0 0.0 0.000836916 -0.000663258 0.0 0.0 0.0 0.0
1350005000.0 0.0 0.0 0.001536047 0.001858304 0.0 0.0 0.0 0.0
1365004500.0 0.0 0.0 0.01004307 0.009042182 0.0 0.0 0.0 0.0
1380004000.0 0.0 0.0 0.003952845 -0.000424416 0.0 0.0 0.0 0.0
1395003500.0 0.0 0.0 -0.002279455 -0.001195861 0.0 0.0 0.0 0.0
1410003000.0 0.0 0.0 0.01145712 0.01175244 0.0 0.0 0.0 0.0
1425002500.0 0.0 0.0 0.007010592 -0.007353391 0.0 0.0 0.0 0.0
1440002000.0 0.0 0.0 0.018826996 0.008967198 0.0 0.0 0.0 0.0
1455001500.0 0.0 0.0 0.008845976 0.01514888 0.0 0.0 0.0 0.0
1470001000.0 0.0 0.0 0.003564009 -0.001892942 0.0 0.0 0.0 0.0
1485000500.0 0.0 0.0 0.003744489 -0.001206519 0.0 0.0 0.0 0.0
1500000000.0 0.0 0.0 0.017670076 -0.01009798 0.0 0.0 0.0 0.0
