! Created with skrf 1.8.0 (http://scikit-rf.org).
# Hz S RI R 50.0 
!freq ReS11 ImS11 ReS21 ImS21 ReS12 ImS12 ReS22 ImS22
50000.0 0.0 0.0 -5.4582e-05 -3.055e-05 0.0 0.0 0.0 0.0
15049500.0 0.0 0.0 -1.8176e-05 -1.18e-06 0.0 0.0 0.0 0.0
30049000.0 0.0 0.0 -4.6364e-05 2.3487e-05 0.0 0.0 0.0 0.0
45048500.0 0.0 0.0 -6.9077e-05 1.448e-05 0.0 0.0 0.0 0.0
60048000.0 0.0 0.0 -3.4748e-05 -1.4118e-05 0.0 0.0 0.0 0.0
75047500.0 0.0 0.0 -3.6281e-05 -1.9402e-05 0.0 0.0 0.0 0.0
90047000.0 0.0 0.0 -6.1769e-05 -2.2348e-05 0.0 0.0 0.0 0.0
105046500.0 0.0 0.0 -7.4869e-05 -2.2307e-05 0.0 0.0 0.0 0.0
120046000.0 0.0 0.0 -4.9222e-05 3.117e-05 0.0 0.0 0.0 0.0
135045500.0 0.0 0.0 -1.6034e-05 5.511e-06 0.0 0.0 0.0 0.0
150045000.0 0.0 0.0 -3.705e-05 5.9174e-05 0.0 0.0 0.0 0.0
165044500.0 0.0 0.0 -1.0211e-05 3.1463e-05 0.0 0.0 0.0 0.0
180044000.0 0.0 0.0 -2.7896e-05 1.0087e-05 0.0 0.0 0.0 0.0
195043500.0 0.0 0.0 -2.9063e-05 2.2773e-05 0.0 0.0 0.0 0.0
210043000.0 0.0 0.0 -1.6212e-05 4.5338e-05 0.0 0.0 0.0 0.0
225042500.0 0.0 0.0 2.4779e-05 6.3904e-05 0.0 0.0 0.0 0.0
240042000.0 0.0 0.0 -5.072e-06 8.5826e-05 0.0 0.0 0.0 0.0
255041500.0 0.0 0.0 3.7782e-05 5.7439e-05 0.0 0.0 0.0 0.0
270041000.0 0.0 0.0 3.5571e-05 5.0552e-05 0.0 0.0 0.0 0.0
285040500.0 0.0 0.0 5.8959e-05 4.0343e-05 0.0 0.0 0.0 0.0
300040000.0 0.0 0.0 -7.3337e-05 -0.000128714 0.0 0.0 0.0 0.0
315039500.0 0.0 0.0 0.000228892 -0.000259638 0.0 0.0 0.0 0.0
330039000.0 0.0 0.0 -1.2646e-05 0.000112112 0.0 0.0 0.0 0.0
345038500.0 0.0 0.0 2.9078e-05 0.00014274 0.0 0.0 0.0 0.0
360038000.0 0.0 0.0 -8.704e-06 0.00012437 0.0 0.0 0.0 0.0
375037500.0 0.0 0.0 -6.5247e-05 -6.418e-05 0.0 0.0 0.0 0.0
390037000.0 0.0 0.0 0.00030891 4.3489e-05 0.0 0.0 0.0 0.0
405036500.0 0.0 0.0 0.000488137 -0.000100688 0.0 0.0 0.0 0.0
420036000.0 0.0 0.0 0.000428758 -7.4246e-05 0.0 0.0 0.0 0.0
435035500.0 0.0 0.0 0.000326544 -0.000155503 0.0 0.0 0.0 0.0
450035000.0 0.0 0.0 6.0217e-05 -5.5579e-05 0.0 0.0 0.0 0.0
465034500.0 0.0 0.0 0.000213177 0.000136473 0.0 0.0 0.0 0.0
480034000.0 0.0 0.0 0.000469298 -0.000238731 0.0 0.0 0.0 0.0
495033500.0 0.0 0.0 0.000301864 -0.000416068 0.0 0.0 0.0 0.0
510033000.0 0.0 0.0 0.000177049 -0.000256769 0.0 0.0 0.0 0.0
525032500.0 0.0 0.0 0.00046275 -0.000415547 0.0 0.0 0.0 0.0
540032000.0 0.0 0.0 0.00031741 -0.000155549 0.0 0.0 0.0 0.0
555031500.0 0.0 0.0 0.000172517 -0.000368739 0.0 0.0 0.0 0.0
570031000.0 0.0 0.0 9.7579e-05 -0.000106027 0.0 0.0 0.0 0.0
585030500.0 0.0 0.0 0.000380352 -0.000343024 0.0 0.0 0.0 0.0
600030000.0 0.0 0.0 -2.0713e-05 -0.001043049 0.0 0.0 0.0 0.0
615029500.0 0.0 0.0 0.000203675 -0.000574729 0.0 0.0 0.0 0.0
630029000.0 0.0 0.0 0.000582304 -0.000502328 0.0 0.0 0.0 0.0
645028500.0 0.0 0.0 0.000261988 -0.000449792 0.0 0.0 0.0 0.0
660028000.0 0.0 0.0 -0.000219438 -0.000548809 0.0 0.0 0.0 0.0
675027500.0 0.0 0.0 9.9892e-05 -0.000410646 0.0 0.0 0.0 0.0
690027000.0 0.0 0.0 -0.000105643 -0.000689476 0.0 0.0 0.0 0.0
705026500.0 0.0 0.0 1.1313e-05 -0.000292479 0.0 0.0 0.0 0.0
720026000.0 0.0 0.0 -0.000559129 -0.000362893 0.0 0.0 0.0 0.0
735025500.0 0.0 0.0 -9.3505e-05 -0.000131864 0.0 0.0 0.0 0.0
750025000.0 0.0 0.0 -0.000271966 -0.000507644 0.0 0.0 0.0 0.0
765024500.0 0.0 0.0 -0.000147434 -0.000694658 0.0 0.0 0.0 0.0
780024000.0 0.0 0.0 0.000235842 -2.1191e-05 0.0 0.0 0.0 0.0
795023500.0 0.0 0.0 0.000443536 -0.000507408 0.0 0.0 0.0 0.0
810023000.0 0.0 0.0 -0.000366816 -0.000892555 0.0 0.0 0.0 0.0
825022500.0 0.0 0.0 -5.4392e-05 -0.000367339 0.0 0.0 0.0 0.0
840022000.0 0.0 0.0 -0.000264935 -8.4732e-05 0.0 0.0 0.0 0.0
855021500.0 0.0 0.0 -0.000267545 -0.000115239 0.0 0.0 0.0 0.0
870021000.0 0.0 0.0 6.806e-06 -0.000381124 0.0 0.0 0.0 0.0
885020500.0 0.0 0.0 -0.00040284 -0.000183134 0.0 0.0 0.0 0.0
900020000.0 0.0 0.0 -0.000710699 0.001294147 0.0 0.0 0.0 0.0
915019500.0 0.0 0.0 -0.001116053 -0.000463949 0.0 0.0 0.0 0.0
930019000.0 0.0 0.0 0.000728022 -0.00038977 0.0 0.0 0.0 0.0
945018500.0 0.0 0.0 0.000119672 -0.002753137 0.0 0.0 0.0 0.0
960018000.0 0.0 0.0 0.001180954 5.6994e-05 0.0 0.0 0.0 0.0
975017500.0 0.0 0.0 -0.000930647 1.4052e-05 0.0 0.0 0.0 0.0
990017000.0 0.0 0.0 0.000871246 4.9878e-05 0.0 0.0 0.0 0.0
1005016500.0 0.0 0.0 0.000695443 -0.00138731 0.0 0.0 0.0 0.0
1020016000.0 0.0 0.0 0.001208883 -0.000628428 0.0 0.0 0.0 0.0
1035015500.0 0.0 0.0 -0.00038668 -0.001749303 0.0 0.0 0.0 0.0
1050015000.0 0.0 0.0 0.001254435 -0.001737055 0.0 0.0 0.0 0.0
1065014500.0 0.0 0.0 0.00153721 -0.002104317 0.0 0.0 0.0 0.0
1080014000.0 0.0 0.0 0.001784076 -0.002264795 0.0 0.0 0.0 0.0
1095013500.0 0.0 0.0 -0.001172985 -0.003916789 0.0 0.0 0.0 0.0
1110013000.0 0.0 0.0 0.00181037 0.000678877 0.0 0.0 0.0 0.0
1125012500.0 0.0 0.0 0.000655931 0.001205428 0.0 0.0 0.0 0.0
1140012000.0 0.0 0.0 0.002619525 -0.000295657 0.0 0.0 0.0 0.0
1155011500.0 0.0 0.0 -0.000473088 -0.001654242 0.0 0.0 0.0 0.0
1170011000.0 0.0 0.0 -0.002420647 -0.002548862 0.0 0.0 0.0 0.0
1185010500.0 0.0 0.0 -0.00121659 0.000388986 0.0 0.0 0.0 0.0
1200010000.0 0.0 0.0 -0.001038014 0.004836817 0.0 0.0 0.0 0.0
1215009500.0 0.0 0.0 -0.00015379 -0.001544145 0.0 0.0 0.0 0.0
1230009000.0 0.0 0.0 0.002052054 0.00537673 0.0 0.0 0.0 0.0
1245008500.0 0.0 0.0 -0.00102013 0.000873116 0.0 0.0 0.0 0.0
1260008000.0 0.0 0.0 -0.002689329 0.001657451 0.0 0.0 0.0 0.0
1275007500.0 0.0 0.0 0.001235893 0.003870362 0.0 0.0 0.0 0.0
1290007000.0 0.0 0.0 0.001715665 0.001354208 0.0 0.0 0.0 0.0
1305006500.0 0.0 0.0 -0.000384017 -0.003059318 0.0 0.0 0.0 0.0
1320006000.0 0.0 0.0 0.003834699 0.006807674 0.0 0.0 0.0 0.0
1335005500.0 0.0 0.0 0.002991066 0.002449392 0.0 0.0 0.0 0.0
1350005000.0 0.0 0.0 -0.001511666 0.003485066 0.0 0.0 0.0 0.0
1365004500.0 0.0 0.0 0.011014884 0.005653759 0.0 0.0 0.0 0.0
1380004000.0 0.0 0.0 -0.005478257 0.006303781 0.0 0.0 0.0 0.0
1395003500.0 0.0 0.0 0.004526266 0.005241816 0.0 0.0 0.0 0.0
1410003000.0 0.0 0.0 -0.009759304 0.008952692 0.0 0.0 0.0 0.0
1425002500.0 0.0 0.0 -0.003991982 -0.001786565 0.0 0.0 0.0 0.0
1440002000.0 0.0 0.0 0.00934366 0.006804873 0.0 0.0 0.0 0.0
1455001500.0 0.0 0.0 0.01773774 0.002710987 0.0 0.0 0.0 0.0
1470001000.0 0.0 0.0 0.015661442 -0.011420828 0.0 0.0 0.0 0.0
1485000500.0 0.0 0.0 0.003378663 0.001876529 0.0 0.0 0.0 0.0
1500000000.0 0.0 0.0 0.01362084 0.006568305 0.0 0.0 0.0 0.0
