! Created with skrf 1.8.0 (http://scikit-rf.org).
# Hz S RI R 50.0 
!freq ReS11 ImS11 ReS21 ImS21 ReS12 ImS12 ReS22 ImS22
50000.0 0.0 0.0 -9.381e-06 -5.9448e-05 0.0 0.0 0.0 0.0
15049500.0 0.0 0.0 -2.2731e-05 -5.923e-06 0.0 0.0 0.0 0.0
30049000.0 0.0 0.0 -2.0537e-05 -1.333e-06 0.0 0.0 0.0 0.0
45048500.0 0.0 0.0 -1.7616e-05 -4.939e-06 0.0 0.0 0.0 0.0
60048000.0 0.0 0.0 -2.9421e-05 1.861e-06 0.0 0.0 0.0 0.0
75047500.0 0.0 0.0 -3.8226e-05 -4.3075e-05 0.0 0.0 0.0 0.0
90047000.0 0.0 0.0 -4.6865e-05 5.874e-06 0.0 0.0 0.0 0.0
105046500.0 0.0 0.0 -3.8623e-05 -2.0023e-05 0.0 0.0 0.0 0.0
120046000.0 0.0 0.0 -3.7618e-05 2.5544e-05 0.0 0.0 0.0 0.0
135045500.0 0.0 0.0 -7.3373e-05 2.9606e-05 0.0 0.0 0.0 0.0
150045000.0 0.0 0.0 -2.2822e-05 6.2235e-05 0.0 0.0 0.0 0.0
165044500.0 0.0 0.0 6.921e-06 5.5839e-05 0.0 0.0 0.0 0.0
180044000.0 0.0 0.0 4.726e-06 5.164e-06 0.0 0.0 0.0 0.0
195043500.0 0.0 0.0 -1.2889e-05 -1.682e-06 0.0 0.0 0.0 0.0
210043000.0 0.0 0.0 -1.7749e-05 3.319e-05 0.0 0.0 0.0 0.0
225042500.0 0.0 0.0 -1.6707e-05 2.3836e-05 0.0 0.0 0.0 0.0
240042000.0 0.0 0.0 8.97e-06 1.3179e-05 0.0 0.0 0.0 0.0
255041500.0 0.0 0.0 -1.3959e-05 2.3896e-05 0.0 0.0 0.0 0.0
270041000.0 0.0 0.0 -8.449e-06 2.2576e-05 0.0 0.0 0.0 0.0
285040500.0 0.0 0.0 2.5841e-05 2.4346e-05 0.0 0.0 0.0 0.0
300040000.0 0.0 0.0 3.5884e-05 3.7386e-05 0.0 0.0 0.0 0.0
315039500.0 0.0 0.0 -0.000116859 -8.3528e-05 0.0 0.0 0.0 0.0
330039000.0 0.0 0.0 0.000270976 -0.000124427 0.0 0.0 0.0 0.0
345038500.0 0.0 0.0 -0.000211018 -9.8138e-05 0.0 0.0 0.0 0.0
360038000.0 0.0 0.0 0.000318479 -5.159e-06 0.0 0.0 0.0 0.0
375037500.0 0.0 0.0 0.000301972 0.000335872 0.0 0.0 0.0 0.0
390037000.0 0.0 0.0 -0.00039927 0.000189981 0.0 0.0 0.0 0.0
405036500.0 0.0 0.0 4.962e-05 0.000432526 0.0 0.0 0.0 0.0
420036000.0 0.0 0.0 0.00076728 9.1334e-05 0.0 0.0 0.0 0.0
435035500.0 0.0 0.0 0.000440889 0.00019467 0.0 0.0 0.0 0.0
450035000.0 0.0 0.0 0.000113271 -5.7169e-05 0.0 0.0 0.0 0.0
465034500.0 0.0 0.0 0.000154082 0.000186512 0.0 0.0 0.0 0.0
480034000.0 0.0 0.0 0.000537094 0.000134589 0.0 0.0 0.0 0.0
495033500.0 0.0 0.0 0.000398538 -2.9726e-05 0.0 0.0 0.0 0.0
510033000.0 0.0 0.0 0.000160144 -0.000245473 0.0 0.0 0.0 0.0
525032500.0 0.0 0.0 0.000341698 -0.000595658 0.0 0.0 0.0 0.0
540032000.0 0.0 0.0 0.000301715 -0.000255577 0.0 0.0 0.0 0.0
555031500.0 0.0 0.0 0.000260636 3.5225e-05 0.0 0.0 0.0 0.0
570031000.0 0.0 0.0 -0.000208793 -0.000594673 0.0 0.0 0.0 0.0
585030500.0 0.0 0.0 0.000110976 -0.00060932 0.0 0.0 0.0 0.0
600030000.0 0.0 0.0 -0.000294306 -0.000832113 0.0 0.0 0.0 0.0
615029500.0 0.0 0.0 0.000850286 1.1253e-05 0.0 0.0 0.0 0.0
630029000.0 0.0 0.0 0.000377418 -0.000214726 0.0 0.0 0.0 0.0
645028500.0 0.0 0.0 1.1704e-05 -4.0988e-05 0.0 0.0 0.0 0.0
660028000.0 0.0 0.0 -0.000202975 -0.000240305 0.0 0.0 0.0 0.0
675027500.0 0.0 0.0 6.1296e-05 -0.000315364 0.0 0.0 0.0 0.0
690027000.0 0.0 0.0 -9.6632e-05 -0.000263945 0.0 0.0 0.0 0.0
705026500.0 0.0 0.0 0.000441314 -0.000242783 0.0 0.0 0.0 0.0
720026000.0 0.0 0.0 8.2539e-05 -0.000425712 0.0 0.0 0.0 0.0
735025500.0 0.0 0.0 -0.000259686 -0.000201061 0.0 0.0 0.0 0.0
750025000.0 0.0 0.0 -0.000120295 -0.000169716 0.0 0.0 0.0 0.0
765024500.0 0.0 0.0 -0.000234784 -0.000787671 0.0 0.0 0.0 0.0
780024000.0 0.0 0.0 -0.000312255 -0.000625434 0.0 0.0 0.0 0.0
795023500.0 0.0 0.0 -0.000402827 -0.000253517 0.0 0.0 0.0 0.0
810023000.0 0.0 0.0 -0.000220102 -0.000835514 0.0 0.0 0.0 0.0
825022500.0 0.0 0.0 3.9093e-05 -0.000622044 0.0 0.0 0.0 0.0
840022000.0 0.0 0.0 -0.000194289 -0.000578359 0.0 0.0 0.0 0.0
855021500.0 0.0 0.0 5.7417e-05 -0.000792693 0.0 0.0 0.0 0.0
870021000.0 0.0 0.0 0.00018631 6.4705e-05 0.0 0.0 0.0 0.0
885020500.0 0.0 0.0 -0.000123797 -0.000691331 0.0 0.0 0.0 0.0
900020000.0 0.0 0.0 0.001986984 -0.001924801 0.0 0.0 0.0 0.0
915019500.0 0.0 0.0 0.001502892 -0.001436305 0.0 0.0 0.0 0.0
930019000.0 0.0 0.0 0.00139798 -0.002607988 0.0 0.0 0.0 0.0
945018500.0 0.0 0.0 0.000514544 -0.002672735 0.0 0.0 0.0 0.0
960018000.0 0.0 0.0 0.000398029 -0.000925368 0.0 0.0 0.0 0.0
975017500.0 0.0 0.0 -1.4526e-05 9.8205e-05 0.0 0.0 0.0 0.0
990017000.0 0.0 0.0 0.000863417 -0.000250873 0.0 0.0 0.0 0.0
1005016500.0 0.0 0.0 0.000532669 0.000184226 0.0 0.0 0.0 0.0
1020016000.0 0.0 0.0 3.701e-06 -0.000317291 0.0 0.0 0.0 0.0
1035015500.0 0.0 0.0 0.001205852 -0.002157368 0.0 0.0 0.0 0.0
1050015000.0 0.0 0.0 0.000753452 -0.000760144 0.0 0.0 0.0 0.0
1065014500.0 0.0 0.0 0.002751336 -0.000163819 0.0 0.0 0.0 0.0
1080014000.0 0.0 0.0 0.00283943 -0.001553106 0.0 0.0 0.0 0.0
1095013500.0 0.0 0.0 0.00459826 -0.003246738 0.0 0.0 0.0 0.0
1110013000.0 0.0 0.0 0.00153868 -0.001991353 0.0 0.0 0.0 0.0
1125012500.0 0.0 0.0 0.00212307 -0.001703894 0.0 0.0 0.0 0.0
1140012000.0 0.0 0.0 -0.000146574 -0.000173646 0.0 0.0 0.0 0.0
1155011500.0 0.0 0.0 -0.002518708 -0.002350441 0.0 0.0 0.0 0.0
1170011000.0 0.0 0.0 0.002691154 0.00017243 0.0 0.0 0.0 0.0
1185010500.0 0.0 0.0 -0.003177263 0.002595694 0.0 0.0 0.0 0.0
1200010000.0 0.0 0.0 -0.001142466 0.002002728 0.0 0.0 0.0 0.0
1215009500.0 0.0 0.0 0.001336218 0.002036053 0.0 0.0 0.0 0.0
1230009000.0 0.0 0.0 -0.001120131 0.002022668 0.0 0.0 0.0 0.0
1245008500.0 0.0 0.0 0.004158623 0.003395547 0.0 0.0 0.0 0.0
1260008000.0 0.0 0.0 -0.001783795 -0.003696774 0.0 0.0 0.0 0.0
1275007500.0 0.0 0.0 -0.005783298 -0.00597077 0.0 0.0 0.0 0.0
1290007000.0 0.0 0.0 0.00019909 0.00205333 0.0 0.0 0.0 0.0
1305006500.0 0.0 0.0 0.001413738 0.003213527 0.0 0.0 0.0 0.0
1320006000.0 0.0 0.0 -0.004682216 0.003568961 0.0 0.0 0.0 0.0
1335005500.0 0.0 0.0 0.000947022 6.1798e-05 0.0 0.0 0.0 0.0
1350005000.0 0.0 0.0 0.004405637 0.001204478 0.0 0.0 0.0 0.0
1365004500.0 0.0 0.0 0.002132329 -0.01484588 0.0 0.0 0.0 0.0
1380004000.0 0.0 0.0 0.004490978 0.00203307 0.0 0.0 0.0 0.0
1395003500.0 0.0 0.0 0.006191076 0.001959875 0.0 0.0 0.0 0.0
1410003000.0 0.0 0.0 0.018027848 -0.002044764 0.0 0.0 0.0 0.0
1425002500.0 0.0 0.0 -0.002189173 0.005445634 0.0 0.0 0.0 0.0
1440002000.0 0.0 0.0 0.002241622 0.004376577 0.0 0.0 0.0 0.0
1455001500.0 0.0 0.0 0.003101966 0.004898148 0.0 0.0 0.0 0.0
1470001000.0 0.0 0.0 -0.008400188 0.016468282 0.0 0.0 0.0 0.0
1485000500.0 0.0 0.0 0.00501739 -0.001305284 0.0 0.0 0.0 0.0
1500000000.0 0.0 0.0 0.001381756 0.014357272 0.0 0.0 0.0 0.0
