! Created with skrf 1.8.0 (http://scikit-rf.org).
# Hz S RI R 50.0 
!freq ReS11 ImS11 ReS21 ImS21 ReS12 ImS12 ReS22 ImS22
50000.0 0.0 0.0 -1.0117e-05 -6.1267e-05 0.0 0.0 0.0 0.0
15049500.0 0.0 0.0 -2.5979e-05 8.503e-06 0.0 0.0 0.0 0.0
30049000.0 0.0 0.0 -2.5798e-05 1.3129e-05 0.0 0.0 0.0 0.0
45048500.0 0.0 0.0 -1.5692e-05 -1.2319e-05 0.0 0.0 0.0 0.0
60048000.0 0.0 0.0 -4.707e-05 1.0171e-05 0.0 0.0 0.0 0.0
75047500.0 0.0 0.0 -7.2529e-05 -3.7576e-05 0.0 0.0 0.0 0.0
90047000.0 0.0 0.0 -3.6587e-05 2.2999e-05 0.0 0.0 0.0 0.0
105046500.0 0.0 0.0 -1.5643e-05 5e-09 0.0 0.0 0.0 0.0
120046000.0 0.0 0.0 -3.6665e-05 2.7291e-05 0.0 0.0 0.0 0.0
135045500.0 0.0 0.0 -6.487e-05 3.0056e-05 0.0 0.0 0.0 0.0
150045000.0 0.0 0.0 -1.9736e-05 2.1741e-05 0.0 0.0 0.0 0.0
165044500.0 0.0 0.0 2.724e-06 5.7867e-05 0.0 0.0 0.0 0.0
180044000.0 0.0 0.0 -1.2082e-05 -9.366e-06 0.0 0.0 0.0 0.0
195043500.0 0.0 0.0 2.3627e-05 5.2636e-05 0.0 0.0 0.0 0.0
210043000.0 0.0 0.0 6.039e-06 4.6503e-05 0.0 0.0 0.0 0.0
225042500.0 0.0 0.0 -7.366e-06 -1.899e-06 0.0 0.0 0.0 0.0
240042000.0 0.0 0.0 -4.2611e-05 2.1936e-05 0.0 0.0 0.0 0.0
255041500.0 0.0 0.0 2.747e-05 4.8404e-05 0.0 0.0 0.0 0.0
270041000.0 0.0 0.0 3.2352e-05 3.938e-05 0.0 0.0 0.0 0.0
285040500.0 0.0 0.0 4.8019e-05 2.6473e-05 0.0 0.0 0.0 0.0
300040000.0 0.0 0.0 0.000562591 1.1949e-05 0.0 0.0 0.0 0.0
315039500.0 0.0 0.0 -2.2604e-05 1.9341e-05 0.0 0.0 0.0 0.0
330039000.0 0.0 0.0 -0.000168043 0.000176728 0.0 0.0 0.0 0.0
345038500.0 0.0 0.0 -0.000137487 -0.000187695 0.0 0.0 0.0 0.0
360038000.0 0.0 0.0 -2.3276e-05 0.00020501 0.0 0.0 0.0 0.0
375037500.0 0.0 0.0 0.000161794 -0.000187495 0.0 0.0 0.0 0.0
390037000.0 0.0 0.0 0.000117983 5.0541e-05 0.0 0.0 0.0 0.0
405036500.0 0.0 0.0 0.0001105 0.000320602 0.0 0.0 0.0 0.0
420036000.0 0.0 0.0 0.000581054 4.96e-05 0.0 0.0 0.0 0.0
435035500.0 0.0 0.0 0.000296556 0.000282536 0.0 0.0 0.0 0.0
450035000.0 0.0 0.0 0.000194646 -0.000123458 0.0 0.0 0.0 0.0
465034500.0 0.0 0.0 0.000111275 0.000311757 0.0 0.0 0.0 0.0
480034000.0 0.0 0.0 0.000506692 -0.000516648 0.0 0.0 0.0 0.0
495033500.0 0.0 0.0 0.000321828 -0.000320425 0.0 0.0 0.0 0.0
510033000.0 0.0 0.0 0.000105561 2.7443e-05 0.0 0.0 0.0 0.0
525032500.0 0.0 0.0 3.373e-06 -6.3373e-05 0.0 0.0 0.0 0.0
540032000.0 0.0 0.0 0.000257982 -0.000153118 0.0 0.0 0.0 0.0
555031500.0 0.0 0.0 4.6095e-05 -0.000438966 0.0 0.0 0.0 0.0
570031000.0 0.0 0.0 -2.1375e-05 -0.00052156 0.0 0.0 0.0 0.0
585030500.0 0.0 0.0 6.3316e-05 -0.000206635 0.0 0.0 0.0 0.0
600030000.0 0.0 0.0 0.000455622 -0.000549627 0.0 0.0 0.0 0.0
615029500.0 0.0 0.0 -0.000231288 -0.000488753 0.0 0.0 0.0 0.0
630029000.0 0.0 0.0 0.000416852 -0.000780633 0.0 0.0 0.0 0.0
645028500.0 0.0 0.0 5.7411e-05 -0.000179011 0.0 0.0 0.0 0.0
660028000.0 0.0 0.0 3.409e-06 -0.000785423 0.0 0.0 0.0 0.0
675027500.0 0.0 0.0 0.000184378 -8.7944e-05 0.0 0.0 0.0 0.0
690027000.0 0.0 0.0 8.8536e-05 -0.000477836 0.0 0.0 0.0 0.0
705026500.0 0.0 0.0 -7.7286e-05 -0.00054806 0.0 0.0 0.0 0.0
720026000.0 0.0 0.0 0.000315706 -0.000350933 0.0 0.0 0.0 0.0
735025500.0 0.0 0.0 3.7664e-05 -0.000537002 0.0 0.0 0.0 0.0
750025000.0 0.0 0.0 -0.000327464 -0.000122632 0.0 0.0 0.0 0.0
765024500.0 0.0 0.0 -0.000193411 -0.000601317 0.0 0.0 0.0 0.0
780024000.0 0.0 0.0 0.000102735 -0.000394525 0.0 0.0 0.0 0.0
795023500.0 0.0 0.0 0.000354488 -0.000249268 0.0 0.0 0.0 0.0
810023000.0 0.0 0.0 -0.000137288 1.6906e-05 0.0 0.0 0.0 0.0
825022500.0 0.0 0.0 -0.000160815 -0.000418575 0.0 0.0 0.0 0.0
840022000.0 0.0 0.0 -1.7426e-05 -0.000592291 0.0 0.0 0.0 0.0
855021500.0 0.0 0.0 -0.000183537 -0.000488262 0.0 0.0 0.0 0.0
870021000.0 0.0 0.0 -0.000263068 -0.000231816 0.0 0.0 0.0 0.0
885020500.0 0.0 0.0 -0.00057687 -0.000150286 0.0 0.0 0.0 0.0
900020000.0 0.0 0.0 0.003922839 -0.000331146 0.0 0.0 0.0 0.0
915019500.0 0.0 0.0 -0.000256643 -0.00056981 0.0 0.0 0.0 0.0
930019000.0 0.0 0.0 -0.001525412 -0.002223405 0.0 0.0 0.0 0.0
945018500.0 0.0 0.0 -0.001205365 0.000163145 0.0 0.0 0.0 0.0
960018000.0 0.0 0.0 1.9084e-05 -0.001561872 0.0 0.0 0.0 0.0
975017500.0 0.0 0.0 0.000513283 -0.000251008 0.0 0.0 0.0 0.0
990017000.0 0.0 0.0 0.001365534 -0.000474741 0.0 0.0 0.0 0.0
1005016500.0 0.0 0.0 0.001120315 -0.000126646 0.0 0.0 0.0 0.0
1020016000.0 0.0 0.0 0.002191509 0.001508476 0.0 0.0 0.0 0.0
1035015500.0 0.0 0.0 -0.00157623 -0.002982555 0.0 0.0 0.0 0.0
1050015000.0 0.0 0.0 0.00170672 0.000287955 0.0 0.0 0.0 0.0
1065014500.0 0.0 0.0 -0.001838238 -0.002567378 0.0 0.0 0.0 0.0
1080014000.0 0.0 0.0 0.004235797 -0.002365949 0.0 0.0 0.0 0.0
1095013500.0 0.0 0.0 -0.000515423 -0.003322563 0.0 0.0 0.0 0.0
1110013000.0 0.0 0.0 -0.000119809 0.00045478 0.0 0.0 0.0 0.0
1125012500.0 0.0 0.0 -0.000709217 0.001098859 0.0 0.0 0.0 0.0
1140012000.0 0.0 0.0 0.001623497 4.2188e-05 0.0 0.0 0.0 0.0
1155011500.0 0.0 0.0 0.00322577 0.000804892 0.0 0.0 0.0 0.0
1170011000.0 0.0 0.0 -0.003373222 -0.000529392 0.0 0.0 0.0 0.0
1185010500.0 0.0 0.0 0.000476966 0.003416099 0.0 0.0 0.0 0.0
1200010000.0 0.0 0.0 -0.002891841 -0.00162522 0.0 0.0 0.0 0.0
1215009500.0 0.0 0.0 0.001541951 0.002768384 0.0 0.0 0.0 0.0
1230009000.0 0.0 0.0 0.001053516 -0.000443944 0.0 0.0 0.0 0.0
1245008500.0 0.0 0.0 -0.005637205 0.002310427 0.0 0.0 0.0 0.0
1260008000.0 0.0 0.0 1.1073e-05 0.004192881 0.0 0.0 0.0 0.0
1275007500.0 0.0 0.0 -0.003035128 0.00889217 0.0 0.0 0.0 0.0
1290007000.0 0.0 0.0 0.003501141 0.000652361 0.0 0.0 0.0 0.0
1305006500.0 0.0 0.0 0.00406394 0.007287298 0.0 0.0 0.0 0.0
1320006000.0 0.0 0.0 0.002964775 0.006696382 0.0 0.0 0.0 0.0
1335005500.0 0.0 0.0 -0.01271648 -0.004452054 0.0 0.0 0.0 0.0
1350005000.0 0.0 0.0 0.00783989 0.003791929 0.0 0.0 0.0 0.0
1365004500.0 0.0 0.0 0.005978717 0.007059928 0.0 0.0 0.0 0.0
1380004000.0 0.0 0.0 0.005877561 0.000319338 0.0 0.0 0.0 0.0
1395003500.0 0.0 0.0 -0.000965096 -0.003645625 0.0 0.0 0.0 0.0
1410003000.0 0.0 0.0 -0.005930358 0.0116232 0.0 0.0 0.0 0.0
1425002500.0 0.0 0.0 0.004060625 0.025558718 0.0 0.0 0.0 0.0
1440002000.0 0.0 0.0 -0.004971872 0.013469106 0.0 0.0 0.0 0.0
1455001500.0 0.0 0.0 0.01042043 0.004878422 0.0 0.0 0.0 0.0
1470001000.0 0.0 0.0 0.015911602 -0.000779682 0.0 0.0 0.0 0.0
1485000500.0 0.0 0.0 0.01376468 0.000169283 0.0 0.0 0.0 0.0
1500000000.0 0.0 0.0 0.000140586 0.00848477 0.0 0.0 0.0 0.0
