! Created with skrf 1.8.0 (http://scikit-rf.org).
# Hz S RI R 50.0 
!freq ReS11 ImS11 ReS21 ImS21 ReS12 ImS12 ReS22 ImS22
50000.0 0.0 0.0 2.1318e-05 -1.8735e-05 0.0 0.0 0.0 0.0
15049500.0 0.0 0.0 -3.6458e-05 4.896e-06 0.0 0.0 0.0 0.0
30049000.0 0.0 0.0 -4.1701e-05 -1.3026e-05 0.0 0.0 0.0 0.0
45048500.0 0.0 0.0 -5.4579e-05 -2.869e-06 0.0 0.0 0.0 0.0
60048000.0 0.0 0.0 -4.567e-05 3.5e-08 0.0 0.0 0.0 0.0
75047500.0 0.0 0.0 -6.8181e-05 -4.028e-06 0.0 0.0 0.0 0.0
90047000.0 0.0 0.0 -6.1971e-05 4.2599e-05 0.0 0.0 0.0 0.0
105046500.0 0.0 0.0 -5.2799e-05 -4.3903e-05 0.0 0.0 0.0 0.0
120046000.0 0.0 0.0 -5.6433e-05 -1.3968e-05 0.0 0.0 0.0 0.0
135045500.0 0.0 0.0 -4.5481e-05 5.0166e-05 0.0 0.0 0.0 0.0
150045000.0 0.0 0.0 -1.9144e-05 4.2871e-05 0.0 0.0 0.0 0.0
165044500.0 0.0 0.0 -9.673e-06 2.4157e-05 0.0 0.0 0.0 0.0
180044000.0 0.0 0.0 4.317e-06 2.3294e-05 0.0 0.0 0.0 0.0
195043500.0 0.0 0.0 -1.8086e-05 1.9218e-05 0.0 0.0 0.0 0.0
210043000.0 0.0 0.0 -1.3067e-05 3.2337e-05 0.0 0.0 0.0 0.0
225042500.0 0.0 0.0 -2.3599e-05 2.8456e-05 0.0 0.0 0.0 0.0
240042000.0 0.0 0.0 -6.215e-06 4.9034e-05 0.0 0.0 0.0 0.0
255041500.0 0.0 0.0 -9.071e-06 1.3375e-05 0.0 0.0 0.0 0.0
270041000.0 0.0 0.0 4.028e-06 4.2827e-05 0.0 0.0 0.0 0.0
285040500.0 0.0 0.0 1.785e-05 1.4115e-05 0.0 0.0 0.0 0.0
300040000.0 0.0 0.0 -2.4856e-05 -0.000179728 0.0 0.0 0.0 0.0
315039500.0 0.0 0.0 -0.000156575 -0.000145856 0.0 0.0 0.0 0.0
330039000.0 0.0 0.0 0.000258082 -6.992e-06 0.0 0.0 0.0 0.0
345038500.0 0.0 0.0 5.1695e-05 8.6616e-05 0.0 0.0 0.0 0.0
360038000.0 0.0 0.0 0.000193803 0.000232048 0.0 0.0 0.0 0.0
375037500.0 0.0 0.0 0.000248949 1.0499e-05 0.0 0.0 0.0 0.0
390037000.0 0.0 0.0 6.797e-05 0.000376565 0.0 0.0 0.0 0.0
405036500.0 0.0 0.0 0.000234764 -6.2652e-05 0.0 0.0 0.0 0.0
420036000.0 0.0 0.0 0.000634847 4.5747e-05 0.0 0.0 0.0 0.0
435035500.0 0.0 0.0 0.000568946 0.0003483 0.0 0.0 0.0 0.0
450035000.0 0.0 0.0 0.000316046 -0.000414219 0.0 0.0 0.0 0.0
465034500.0 0.0 0.0 6.3164e-05 -0.000163453 0.0 0.0 0.0 0.0
480034000.0 0.0 0.0 0.000669003 0.00018093 0.0 0.0 0.0 0.0
495033500.0 0.0 0.0 0.000376765 -0.000358227 0.0 0.0 0.0 0.0
510033000.0 0.0 0.0 0.000328322 -0.0003621 0.0 0.0 0.0 0.0
525032500.0 0.0 0.0 8.7909e-05 -0.000228562 0.0 0.0 0.0 0.0
540032000.0 0.0 0.0 0.000112645 -0.000146369 0.0 0.0 0.0 0.0
555031500.0 0.0 0.0 0.000514991 -0.000603653 0.0 0.0 0.0 0.0
570031000.0 0.0 0.0 0.000258912 -0.000133632 0.0 0.0 0.0 0.0
585030500.0 0.0 0.0 -2.1067e-05 -0.000458943 0.0 0.0 0.0 0.0
600030000.0 0.0 0.0 -9.3262e-05 0.000108741 0.0 0.0 0.0 0.0
615029500.0 0.0 0.0 0.000143124 -0.000711963 0.0 0.0 0.0 0.0
630029000.0 0.0 0.0 -7.9693e-05 -0.000310973 0.0 0.0 0.0 0.0
645028500.0 0.0 0.0 -3.6336e-05 -0.000305928 0.0 0.0 0.0 0.0
660028000.0 0.0 0.0 -0.000194137 -0.000350897 0.0 0.0 0.0 0.0
675027500.0 0.0 0.0 -0.000102853 -0.000847677 0.0 0.0 0.0 0.0
690027000.0 0.0 0.0 -0.000259287 -0.000692516 0.0 0.0 0.0 0.0
705026500.0 0.0 0.0 -0.000159181 -0.000191487 0.0 0.0 0.0 0.0
720026000.0 0.0 0.0 0.00014334 -0.000515892 0.0 0.0 0.0 0.0
735025500.0 0.0 0.0 0.00019087 -0.000929319 0.0 0.0 0.0 0.0
750025000.0 0.0 0.0 0.000318708 -0.000150853 0.0 0.0 0.0 0.0
765024500.0 0.0 0.0 -5.4172e-05 -0.000921941 0.0 0.0 0.0 0.0
780024000.0 0.0 0.0 -0.000553555 -0.000363979 0.0 0.0 0.0 0.0
795023500.0 0.0 0.0 -0.000562016 -0.000386796 0.0 0.0 0.0 0.0
810023000.0 0.0 0.0 -0.000668597 -0.000924316 0.0 0.0 0.0 0.0
825022500.0 0.0 0.0 -3.745e-05 -0.000334552 0.0 0.0 0.0 0.0
840022000.0 0.0 0.0 -0.000513221 -0.000738956 0.0 0.0 0.0 0.0
855021500.0 0.0 0.0 -0.000267331 -0.000370236 0.0 0.0 0.0 0.0
870021000.0 0.0 0.0 -0.000491123 -0.000533052 0.0 0.0 0.0 0.0
885020500.0 0.0 0.0 0.000187307 -0.000578888 0.0 0.0 0.0 0.0
900020000.0 0.0 0.0 0.000102558 0.002711251 0.0 0.0 0.0 0.0
915019500.0 0.0 0.0 -0.000421849 -0.001573043 0.0 0.0 0.0 0.0
930019000.0 0.0 0.0 0.001584278 7.306e-05 0.0 0.0 0.0 0.0
945018500.0 0.0 0.0 0.000502913 -0.00025251 0.0 0.0 0.0 0.0
960018000.0 0.0 0.0 0.001806147 0.000851488 0.0 0.0 0.0 0.0
975017500.0 0.0 0.0 0.001177235 -0.001438799 0.0 0.0 0.0 0.0
990017000.0 0.0 0.0 0.001159938 -0.000921409 0.0 0.0 0.0 0.0
1005016500.0 0.0 0.0 0.000632716 -0.001238576 0.0 0.0 0.0 0.0
1020016000.0 0.0 0.0 0.002661401 -0.00215925 0.0 0.0 0.0 0.0
1035015500.0 0.0 0.0 -0.00010282 0.000883448 0.0 0.0 0.0 0.0
1050015000.0 0.0 0.0 0.004892963 -0.002901681 0.0 0.0 0.0 0.0
1065014500.0 0.0 0.0 0.001342276 -0.001599475 0.0 0.0 0.0 0.0
1080014000.0 0.0 0.0 0.003067551 0.001033906 0.0 0.0 0.0 0.0
1095013500.0 0.0 0.0 -0.000113974 -0.00197104 0.0 0.0 0.0 0.0
1110013000.0 0.0 0.0 0.001269219 -0.001271502 0.0 0.0 0.0 0.0
1125012500.0 0.0 0.0 -0.001171426 -0.002365351 0.0 0.0 0.0 0.0
1140012000.0 0.0 0.0 0.001495133 -0.003541914 0.0 0.0 0.0 0.0
1155011500.0 0.0 0.0 -0.004304249 -0.002298125 0.0 0.0 0.0 0.0
1170011000.0 0.0 0.0 -0.001754369 -0.002445325 0.0 0.0 0.0 0.0
1185010500.0 0.0 0.0 -0.001366614 -0.000202998 0.0 0.0 0.0 0.0
1200010000.0 0.0 0.0 -0.004413911 0.004024529 0.0 0.0 0.0 0.0
1215009500.0 0.0 0.0 -0.002369514 -0.001441069 0.0 0.0 0.0 0.0
1230009000.0 0.0 0.0 0.00268684 -0.003587949 0.0 0.0 0.0 0.0
1245008500.0 0.0 0.0 -0.002463622 0.001808262 0.0 0.0 0.0 0.0
1260008000.0 0.0 0.0 -0.012790716 0.00227776 0.0 0.0 0.0 0.0
1275007500.0 0.0 0.0 0.005221418 9.6467e-05 0.0 0.0 0.0 0.0
1290007000.0 0.0 0.0 0.002030722 0.00421782 0.0 0.0 0.0 0.0
1305006500.0 0.0 0.0 0.008504074 -0.003242755 0.0 0.0 0.0 0.0
1320006000.0 0.0 0.0 0.002921539 -0.000908798 0.0 0.0 0.0 0.0
1335005500.0 0.0 0.0 0.008514616 0.00858318 0.0 0.0 0.0 0.0
1350005000.0 0.0 0.0 0.002980573 -0.00029947 0.0 0.0 0.0 0.0
1365004500.0 0.0 0.0 0.009365218 0.005665846 0.0 0.0 0.0 0.0
1380004000.0 0.0 0.0 0.000167202 -0.001882251 0.0 0.0 0.0 0.0
1395003500.0 0.0 0.0 0.004593921 0.01430316 0.0 0.0 0.0 0.0
1410003000.0 0.0 0.0 0.008731022 -0.004687497 0.0 0.0 0.0 0.0
1425002500.0 0.0 0.0 0.000442693 0.009911324 0.0 0.0 0.0 0.0
1440002000.0 0.0 0.0 0.0180088 -0.000348889 0.0 0.0 0.0 0.0
1455001500.0 0.0 0.0 0.009941906 0.000822239 0.0 0.0 0.0 0.0
1470001000.0 0.0 0.0 -0.008139665 -0.002817877 0.0 0.0 0.0 0.0
1485000500.0 0.0 0.0 0.000187687 0.003369888 0.0 0.0 0.0 0.0
1500000000.0 0.0 0.0 0.016132798 0.021183832 0.0 0.0 0.0 0.0
