! Created with skrf 1.8.0 (http://scikit-rf.org).
# Hz S RI R 50.0 
!freq ReS11 ImS11 ReS21 ImS21 ReS12 ImS12 ReS22 ImS22
50000.0 0.0 0.0 -2.9334e-05 -3.858e-06 0.0 0.0 0.0 0.0
15049500.0 0.0 0.0 6.93e-07 -5.373e-06 0.0 0.0 0.0 0.0
30049000.0 0.0 0.0 -4.7037e-05 -7.991e-06 0.0 0.0 0.0 0.0
45048500.0 0.0 0.0 -5.438e-05 -4.797e-05 0.0 0.0 0.0 0.0
60048000.0 0.0 0.0 -4.5522e-05 1.8553e-05 0.0 0.0 0.0 0.0
75047500.0 0.0 0.0 -6.6342e-05 -2.7982e-05 0.0 0.0 0.0 0.0
90047000.0 0.0 0.0 -6.3027e-05 -1.4681e-05 0.0 0.0 0.0 0.0
105046500.0 0.0 0.0 -7.0681e-05 1.8343e-05 0.0 0.0 0.0 0.0
120046000.0 0.0 0.0 -8.6622e-05 -5.695e-06 0.0 0.0 0.0 0.0
135045500.0 0.0 0.0 -5.69e-05 6.56e-06 0.0 0.0 0.0 0.0
150045000.0 0.0 0.0 -1.7648e-05 1.836e-06 0.0 0.0 0.0 0.0
165044500.0 0.0 0.0 3.6e-06 5.7249e-05 0.0 0.0 0.0 0.0
180044000.0 0.0 0.0 1.1985e-05 3.4655e-05 0.0 0.0 0.0 0.0
195043500.0 0.0 0.0 -2.922e-06 2.4908e-05 0.0 0.0 0.0 0.0
210043000.0 0.0 0.0 7.271e-06 3.3835e-05 0.0 0.0 0.0 0.0
225042500.0 0.0 0.0 -2.9558e-05 3.2013e-05 0.0 0.0 0.0 0.0
240042000.0 0.0 0.0 -1.0512e-05 4.593e-05 0.0 0.0 0.0 0.0
255041500.0 0.0 0.0 8.31e-07 2.289e-05 0.0 0.0 0.0 0.0
270041000.0 0.0 0.0 3.6991e-05 3.0724e-05 0.0 0.0 0.0 0.0
285040500.0 0.0 0.0 3.7205e-05 2.2105e-05 0.0 0.0 0.0 0.0
300040000.0 0.0 0.0 -0.000373465 -2.3167e-05 0.0 0.0 0.0 0.0
315039500.0 0.0 0.0 2.5872e-05 -0.000189652 0.0 0.0 0.0 0.0
330039000.0 0.0 0.0 0.000166426 -0.000276746 0.0 0.0 0.0 0.0
345038500.0 0.0 0.0 -1.0556e-05 0.000106525 0.0 0.0 0.0 0.0
360038000.0 0.0 0.0 6.781e-05 -4.3644e-05 0.0 0.0 0.0 0.0
375037500.0 0.0 0.0 7.012e-06 0.000215048 0.0 0.0 0.0 0.0
390037000.0 0.0 0.0 0.000290551 0.000187584 0.0 0.0 0.0 0.0
405036500.0 0.0 0.0 0.000143214 -0.000138853 0.0 0.0 0.0 0.0
420036000.0 0.0 0.0 -0.000388357 -9.977e-06 0.0 0.0 0.0 0.0
435035500.0 0.0 0.0 -6.8089e-05 0.000237595 0.0 0.0 0.0 0.0
450035000.0 0.0 0.0 0.00037667 -9.7882e-05 0.0 0.0 0.0 0.0
465034500.0 0.0 0.0 0.00024148 6.6666e-05 0.0 0.0 0.0 0.0
480034000.0 0.0 0.0 0.000362162 0.000203119 0.0 0.0 0.0 0.0
495033500.0 0.0 0.0 -3.5848e-05 -0.000161471 0.0 0.0 0.0 0.0
510033000.0 0.0 0.0 0.000201397 -0.000202609 0.0 0.0 0.0 0.0
525032500.0 0.0 0.0 0.00047106 -0.000493317 0.0 0.0 0.0 0.0
540032000.0 0.0 0.0 0.000204689 4.1199e-05 0.0 0.0 0.0 0.0
555031500.0 0.0 0.0 0.000285823 -0.000419453 0.0 0.0 0.0 0.0
570031000.0 0.0 0.0 0.000449794 -0.000196739 0.0 0.0 0.0 0.0
585030500.0 0.0 0.0 0.000641119 5.336e-06 0.0 0.0 0.0 0.0
600030000.0 0.0 0.0 3.3146e-05 -0.000977411 0.0 0.0 0.0 0.0
615029500.0 0.0 0.0 0.000498031 -0.000699899 0.0 0.0 0.0 0.0
630029000.0 0.0 0.0 -0.000331873 -0.000489777 0.0 0.0 0.0 0.0
645028500.0 0.0 0.0 0.00011405 -0.000688506 0.0 0.0 0.0 0.0
660028000.0 0.0 0.0 0.00013374 -0.000474963 0.0 0.0 0.0 0.0
675027500.0 0.0 0.0 -0.000315009 -0.000421276 0.0 0.0 0.0 0.0
690027000.0 0.0 0.0 1.9111e-05 -0.000453423 0.0 0.0 0.0 0.0
705026500.0 0.0 0.0 -3.8059e-05 -0.000591802 0.0 0.0 0.0 0.0
720026000.0 0.0 0.0 4.0215e-05 -0.000161414 0.0 0.0 0.0 0.0
735025500.0 0.0 0.0 0.00074646 -0.000713984 0.0 0.0 0.0 0.0
750025000.0 0.0 0.0 -0.000609292 -0.000824533 0.0 0.0 0.0 0.0
765024500.0 0.0 0.0 0.000203392 -0.000707248 0.0 0.0 0.0 0.0
780024000.0 0.0 0.0 -0.000218375 -0.000218437 0.0 0.0 0.0 0.0
795023500.0 0.0 0.0 1.155e-06 -0.000565117 0.0 0.0 0.0 0.0
810023000.0 0.0 0.0 -0.00029339 -0.00081342 0.0 0.0 0.0 0.0
825022500.0 0.0 0.0 -3.2271e-05 1.8505e-05 0.0 0.0 0.0 0.0
840022000.0 0.0 0.0 -0.000398775 -0.000707592 0.0 0.0 0.0 0.0
855021500.0 0.0 0.0 0.000436799 0.000126332 0.0 0.0 0.0 0.0
870021000.0 0.0 0.0 -0.000352278 -0.000143799 0.0 0.0 0.0 0.0
885020500.0 0.0 0.0 0.000644123 -0.000331281 0.0 0.0 0.0 0.0
900020000.0 0.0 0.0 -0.002527436 -0.00284291 0.0 0.0 0.0 0.0
915019500.0 0.0 0.0 -0.001902874 -0.000413602 0.0 0.0 0.0 0.0
930019000.0 0.0 0.0 0.001150898 -0.001450606 0.0 0.0 0.0 0.0
945018500.0 0.0 0.0 0.001090361 -0.001626249 0.0 0.0 0.0 0.0
960018000.0 0.0 0.0 0.000987251 -0.002244049 0.0 0.0 0.0 0.0
975017500.0 0.0 0.0 0.001792425 -0.002643418 0.0 0.0 0.0 0.0
990017000.0 0.0 0.0 -0.001011745 -0.001133785 0.0 0.0 0.0 0.0
1005016500.0 0.0 0.0 -0.0003362 -0.003653794 0.0 0.0 0.0 0.0
1020016000.0 0.0 0.0 0.002403058 -0.000367323 0.0 0.0 0.0 0.0
1035015500.0 0.0 0.0 -0.002315086 -9.8154e-05 0.0 0.0 0.0 0.0
1050015000.0 0.0 0.0 0.000339311 -0.003769284 0.0 0.0 0.0 0.0
1065014500.0 0.0 0.0 -0.001332781 -0.000898994 0.0 0.0 0.0 0.0
1080014000.0 0.0 0.0 -0.002395265 -0.001498373 0.0 0.0 0.0 0.0
1095013500.0 0.0 0.0 -0.002673661 -0.002586298 0.0 0.0 0.0 0.0
1110013000.0 0.0 0.0 0.000988052 -0.003387901 0.0 0.0 0.0 0.0
1125012500.0 0.0 0.0 -0.000556673 -0.001243758 0.0 0.0 0.0 0.0
1140012000.0 0.0 0.0 -0.001183629 -0.000618665 0.0 0.0 0.0 0.0
1155011500.0 0.0 0.0 -0.001031095 -0.000846026 0.0 0.0 0.0 0.0
1170011000.0 0.0 0.0 -0.002785593 0.002492375 0.0 0.0 0.0 0.0
1185010500.0 0.0 0.0 0.000112827 -0.001900804 0.0 0.0 0.0 0.0
1200010000.0 0.0 0.0 0.00051536 0.001640141 0.0 0.0 0.0 0.0
1215009500.0 0.0 0.0 -0.00634874 -0.000539814 0.0 0.0 0.0 0.0
1230009000.0 0.0 0.0 -0.002223667 0.003951992 0.0 0.0 0.0 0.0
1245008500.0 0.0 0.0 -0.002154179 0.002387443 0.0 0.0 0.0 0.0
1260008000.0 0.0 0.0 -0.005850528 -0.002474498 0.0 0.0 0.0 0.0
1275007500.0 0.0 0.0 -0.000565915 0.000284492 0.0 0.0 0.0 0.0
1290007000.0 0.0 0.0 0.000719201 -0.000648396 0.0 0.0 0.0 0.0
1305006500.0 0.0 0.0 0.004011167 0.000523321 0.0 0.0 0.0 0.0
1320006000.0 0.0 0.0 0.002822009 -0.004610647 0.0 0.0 0.0 0.0
1335005500.0 0.0 0.0 0.002402068 0.0118053 0.0 0.0 0.0 0.0
1350005000.0 0.0 0.0 -0.004334043 0.002938718 0.0 0.0 0.0 0.0
1365004500.0 0.0 0.0 0.006399494 0.003431955 0.0 0.0 0.0 0.0
1380004000.0 0.0 0.0 0.007833696 0.006070502 0.0 0.0 0.0 0.0
1395003500.0 0.0 0.0 0.004582543 0.004335784 0.0 0.0 0.0 0.0
1410003000.0 0.0 0.0 0.00417144 -0.000889166 0.0 0.0 0.0 0.0
1425002500.0 0.0 0.0 -0.004547405 0.000426322 0.0 0.0 0.0 0.0
1440002000.0 0.0 0.0 0.007178228 0.017533924 0.0 0.0 0.0 0.0
1455001500.0 0.0 0.0 0.010309486 -0.003191964 0.0 0.0 0.0 0.0
1470001000.0 0.0 0.0 0.003617667 -0.004110662 0.0 0.0 0.0 0.0
1485000500.0 0.0 0.0 0.011552058 0.00146234 0.0 0.0 0.0 0.0
1500000000.0 0.0 0.0 -0.002523904 0.008040479 0.0 0.0 0.0 0.0
