! Created with skrf 1.8.0 (http://scikit-rf.org).
# Hz S RI R 50.0 
!freq ReS11 ImS11
50000.0 0.996398464 0.001446145
15049500.0 0.94000032 0.360584
30049000.0 0.75016992 0.672600192
45048500.0 0.461697696 0.892483712
60048000.0 0.103331816 1.013424398
75047500.0 -0.273388928 0.988229632
90047000.0 -0.619392896 0.820110848
105046500.0 -0.891221248 0.546235968
120046000.0 -1.042364 0.185113344
135045500.0 -1.045881748 -0.208550608
150045000.0 -0.914524224 -0.586172224
165044500.0 -0.648359744 -0.88483264
180044000.0 -0.314784224 -1.044654252
195043500.0 0.063943252 -1.10165644
210043000.0 0.434986208 -1.021755934
225042500.0 0.75204864 -0.820702592
240042000.0 0.9961296 -0.539515008
255041500.0 1.137733104 -0.187526992
270041000.0 1.150457264 0.221339536
285040500.0 1.023539186 0.632915072
300040000.0 0.687139264 0.958178112
315039500.0 0.318973632 1.192403072
330039000.0 -0.13886968 1.253501888
345038500.0 -0.5940288 1.138567808
360038000.0 -0.966595328 0.87426016
375037500.0 -1.257292384 0.476284928
390037000.0 -1.381336704 -0.017709734
405036500.0 -1.289479488 -0.516715392
420036000.0 -1.03325665 -0.96790368
435035500.0 -0.631894528 -1.272719744
450035000.0 -0.15721096 -1.392535328
465034500.0 0.3040328 -1.382482528
480034000.0 0.727382336 -1.216459392
495033500.0 1.076554536 -0.914810816
510033000.0 1.318184032 -0.527995584
525032500.0 1.408921952 -0.068870576
540032000.0 1.360223296 0.386126496
555031500.0 1.157556064 0.802525312
570031000.0 0.814117376 1.114123224
585030500.0 0.394870464 1.291516768
600030000.0 -0.05132188 1.347642912
615029500.0 -0.496727008 1.22761368
630029000.0 -0.876913536 0.963102848
645028500.0 -1.171329616 0.586001664
660028000.0 -1.3117 0.107772952
675027500.0 -1.265398496 -0.39138768
690027000.0 -1.01695323 -0.860960512
705026500.0 -0.607147648 -1.168334368
720026000.0 -0.13199648 -1.273442624
735025500.0 0.313548704 -1.207960848
750025000.0 0.707602432 -1.000064611
765024500.0 1.003920198 -0.657015616
780024000.0 1.161287792 -0.21086992
795023500.0 1.1017648 0.21146072
810023000.0 0.86373184 0.55170336
825022500.0 0.560442368 0.737095872
840022000.0 0.2735544 0.778925184
855021500.0 0.053082512 0.759176512
870021000.0 -0.123028984 0.733988544
885020500.0 -0.300884768 0.712340608
900020000.0 -0.526362304 0.742035392
915019500.0 -0.50449984 0.738189632
930019000.0 -0.4908176 0.740971392
945018500.0 -0.470088 0.745559232
960018000.0 -0.453808864 0.74851008
975017500.0 -0.447955872 0.74318528
990017000.0 -0.418734208 0.75981088
1005016500.0 -0.398953984 0.76676704
1020016000.0 -0.38369456 0.766849728
1035015500.0 -0.352767552 0.771656832
1050015000.0 -0.317141152 0.792191936
1065014500.0 -0.313748768 0.792023936
1080014000.0 -0.294261024 0.793024512
1095013500.0 -0.260327312 0.79994848
1110013000.0 -0.2410428 0.812359296
1125012500.0 -0.22482008 0.793242688
1140012000.0 -0.178321168 0.8212528
1155011500.0 -0.181527824 0.828557504
1170011000.0 -0.115234944 0.826331968
1185010500.0 -0.105114552 0.81531712
1200010000.0 -0.065071008 0.803951296
1215009500.0 -0.04412044 0.812643904
1230009000.0 -0.013214722 0.824097472
1245008500.0 0.01827418 0.806497472
1260008000.0 0.05676046 0.824782272
1275007500.0 0.09189852 0.798223104
1290007000.0 0.128923624 0.808520768
1305006500.0 0.147358608 0.785070976
1320006000.0 0.182512448 0.795616448
1335005500.0 0.206965472 0.775008896
1350005000.0 0.230782224 0.778628416
1365004500.0 0.270319392 0.759144128
1380004000.0 0.312416096 0.75410048
1395003500.0 0.330523456 0.74171296
1410003000.0 0.342132256 0.714509056
1425002500.0 0.360405504 0.705927744
1440002000.0 0.405176288 0.6836528
1455001500.0 0.426281568 0.65938048
1470001000.0 0.427428608 0.623319104
1485000500.0 0.47301664 0.632702976
1500000000.0 0.488791072 0.626737344
