! Created with skrf 1.8.0 (http://scikit-rf.org).
# Hz S RI R 50.0 
!freq ReS11 ImS11
50000.0 -2.1991298534513297 -0.45082834394008386
15049500.0 -0.480439185443561 0.6730371498425253
30049000.0 -5.078160428712992 -2.3808717275277784
45048500.0 0.4402015850395732 0.21339120646680318
60048000.0 -2.112056727136657 -0.5251187487973783
75047500.0 1.1645746183915746 -1.2916220528867772
90047000.0 -2.8638539680063344 -4.3144047016653975
105046500.0 -3.7594595037486735 -7.31204854991414
120046000.0 2.7126970831152915 2.793135928235438
135045500.0 -3.40942826586587 -6.1563341956034705
150045000.0 0.07348897546851785 -0.5683703993143171
165044500.0 -0.011521898978560074 -0.9349968409030894
180044000.0 -1.3922138270889977 -0.6595573672775856
195043500.0 0.49877869273385 -0.5477906226903898
210043000.0 16.30168301241838 -5.429787678065263
225042500.0 2.197674334025524 2.450041710231203
240042000.0 2.973573271213432 -0.1870587108148491
255041500.0 -10.400342848830283 25.39034389514936
270041000.0 2.8855815318110336 0.36877613278258553
285040500.0 -1.6228545327597963 0.8690245047003796
300040000.0 -0.40626295859813255 -0.8556413348814101
315039500.0 -0.21700198542446628 1.12591992939851
330039000.0 -0.07956082683845417 0.4496149649224192
345038500.0 8.384910979174807 -3.534903472004404
360038000.0 -1.1527217650144774 1.5371569884252931
375037500.0 1.1270673019826498 -1.150894757215324
390037000.0 -0.37192571471002694 1.2067010059518983
405036500.0 -2.2534484080163413 -0.7100134003023656
420036000.0 -0.10720236769893104 0.45476642574573084
435035500.0 0.6145962421445851 -0.4877296763171499
450035000.0 -2.639444818212579 -2.9428306834585256
465034500.0 1.0832080408777476 0.39927395476155253
480034000.0 -0.2050030659295374 0.8400361037592818
495033500.0 -3.525154647564042 0.4383731527332194
510033000.0 -1.2541892847445884 1.1181603429870088
525032500.0 -1.8773781522726003 -2.334318086489624
540032000.0 0.17378342844677527 0.22058804866030024
555031500.0 0.2729815025960538 -0.46813987476753577
570031000.0 -1.0410109684916846 -0.3639894168625832
585030500.0 0.8169655426986431 -0.07793620053915275
600030000.0 0.30211296393204845 -0.41882634857204076
615029500.0 -3.54268187901169 1.800543241702434
630029000.0 -0.6683837204758368 -0.7671289742139761
645028500.0 1.0083903461900643 -0.04321173988945655
660028000.0 -0.4744498552045501 0.8970647452874397
675027500.0 -0.2250962475576212 -1.433435013880601
690027000.0 -1.964708768106926 0.7022488463710378
705026500.0 0.20515490556243507 0.09835650406902698
720026000.0 0.6164424637122943 3.9696150505333248
735025500.0 2.441908337075847 0.29101239687044506
750025000.0 1.356558006195751 -0.6694058926883245
765024500.0 0.7449355258426223 -0.1422503300472168
780024000.0 -1.0356058443404454 -0.26574453799589876
795023500.0 1.8947970811300423 -0.8599312081981674
810023000.0 -0.20658286494735167 -0.3899548191860972
825022500.0 -0.0907586094945191 0.08931934528885654
840022000.0 -1.1295819568396452 -0.45601166346023586
855021500.0 -0.6886812850001178 -0.11767060159119302
870021000.0 0.5620987929751349 2.2978792256589884
885020500.0 2.964945588594213 0.7491854314857491
900020000.0 -0.5966210530064994 0.4488806755707265
915019500.0 -2.1114390000845153 -0.8239821682338184
930019000.0 0.1654241085566212 0.3516607050236567
945018500.0 -0.24285883294621974 0.24473897432557173
960018000.0 0.2852907035268178 -0.13830387903794905
975017500.0 1.1787090343081281 0.9136429383106304
990017000.0 0.036090826831873465 1.4890163353365153
1005016500.0 7.180766246864997 0.21824368773506328
1020016000.0 0.9975812858882638 0.37830593337124163
1035015500.0 -0.36104676539276664 2.574737758103505
1050015000.0 1.5670602424146192 -0.5787844359633595
1065014500.0 1.7026196009144523 -1.0945887960362584
1080014000.0 -0.5725482936360368 3.779971386540942
1095013500.0 -0.56921271604344 0.686092795223035
1110013000.0 1.969529238782876 0.5324853816021228
1125012500.0 3.8361241182066745 -1.3203707418713797
1140012000.0 1.53513712619785 -6.798841440119843
1155011500.0 -0.9018777183276475 2.1450978299183676
1170011000.0 1.4189043255818232 -2.9238625181901505
1185010500.0 -0.2312595850843831 -0.8081770681303558
1200010000.0 1.0800660942891565 0.3947940650598913
1215009500.0 0.005175360370076231 -1.0472290894286722
1230009000.0 -2.211749113149478 1.0594491844428506
1245008500.0 -2.3385698173066496 -1.1399702325455547
1260008000.0 2.022780148539729 -0.41728009567103563
1275007500.0 -0.4717207937001343 2.256009810583708
1290007000.0 -7.4031986446611056 4.378124990620509
1305006500.0 1.1572776731016308 -0.5064124850991856
1320006000.0 -1.3723825337560684 1.301350498886254
1335005500.0 -0.4951861595338296 4.2058663566917085
1350005000.0 0.36367395046641837 0.4971947296536035
1365004500.0 -0.5433036519411618 -0.11514319715310913
1380004000.0 -2.3298097247732734 -1.9094634984359335
1395003500.0 -0.4763815208861793 -0.44546158054038015
1410003000.0 0.6114434475489667 -0.996252126625824
1425002500.0 -0.5340863346586132 -1.4358361740483738
1440002000.0 5.648564718289241 23.4905204333177
1455001500.0 -1.3888885707275702 -0.7226900894325289
1470001000.0 1.7364703162218655 1.5517047011996694
1485000500.0 0.5480578857740129 0.31024261604276926
1500000000.0 0.2561809067775281 -2.2414493640316664
