! Created with skrf 1.8.0 (http://scikit-rf.org).
# Hz S RI R 50.0 
!freq ReS11 ImS11
50000.0 0.001533347512210046 -0.00023893790011652062
15049500.0 0.00010651434433595495 0.00030445778628339045
30049000.0 -0.0020277501608465835 0.0010839247918165075
45048500.0 0.00011895728880278627 -5.236233334090943e-05
60048000.0 -0.00016496473910415456 0.00046474009522522137
75047500.0 -0.00026602433191927463 -0.0001439017063366722
90047000.0 5.700800560387156e-05 -0.0013159146338682856
105046500.0 0.0002059559711284943 -0.002519866121095457
120046000.0 0.00012545481401938016 -0.0008447928098174424
135045500.0 0.007564201411997797 -0.0043585142582451275
150045000.0 -0.00018339447313564362 -0.00045935252034234056
165044500.0 5.434459692454583e-05 -0.0002552943010039811
180044000.0 -0.0002320264663577815 0.0004343557739377042
195043500.0 0.00017867480395214897 0.0004647268623020003
210043000.0 0.007955431715514388 0.013714117864968275
225042500.0 -0.0005032426543216649 0.001018821084215657
240042000.0 0.0011135899792967157 0.0018527471855274854
255041500.0 -0.006320868555893082 0.01854368722750019
270041000.0 -0.0019072464086804476 -0.002118722869447469
285040500.0 -0.001052102147798415 0.002584633523785814
300040000.0 0.001855700755010475 0.001244283044189596
315039500.0 -0.001055216897754893 0.002863974000523158
330039000.0 0.00211898148192649 -0.0004090676682361084
345038500.0 0.015092539088492184 -0.04083730812965953
360038000.0 -0.005709401998759848 -0.0007709142207327103
375037500.0 -0.003170682170837598 -0.000336609584964781
390037000.0 0.024252795334742047 -0.016812825643764618
405036500.0 0.0026586664326042676 -0.005497097473242323
420036000.0 0.00041317546130634143 0.001974882253261258
435035500.0 0.00023434930635920346 0.0028132442919954087
450035000.0 0.0446105116254377 -0.0239123212772234
465034500.0 -0.000708743977440127 0.0016215960908788447
480034000.0 0.0060161476678784395 0.001197949728163825
495033500.0 -0.005193098486165734 -0.008882688753451589
510033000.0 0.005250554842450194 0.0024448791795549144
525032500.0 -0.007020060148911805 2.5794966555615117e-05
540032000.0 -0.0015347512857550288 -0.0014351816369728998
555031500.0 0.002115861087940311 -0.002084701249547484
570031000.0 -0.002314471560005031 0.0010084208494710745
585030500.0 -0.0014002576077198506 -0.00043430457024953183
600030000.0 0.00431577055550097 -0.0013821500919930997
615029500.0 -0.010084517488694133 0.0006121927448828375
630029000.0 0.0011142124450333338 0.0026281165041158227
645028500.0 3.4212103844790355e-05 0.000254270734888145
660028000.0 -0.0028900947248458528 -0.001207135078844022
675027500.0 -0.00239271289114319 -0.006934440941368496
690027000.0 -0.005141369284856504 -0.009728117409755222
705026500.0 0.0034803615653944877 -0.00044124546461300426
720026000.0 0.01662572649412046 0.03680927826037606
735025500.0 -0.007097371816653729 0.004473286267107755
750025000.0 -0.0014292018900536499 0.003480755752650496
765024500.0 0.0009228493032863976 0.00012127439135394906
780024000.0 0.0045090920030562386 -0.01044567201819434
795023500.0 -0.0027531498305114095 0.005873121033297799
810023000.0 0.0012248941863921795 -0.0019403987898769183
825022500.0 -0.00174564845378775 -0.000826168525918002
840022000.0 0.00065373618468957 0.002695490178690117
855021500.0 -0.0015019894080326266 0.00043714570455796227
870021000.0 -0.0006024220051979121 0.014436775416259586
885020500.0 -0.0042731333309969505 -0.0217205056607882
900020000.0 -0.004124372051708406 -4.792028696538084e-05
915019500.0 -0.005165640113032956 0.00823525710716432
930019000.0 -0.001459464881068107 0.002182843454178286
945018500.0 0.0021139917916999083 0.0015924736772281764
960018000.0 -0.002404413440472435 -0.002699093331238843
975017500.0 -0.0016070852412207305 -0.02243183155647004
990017000.0 -0.004076740973269386 -0.006773171643863174
1005016500.0 -0.036778228028109775 0.012879195735763065
1020016000.0 0.004995312444995495 0.00030783995863774424
1035015500.0 0.016901742565485378 -0.014743611451647504
1050015000.0 0.001935919896908783 -0.025527642568329633
1065014500.0 0.0010564701846621342 0.007601361256822865
1080014000.0 0.015061408665261304 -0.04314840652080402
1095013500.0 -0.0007758890724728077 0.005570805068913338
1110013000.0 -0.015041145648340595 0.005392154838211174
1125012500.0 -0.03470937043639236 -0.03030086342056932
1140012000.0 0.08248060492242963 -0.034601990225587194
1155011500.0 -0.04964895422790481 -0.10516339015676116
1170011000.0 0.07596945193802569 -0.02351652925957635
1185010500.0 0.001197474041469494 0.013535082923361459
1200010000.0 0.005987977361450652 0.004698980493671387
1215009500.0 -0.004444307803107511 0.008498018224698194
1230009000.0 -0.008744994153333685 -0.024876699141632336
1245008500.0 -0.024449888226314696 0.018787123501352757
1260008000.0 0.01699363627535923 0.02408409848835289
1275007500.0 0.0237321502636774 0.01594543509524416
1290007000.0 -0.14724759025699788 0.03849311028198865
1305006500.0 -0.011642290571477797 -0.0071489583521112295
1320006000.0 -0.01407864607155152 -0.011629157393434687
1335005500.0 0.013597064943092384 0.042096521074947955
1350005000.0 -0.005875317413673218 -0.0021408519146619625
1365004500.0 0.0054915169296453825 -0.008557803086538716
1380004000.0 -0.01508315867324916 -0.04047806452336848
1395003500.0 0.00628996398202706 -0.015276927554748002
1410003000.0 0.01975170276987312 0.005658292617072043
1425002500.0 -0.010226728208558074 0.03492664025807472
1440002000.0 0.08310169277886327 0.1429866590155788
1455001500.0 -0.011110862014747605 -0.0016008451786435223
1470001000.0 0.034006570464503554 -0.05345492503641231
1485000500.0 -0.008911776028761304 0.012284613372492415
1500000000.0 0.01483769776680759 -0.07899356976173831
