! Created with skrf 1.8.0 (http://scikit-rf.org).
# Hz S RI R 50.0 
!freq ReS11 ImS11 ReS21 ImS21 ReS12 ImS12 ReS22 ImS22
50000.0 0.0 0.0 1.9194e-05 3.3264e-05 0.0 0.0 0.0 0.0
15049500.0 0.0 0.0 -2.6024e-05 -1.025e-06 0.0 0.0 0.0 0.0
30049000.0 0.0 0.0 -1.5548e-05 8.489e-06 0.0 0.0 0.0 0.0
45048500.0 0.0 0.0 -4.5667e-05 -2.9451e-05 0.0 0.0 0.0 0.0
60048000.0 0.0 0.0 -3.2254e-05 2.1328e-05 0.0 0.0 0.0 0.0
75047500.0 0.0 0.0 -2.7762e-05 -1.2824e-05 0.0 0.0 0.0 0.0
90047000.0 0.0 0.0 -3.5266e-05 -9.678e-06 0.0 0.0 0.0 0.0
105046500.0 0.0 0.0 -4.161e-05 -1.1646e-05 0.0 0.0 0.0 0.0
120046000.0 0.0 0.0 -3.9182e-05 3.7622e-05 0.0 0.0 0.0 0.0
135045500.0 0.0 0.0 -7.549e-06 1.016e-05 0.0 0.0 0.0 0.0
150045000.0 0.0 0.0 -5.3029e-05 2.9988e-05 0.0 0.0 0.0 0.0
165044500.0 0.0 0.0 1.5413e-05 5.0811e-05 0.0 0.0 0.0 0.0
180044000.0 0.0 0.0 1.7129e-05 1.5253e-05 0.0 0.0 0.0 0.0
195043500.0 0.0 0.0 -3.0318e-05 3.9327e-05 0.0 0.0 0.0 0.0
210043000.0 0.0 0.0 -1.8297e-05 3.4137e-05 0.0 0.0 0.0 0.0
225042500.0 0.0 0.0 2.267e-05 3.8109e-05 0.0 0.0 0.0 0.0
240042000.0 0.0 0.0 -4.49e-07 5.0196e-05 0.0 0.0 0.0 0.0
255041500.0 0.0 0.0 -2.681e-06 1.3545e-05 0.0 0.0 0.0 0.0
270041000.0 0.0 0.0 3.8806e-05 4.8152e-05 0.0 0.0 0.0 0.0
285040500.0 0.0 0.0 1.9041e-05 4.2457e-05 0.0 0.0 0.0 0.0
300040000.0 0.0 0.0 -0.000119091 3.5428e-05 0.0 0.0 0.0 0.0
315039500.0 0.0 0.0 3.9929e-05 -3.9027e-05 0.0 0.0 0.0 0.0
330039000.0 0.0 0.0 0.000134158 2.1181e-05 0.0 0.0 0.0 0.0
345038500.0 0.0 0.0 0.000289803 0.000112397 0.0 0.0 0.0 0.0
360038000.0 0.0 0.0 -0.000394404 -3.933e-06 0.0 0.0 0.0 0.0
375037500.0 0.0 0.0 -8.1378e-05 -0.000129695 0.0 0.0 0.0 0.0
390037000.0 0.0 0.0 0.000281913 -2.5715e-05 0.0 0.0 0.0 0.0
405036500.0 0.0 0.0 4.2608e-05 0.000340461 0.0 0.0 0.0 0.0
420036000.0 0.0 0.0 0.000133844 0.000279817 0.0 0.0 0.0 0.0
435035500.0 0.0 0.0 0.00072372 8.9141e-05 0.0 0.0 0.0 0.0
450035000.0 0.0 0.0 0.000410162 1.8644e-05 0.0 0.0 0.0 0.0
465034500.0 0.0 0.0 0.00024644 0.000229788 0.0 0.0 0.0 0.0
480034000.0 0.0 0.0 0.000390749 -0.000231998 0.0 0.0 0.0 0.0
495033500.0 0.0 0.0 9.5885e-05 -0.000383876 0.0 0.0 0.0 0.0
510033000.0 0.0 0.0 0.000117468 1.6459e-05 0.0 0.0 0.0 0.0
525032500.0 0.0 0.0 -0.000185378 -0.000165214 0.0 0.0 0.0 0.0
540032000.0 0.0 0.0 0.000380806 7.5654e-05 0.0 0.0 0.0 0.0
555031500.0 0.0 0.0 -9.429e-06 -0.000347907 0.0 0.0 0.0 0.0
570031000.0 0.0 0.0 0.000136052 -0.000463275 0.0 0.0 0.0 0.0
585030500.0 0.0 0.0 0.000571747 -9.7205e-05 0.0 0.0 0.0 0.0
600030000.0 0.0 0.0 0.000200819 0.000420587 0.0 0.0 0.0 0.0
615029500.0 0.0 0.0 0.0005063 -0.000196704 0.0 0.0 0.0 0.0
630029000.0 0.0 0.0 0.000266563 -0.000838587 0.0 0.0 0.0 0.0
645028500.0 0.0 0.0 8.0047e-05 -0.000270913 0.0 0.0 0.0 0.0
660028000.0 0.0 0.0 -0.0004906 -0.000491905 0.0 0.0 0.0 0.0
675027500.0 0.0 0.0 -0.000556147 -0.000320941 0.0 0.0 0.0 0.0
690027000.0 0.0 0.0 -0.000155774 -0.000679604 0.0 0.0 0.0 0.0
705026500.0 0.0 0.0 -2.6172e-05 -0.000488268 0.0 0.0 0.0 0.0
720026000.0 0.0 0.0 -0.000204234 -0.000427092 0.0 0.0 0.0 0.0
735025500.0 0.0 0.0 -1.739e-05 -0.000200491 0.0 0.0 0.0 0.0
750025000.0 0.0 0.0 -6.0715e-05 -0.00035943 0.0 0.0 0.0 0.0
765024500.0 0.0 0.0 7.7405e-05 -1.8711e-05 0.0 0.0 0.0 0.0
780024000.0 0.0 0.0 0.000165114 -0.000828183 0.0 0.0 0.0 0.0
795023500.0 0.0 0.0 0.000361934 -0.000293196 0.0 0.0 0.0 0.0
810023000.0 0.0 0.0 -0.000384064 -0.000394848 0.0 0.0 0.0 0.0
825022500.0 0.0 0.0 0.000298949 0.000119641 0.0 0.0 0.0 0.0
840022000.0 0.0 0.0 4.5549e-05 -0.000179021 0.0 0.0 0.0 0.0
855021500.0 0.0 0.0 9.0448e-05 -0.000489607 0.0 0.0 0.0 0.0
870021000.0 0.0 0.0 -0.00060701 -0.000777622 0.0 0.0 0.0 0.0
885020500.0 0.0 0.0 -0.000192579 -0.000498064 0.0 0.0 0.0 0.0
900020000.0 0.0 0.0 -0.000208711 -0.001354896 0.0 0.0 0.0 0.0
915019500.0 0.0 0.0 -0.001301282 -0.002552409 0.0 0.0 0.0 0.0
930019000.0 0.0 0.0 -0.00023818 0.00081421 0.0 0.0 0.0 0.0
945018500.0 0.0 0.0 0.000332055 -0.00196293 0.0 0.0 0.0 0.0
960018000.0 0.0 0.0 -0.000732885 0.000625255 0.0 0.0 0.0 0.0
975017500.0 0.0 0.0 -0.000372146 -0.000413873 0.0 0.0 0.0 0.0
990017000.0 0.0 0.0 0.000575482 -0.001328606 0.0 0.0 0.0 0.0
1005016500.0 0.0 0.0 0.001198911 2.3101e-05 0.0 0.0 0.0 0.0
1020016000.0 0.0 0.0 0.000555463 0.00090236 0.0 0.0 0.0 0.0
1035015500.0 0.0 0.0 0.001250457 -0.001795118 0.0 0.0 0.0 0.0
1050015000.0 0.0 0.0 0.000756314 -0.004440057 0.0 0.0 0.0 0.0
1065014500.0 0.0 0.0 0.001995287 -0.002511136 0.0 0.0 0.0 0.0
1080014000.0 0.0 0.0 0.000171019 -0.003783805 0.0 0.0 0.0 0.0
1095013500.0 0.0 0.0 -0.000542785 -0.004680911 0.0 0.0 0.0 0.0
1110013000.0 0.0 0.0 -0.001382266 -0.001229895 0.0 0.0 0.0 0.0
1125012500.0 0.0 0.0 -0.002338278 -0.002782915 0.0 0.0 0.0 0.0
1140012000.0 0.0 0.0 -0.001472231 -0.005150589 0.0 0.0 0.0 0.0
1155011500.0 0.0 0.0 0.001395021 -0.003682229 0.0 0.0 0.0 0.0
1170011000.0 0.0 0.0 -0.00109151 0.001074859 0.0 0.0 0.0 0.0
1185010500.0 0.0 0.0 0.002740857 -0.001140172 0.0 0.0 0.0 0.0
1200010000.0 0.0 0.0 -0.002044214 0.000476787 0.0 0.0 0.0 0.0
1215009500.0 0.0 0.0 -0.000748022 0.000390059 0.0 0.0 0.0 0.0
1230009000.0 0.0 0.0 0.004358306 -0.001115566 0.0 0.0 0.0 0.0
1245008500.0 0.0 0.0 -0.001359371 0.003768188 0.0 0.0 0.0 0.0
1260008000.0 0.0 0.0 -0.000228436 -0.00432883 0.0 0.0 0.0 0.0
1275007500.0 0.0 0.0 -0.00105427 0.000261315 0.0 0.0 0.0 0.0
1290007000.0 0.0 0.0 -0.008639574 4.8848e-05 0.0 0.0 0.0 0.0
1305006500.0 0.0 0.0 0.004570213 0.000449953 0.0 0.0 0.0 0.0
1320006000.0 0.0 0.0 -0.001521084 0.003522989 0.0 0.0 0.0 0.0
1335005500.0 0.0 0.0 0.00426509 0.003511755 0.0 0.0 0.0 0.0
1350005000.0 0.0 0.0 -0.006796198 0.010862942 0.0 0.0 0.0 0.0
1365004500.0 0.0 0.0 0.001029231 -0.003668652 0.0 0.0 0.0 0.0
1380004000.0 0.0 0.0 0.012926426 -0.001267237 0.0 0.0 0.0 0.0
1395003500.0 0.0 0.0 -0.004180271 0.00741006 0.0 0.0 0.0 0.0
1410003000.0 0.0 0.0 0.006002888 0.008881044 0.0 0.0 0.0 0.0
1425002500.0 0.0 0.0 -0.00856203 0.016520296 0.0 0.0 0.0 0.0
1440002000.0 0.0 0.0 0.000174464 0.008776848 0.0 0.0 0.0 0.0
1455001500.0 0.0 0.0 -0.001504928 0.003124778 0.0 0.0 0.0 0.0
1470001000.0 0.0 0.0 0.013223886 -0.015422778 0.0 0.0 0.0 0.0
1485000500.0 0.0 0.0 -0.006912755 0.015707384 0.0 0.0 0.0 0.0
1500000000.0 0.0 0.0 0.002270411 -0.002657715 0.0 0.0 0.0 0.0
