! Created with skrf 1.8.0 (http://scikit-rf.org).
# Hz S RI R 50.0 
!freq ReS11 ImS11 ReS21 ImS21 ReS12 ImS12 ReS22 ImS22
50000.0 0.0 0.0 -5.6383e-05 6.3194e-05 0.0 0.0 0.0 0.0
15049500.0 0.0 0.0 -3.0903e-05 9.469e-06 0.0 0.0 0.0 0.0
30049000.0 0.0 0.0 -4.0094e-05 -1.9084e-05 0.0 0.0 0.0 0.0
45048500.0 0.0 0.0 1.013e-06 -2.2653e-05 0.0 0.0 0.0 0.0
60048000.0 0.0 0.0 -4.4676e-05 4.165e-06 0.0 0.0 0.0 0.0
75047500.0 0.0 0.0 -4.5838e-05 -1.3404e-05 0.0 0.0 0.0 0.0
90047000.0 0.0 0.0 -3.4298e-05 2.351e-06 0.0 0.0 0.0 0.0
105046500.0 0.0 0.0 -7.3664e-05 1.78e-05 0.0 0.0 0.0 0.0
120046000.0 0.0 0.0 -3.0805e-05 -4.098e-06 0.0 0.0 0.0 0.0
135045500.0 0.0 0.0 -5.5234e-05 9.742e-06 0.0 0.0 0.0 0.0
150045000.0 0.0 0.0 -3.3806e-05 2.0456e-05 0.0 0.0 0.0 0.0
165044500.0 0.0 0.0 -5.296e-06 4.9686e-05 0.0 0.0 0.0 0.0
180044000.0 0.0 0.0 -3.552e-06 2.9795e-05 0.0 0.0 0.0 0.0
195043500.0 0.0 0.0 2.2585e-05 -1.0099e-05 0.0 0.0 0.0 0.0
210043000.0 0.0 0.0 -1.9801e-05 2.6493e-05 0.0 0.0 0.0 0.0
225042500.0 0.0 0.0 -2.359e-06 1.0675e-05 0.0 0.0 0.0 0.0
240042000.0 0.0 0.0 5.198e-06 3.0366e-05 0.0 0.0 0.0 0.0
255041500.0 0.0 0.0 -9.552e-06 -6.643e-06 0.0 0.0 0.0 0.0
270041000.0 0.0 0.0 1.6446e-05 5.246e-05 0.0 0.0 0.0 0.0
285040500.0 0.0 0.0 -7.541e-06 2.3723e-05 0.0 0.0 0.0 0.0
300040000.0 0.0 0.0 1.2086e-05 2.7233e-05 0.0 0.0 0.0 0.0
315039500.0 0.0 0.0 -1.1166e-05 4.7585e-05 0.0 0.0 0.0 0.0
330039000.0 0.0 0.0 -0.000114418 -7.0516e-05 0.0 0.0 0.0 0.0
345038500.0 0.0 0.0 6.2394e-05 0.000129038 0.0 0.0 0.0 0.0
360038000.0 0.0 0.0 1.6427e-05 0.000235716 0.0 0.0 0.0 0.0
375037500.0 0.0 0.0 0.000168434 0.000167474 0.0 0.0 0.0 0.0
390037000.0 0.0 0.0 -6.086e-05 4.509e-06 0.0 0.0 0.0 0.0
405036500.0 0.0 0.0 -0.00014922 3.2454e-05 0.0 0.0 0.0 0.0
420036000.0 0.0 0.0 0.000528193 -0.000422175 0.0 0.0 0.0 0.0
435035500.0 0.0 0.0 0.000774478 0.000298107 0.0 0.0 0.0 0.0
450035000.0 0.0 0.0 0.00057181 -0.0003461 0.0 0.0 0.0 0.0
465034500.0 0.0 0.0 0.000371568 -0.000176245 0.0 0.0 0.0 0.0
480034000.0 0.0 0.0 0.000458583 -6.1089e-05 0.0 0.0 0.0 0.0
495033500.0 0.0 0.0 0.000120234 -0.000394131 0.0 0.0 0.0 0.0
510033000.0 0.0 0.0 0.000579708 -0.00030588 0.0 0.0 0.0 0.0
525032500.0 0.0 0.0 0.000116178 -8.8041e-05 0.0 0.0 0.0 0.0
540032000.0 0.0 0.0 0.000292775 -0.000111485 0.0 0.0 0.0 0.0
555031500.0 0.0 0.0 -0.000131174 -2.4005e-05 0.0 0.0 0.0 0.0
570031000.0 0.0 0.0 1.564e-05 -0.000343782 0.0 0.0 0.0 0.0
585030500.0 0.0 0.0 0.000286858 -0.000490257 0.0 0.0 0.0 0.0
600030000.0 0.0 0.0 0.000103403 -0.00069149 0.0 0.0 0.0 0.0
615029500.0 0.0 0.0 -3.977e-06 -0.00075418 0.0 0.0 0.0 0.0
630029000.0 0.0 0.0 -0.000102245 -0.000541088 0.0 0.0 0.0 0.0
645028500.0 0.0 0.0 0.000457717 -0.000390067 0.0 0.0 0.0 0.0
660028000.0 0.0 0.0 0.000196986 -0.000704913 0.0 0.0 0.0 0.0
675027500.0 0.0 0.0 0.000165539 -0.000143829 0.0 0.0 0.0 0.0
690027000.0 0.0 0.0 -0.000105175 -8.7314e-05 0.0 0.0 0.0 0.0
705026500.0 0.0 0.0 0.000357165 -0.000447184 0.0 0.0 0.0 0.0
720026000.0 0.0 0.0 4.2016e-05 -0.000227608 0.0 0.0 0.0 0.0
735025500.0 0.0 0.0 -0.000171394 -0.000205329 0.0 0.0 0.0 0.0
750025000.0 0.0 0.0 3.8642e-05 -0.000352039 0.0 0.0 0.0 0.0
765024500.0 0.0 0.0 -0.000566908 -0.000469182 0.0 0.0 0.0 0.0
780024000.0 0.0 0.0 -0.000125578 -0.000764865 0.0 0.0 0.0 0.0
795023500.0 0.0 0.0 -0.000215614 -0.000534676 0.0 0.0 0.0 0.0
810023000.0 0.0 0.0 5.5537e-05 -0.000470699 0.0 0.0 0.0 0.0
825022500.0 0.0 0.0 -0.000124898 -0.000564138 0.0 0.0 0.0 0.0
840022000.0 0.0 0.0 -0.000331159 -0.000293075 0.0 0.0 0.0 0.0
855021500.0 0.0 0.0 0.000221752 -0.000436132 0.0 0.0 0.0 0.0
870021000.0 0.0 0.0 0.000175253 -0.000639722 0.0 0.0 0.0 0.0
885020500.0 0.0 0.0 -0.000333427 -3.6981e-05 0.0 0.0 0.0 0.0
900020000.0 0.0 0.0 -0.002170214 -0.001939491 0.0 0.0 0.0 0.0
915019500.0 0.0 0.0 0.000794433 0.000225276 0.0 0.0 0.0 0.0
930019000.0 0.0 0.0 -0.00080678 -0.000791767 0.0 0.0 0.0 0.0
945018500.0 0.0 0.0 -0.000303553 -0.000189518 0.0 0.0 0.0 0.0
960018000.0 0.0 0.0 -4.5521e-05 -0.001772819 0.0 0.0 0.0 0.0
975017500.0 0.0 0.0 -0.001372816 -0.002021663 0.0 0.0 0.0 0.0
990017000.0 0.0 0.0 0.001018123 -0.000873694 0.0 0.0 0.0 0.0
1005016500.0 0.0 0.0 0.002664971 0.00016422 0.0 0.0 0.0 0.0
1020016000.0 0.0 0.0 0.001663758 7.3492e-05 0.0 0.0 0.0 0.0
1035015500.0 0.0 0.0 0.001095902 -0.002698148 0.0 0.0 0.0 0.0
1050015000.0 0.0 0.0 0.000279507 0.000695038 0.0 0.0 0.0 0.0
1065014500.0 0.0 0.0 0.000463478 0.000645315 0.0 0.0 0.0 0.0
1080014000.0 0.0 0.0 0.002142025 -0.001515966 0.0 0.0 0.0 0.0
1095013500.0 0.0 0.0 9.0113e-05 -0.001134647 0.0 0.0 0.0 0.0
1110013000.0 0.0 0.0 -0.001230119 -0.002767733 0.0 0.0 0.0 0.0
1125012500.0 0.0 0.0 0.001255589 0.00049547 0.0 0.0 0.0 0.0
1140012000.0 0.0 0.0 0.000669383 -0.000225639 0.0 0.0 0.0 0.0
1155011500.0 0.0 0.0 -0.001040013 -0.001396339 0.0 0.0 0.0 0.0
1170011000.0 0.0 0.0 -0.00047909 0.000136696 0.0 0.0 0.0 0.0
1185010500.0 0.0 0.0 -0.001393236 -0.002069185 0.0 0.0 0.0 0.0
1200010000.0 0.0 0.0 -0.00205173 -0.001457255 0.0 0.0 0.0 0.0
1215009500.0 0.0 0.0 0.000199266 -0.000388439 0.0 0.0 0.0 0.0
1230009000.0 0.0 0.0 0.000456721 -0.001572907 0.0 0.0 0.0 0.0
1245008500.0 0.0 0.0 -0.007249175 -0.002390203 0.0 0.0 0.0 0.0
1260008000.0 0.0 0.0 0.004238423 -0.002714432 0.0 0.0 0.0 0.0
1275007500.0 0.0 0.0 -0.00564722 0.002549081 0.0 0.0 0.0 0.0
1290007000.0 0.0 0.0 -0.003178245 -0.00127854 0.0 0.0 0.0 0.0
1305006500.0 0.0 0.0 0.005226542 0.001501398 0.0 0.0 0.0 0.0
1320006000.0 0.0 0.0 -0.000762811 0.005174394 0.0 0.0 0.0 0.0
1335005500.0 0.0 0.0 -0.006233898 -0.000759938 0.0 0.0 0.0 0.0
1350005000.0 0.0 0.0 -0.005223276 -0.004342917 0.0 0.0 0.0 0.0
1365004500.0 0.0 0.0 0.004619766 0.001429754 0.0 0.0 0.0 0.0
1380004000.0 0.0 0.0 0.000814642 -0.000871996 0.0 0.0 0.0 0.0
1395003500.0 0.0 0.0 0.003090725 0.001059584 0.0 0.0 0.0 0.0
1410003000.0 0.0 0.0 -0.000286839 0.005015131 0.0 0.0 0.0 0.0
1425002500.0 0.0 0.0 0.006842362 0.006523956 0.0 0.0 0.0 0.0
1440002000.0 0.0 0.0 0.003571049 0.002128809 0.0 0.0 0.0 0.0
1455001500.0 0.0 0.0 0.000867353 0.002707661 0.0 0.0 0.0 0.0
1470001000.0 0.0 0.0 0.003890426 0.007935459 0.0 0.0 0.0 0.0
1485000500.0 0.0 0.0 0.011351406 0.010032608 0.0 0.0 0.0 0.0
1500000000.0 0.0 0.0 0.007027074 0.00874741 0.0 0.0 0.0 0.0
