! Created with skrf 1.8.0 (http://scikit-rf.org).
# Hz S RI R 50.0 
!freq ReS11 ImS11 ReS21 ImS21 ReS12 ImS12 ReS22 ImS22
50000.0 0.0 0.0 -3.2432e-05 5.5458e-05 0.0 0.0 0.0 0.0
15049500.0 0.0 0.0 -1.4599e-05 -3.103e-06 0.0 0.0 0.0 0.0
30049000.0 0.0 0.0 -1.917e-06 -1.2257e-05 0.0 0.0 0.0 0.0
45048500.0 0.0 0.0 -1.4607e-05 8.816e-06 0.0 0.0 0.0 0.0
60048000.0 0.0 0.0 -5.5617e-05 -2.8401e-05 0.0 0.0 0.0 0.0
75047500.0 0.0 0.0 -1.8079e-05 -2.0178e-05 0.0 0.0 0.0 0.0
90047000.0 0.0 0.0 -2.4234e-05 -4.243e-06 0.0 0.0 0.0 0.0
105046500.0 0.0 0.0 -6.0707e-05 1.5207e-05 0.0 0.0 0.0 0.0
120046000.0 0.0 0.0 -1.455e-05 -5.076e-06 0.0 0.0 0.0 0.0
135045500.0 0.0 0.0 -3.6542e-05 1.8376e-05 0.0 0.0 0.0 0.0
150045000.0 0.0 0.0 -2.0252e-05 1.3812e-05 0.0 0.0 0.0 0.0
165044500.0 0.0 0.0 -5.3894e-05 3.4983e-05 0.0 0.0 0.0 0.0
180044000.0 0.0 0.0 -3.943e-06 1.818e-06 0.0 0.0 0.0 0.0
195043500.0 0.0 0.0 -2.9629e-05 1.7342e-05 0.0 0.0 0.0 0.0
210043000.0 0.0 0.0 -4.408e-06 2.8269e-05 0.0 0.0 0.0 0.0
225042500.0 0.0 0.0 -8.363e-06 3.2321e-05 0.0 0.0 0.0 0.0
240042000.0 0.0 0.0 -5.035e-06 1.3403e-05 0.0 0.0 0.0 0.0
255041500.0 0.0 0.0 2.1914e-05 4.9568e-05 0.0 0.0 0.0 0.0
270041000.0 0.0 0.0 1.859e-06 1.8737e-05 0.0 0.0 0.0 0.0
285040500.0 0.0 0.0 5.923e-05 3.2941e-05 0.0 0.0 0.0 0.0
300040000.0 0.0 0.0 -0.000210672 2.8108e-05 0.0 0.0 0.0 0.0
315039500.0 0.0 0.0 -2.2378e-05 -0.000281107 0.0 0.0 0.0 0.0
330039000.0 0.0 0.0 -1.9908e-05 6.0213e-05 0.0 0.0 0.0 0.0
345038500.0 0.0 0.0 -5.4205e-05 -6.8325e-05 0.0 0.0 0.0 0.0
360038000.0 0.0 0.0 0.000356806 -0.000145855 0.0 0.0 0.0 0.0
375037500.0 0.0 0.0 0.00033191 -0.000157118 0.0 0.0 0.0 0.0
390037000.0 0.0 0.0 7.3395e-05 0.000344092 0.0 0.0 0.0 0.0
405036500.0 0.0 0.0 -5.4063e-05 -0.000162194 0.0 0.0 0.0 0.0
420036000.0 0.0 0.0 0.000331283 0.000230659 0.0 0.0 0.0 0.0
435035500.0 0.0 0.0 0.000446526 0.000217586 0.0 0.0 0.0 0.0
450035000.0 0.0 0.0 0.000533878 -0.000183182 0.0 0.0 0.0 0.0
465034500.0 0.0 0.0 0.000327211 -0.000178649 0.0 0.0 0.0 0.0
480034000.0 0.0 0.0 0.000141255 -2.0755e-05 0.0 0.0 0.0 0.0
495033500.0 0.0 0.0 0.000587859 -0.000543551 0.0 0.0 0.0 0.0
510033000.0 0.0 0.0 0.000192788 2.6972e-05 0.0 0.0 0.0 0.0
525032500.0 0.0 0.0 0.000724122 -0.000295388 0.0 0.0 0.0 0.0
540032000.0 0.0 0.0 0.000835439 -0.000216737 0.0 0.0 0.0 0.0
555031500.0 0.0 0.0 -0.000131436 -0.00042651 0.0 0.0 0.0 0.0
570031000.0 0.0 0.0 0.00030763 -0.000297859 0.0 0.0 0.0 0.0
585030500.0 0.0 0.0 0.000241608 -0.000606797 0.0 0.0 0.0 0.0
600030000.0 0.0 0.0 0.000457169 7.8797e-05 0.0 0.0 0.0 0.0
615029500.0 0.0 0.0 0.000620206 -8.6491e-05 0.0 0.0 0.0 0.0
630029000.0 0.0 0.0 -0.000372937 -0.000789808 0.0 0.0 0.0 0.0
645028500.0 0.0 0.0 0.000306896 -0.000243132 0.0 0.0 0.0 0.0
660028000.0 0.0 0.0 0.000222363 -0.00026911 0.0 0.0 0.0 0.0
675027500.0 0.0 0.0 -0.000335304 -0.000360232 0.0 0.0 0.0 0.0
690027000.0 0.0 0.0 0.00039709 -0.000616373 0.0 0.0 0.0 0.0
705026500.0 0.0 0.0 0.000359533 -0.000705281 0.0 0.0 0.0 0.0
720026000.0 0.0 0.0 -0.000219961 -0.000199476 0.0 0.0 0.0 0.0
735025500.0 0.0 0.0 -0.00019553 -0.000493631 0.0 0.0 0.0 0.0
750025000.0 0.0 0.0 3.5672e-05 -0.000275447 0.0 0.0 0.0 0.0
765024500.0 0.0 0.0 4.2776e-05 -0.000655446 0.0 0.0 0.0 0.0
780024000.0 0.0 0.0 -0.000250005 4.526e-06 0.0 0.0 0.0 0.0
795023500.0 0.0 0.0 -0.00039675 -0.000780236 0.0 0.0 0.0 0.0
810023000.0 0.0 0.0 -0.000275331 -0.000376183 0.0 0.0 0.0 0.0
825022500.0 0.0 0.0 -0.000698342 -0.000479824 0.0 0.0 0.0 0.0
840022000.0 0.0 0.0 -0.000233429 -0.000432714 0.0 0.0 0.0 0.0
855021500.0 0.0 0.0 4.125e-05 -0.000388303 0.0 0.0 0.0 0.0
870021000.0 0.0 0.0 0.000143668 -0.000455682 0.0 0.0 0.0 0.0
885020500.0 0.0 0.0 -0.000204711 -9.2181e-05 0.0 0.0 0.0 0.0
900020000.0 0.0 0.0 0.001677997 0.001306171 0.0 0.0 0.0 0.0
915019500.0 0.0 0.0 -0.001088747 -0.001935868 0.0 0.0 0.0 0.0
930019000.0 0.0 0.0 0.002424119 -0.000673634 0.0 0.0 0.0 0.0
945018500.0 0.0 0.0 0.001341304 -0.00327822 0.0 0.0 0.0 0.0
960018000.0 0.0 0.0 0.001623167 -0.000252177 0.0 0.0 0.0 0.0
975017500.0 0.0 0.0 -0.000556897 -0.000282914 0.0 0.0 0.0 0.0
990017000.0 0.0 0.0 -0.000360758 -0.001452366 0.0 0.0 0.0 0.0
1005016500.0 0.0 0.0 -0.000261361 -0.001427402 0.0 0.0 0.0 0.0
1020016000.0 0.0 0.0 -0.000683937 -0.000645084 0.0 0.0 0.0 0.0
1035015500.0 0.0 0.0 -0.000747038 -9.085e-05 0.0 0.0 0.0 0.0
1050015000.0 0.0 0.0 -0.001728064 -0.001597617 0.0 0.0 0.0 0.0
1065014500.0 0.0 0.0 -0.001610501 0.001303385 0.0 0.0 0.0 0.0
1080014000.0 0.0 0.0 0.000283312 -0.003095244 0.0 0.0 0.0 0.0
1095013500.0 0.0 0.0 0.001314956 -0.004722838 0.0 0.0 0.0 0.0
1110013000.0 0.0 0.0 -0.003006552 -0.000415966 0.0 0.0 0.0 0.0
1125012500.0 0.0 0.0 0.000659896 -0.002945624 0.0 0.0 0.0 0.0
1140012000.0 0.0 0.0 -0.002820824 -0.003797741 0.0 0.0 0.0 0.0
1155011500.0 0.0 0.0 -0.00413942 0.002276956 0.0 0.0 0.0 0.0
1170011000.0 0.0 0.0 0.000213846 0.000468356 0.0 0.0 0.0 0.0
1185010500.0 0.0 0.0 -0.003478265 -0.005723064 0.0 0.0 0.0 0.0
1200010000.0 0.0 0.0 0.000195149 -0.001099386 0.0 0.0 0.0 0.0
1215009500.0 0.0 0.0 0.00013661 -0.003320272 0.0 0.0 0.0 0.0
1230009000.0 0.0 0.0 0.00140395 0.004734653 0.0 0.0 0.0 0.0
1245008500.0 0.0 0.0 0.002536779 0.000801134 0.0 0.0 0.0 0.0
1260008000.0 0.0 0.0 -6.8395e-05 -0.002479807 0.0 0.0 0.0 0.0
1275007500.0 0.0 0.0 0.002443103 -0.00351299 0.0 0.0 0.0 0.0
1290007000.0 0.0 0.0 0.000481417 0.008957042 0.0 0.0 0.0 0.0
1305006500.0 0.0 0.0 -0.001891264 -0.000152579 0.0 0.0 0.0 0.0
1320006000.0 0.0 0.0 7.8882e-05 0.006185039 0.0 0.0 0.0 0.0
1335005500.0 0.0 0.0 0.00338972 0.000941618 0.0 0.0 0.0 0.0
1350005000.0 0.0 0.0 -0.001923984 0.007964203 0.0 0.0 0.0 0.0
1365004500.0 0.0 0.0 -0.001190273 0.009909506 0.0 0.0 0.0 0.0
1380004000.0 0.0 0.0 0.00452471 -0.001454118 0.0 0.0 0.0 0.0
1395003500.0 0.0 0.0 0.005756627 0.005370375 0.0 0.0 0.0 0.0
1410003000.0 0.0 0.0 0.004228529 0.000867142 0.0 0.0 0.0 0.0
1425002500.0 0.0 0.0 0.005689018 0.001919207 0.0 0.0 0.0 0.0
1440002000.0 0.0 0.0 0.006161198 -0.000951585 0.0 0.0 0.0 0.0
1455001500.0 0.0 0.0 0.010499794 -0.006486684 0.0 0.0 0.0 0.0
1470001000.0 0.0 0.0 0.004194147 0.004805476 0.0 0.0 0.0 0.0
1485000500.0 0.0 0.0 0.004646664 0.020698968 0.0 0.0 0.0 0.0
1500000000.0 0.0 0.0 0.010565914 0.017610108 0.0 0.0 0.0 0.0
