! Created with skrf 1.8.0 (http://scikit-rf.org).
# Hz S RI R 50.0 
!freq ReS11 ImS11
50000.0 0.998776 0.001671213
15049500.0 0.94060736 0.360639488
30049000.0 0.7503152 0.673455296
45048500.0 0.462029152 0.893251584
60048000.0 0.10277732 1.014732122
75047500.0 -0.274113152 0.988848896
90047000.0 -0.620553664 0.820366208
105046500.0 -0.892509952 0.546176192
120046000.0 -1.043230892 0.184708336
135045500.0 -1.046936512 -0.21087344
150045000.0 -0.915044864 -0.587254016
165044500.0 -0.647887168 -0.886532416
180044000.0 -0.313576832 -1.046161652
195043500.0 0.065873928 -1.102929952
210043000.0 0.438006528 -1.023347378
225042500.0 0.754902464 -0.821041472
240042000.0 0.999113728 -0.53926464
255041500.0 1.139034032 -0.185147152
270041000.0 1.151599168 0.22517696
285040500.0 1.022603988 0.635231168
300040000.0 0.685685888 0.959774272
315039500.0 0.31765936 1.193130016
330039000.0 -0.140282992 1.260599728
345038500.0 -0.599580672 1.142552144
360038000.0 -0.97267168 0.87208096
375037500.0 -1.258252864 0.471291424
390037000.0 -1.383342016 -0.029335358
405036500.0 -1.289122944 -0.527511968
420036000.0 -1.030748368 -0.974288384
435035500.0 -0.629444224 -1.275270688
450035000.0 -0.160822512 -1.396152384
465034500.0 0.308812736 -1.385502464
480034000.0 0.734929984 -1.21493888
495033500.0 1.080647112 -0.91540192
510033000.0 1.326918944 -0.52327632
525032500.0 1.412842528 -0.060409964
540032000.0 1.369185216 0.394119072
555031500.0 1.155321008 0.810754368
570031000.0 0.812228352 1.125457408
585030500.0 0.391439168 1.297270304
600030000.0 -0.057230836 1.357441664
615029500.0 -0.503165664 1.23362064
630029000.0 -0.88436704 0.958039552
645028500.0 -1.175810096 0.58122912
660028000.0 -1.315805568 0.101465856
675027500.0 -1.27645456 -0.391648864
690027000.0 -1.019097208 -0.867081344
705026500.0 -0.611363968 -1.173880816
720026000.0 -0.133949904 -1.281267872
735025500.0 0.319623104 -1.218250512
750025000.0 0.707290944 -1.008309961
765024500.0 1.007825017 -0.65952512
780024000.0 1.152581328 -0.212968864
795023500.0 1.104452608 0.215305024
810023000.0 0.866012352 0.552881728
825022500.0 0.56226048 0.733868224
840022000.0 0.275013248 0.780731712
855021500.0 0.058282388 0.76061152
870021000.0 -0.124814248 0.731438848
885020500.0 -0.293678944 0.714727872
900020000.0 -0.517363616 0.73766048
915019500.0 -0.503784416 0.7377904
930019000.0 -0.485695968 0.735640256
945018500.0 -0.469182528 0.74076704
960018000.0 -0.45111648 0.751164288
975017500.0 -0.433849472 0.750008128
990017000.0 -0.409717664 0.753302464
1005016500.0 -0.391213856 0.756299008
1020016000.0 -0.360603168 0.758899584
1035015500.0 -0.346622624 0.77102848
1050015000.0 -0.342334656 0.7829056
1065014500.0 -0.302864736 0.781394048
1080014000.0 -0.293499776 0.782583104
1095013500.0 -0.25839576 0.790938752
1110013000.0 -0.238073728 0.795494016
1125012500.0 -0.216392144 0.789968704
1140012000.0 -0.183854992 0.797203392
1155011500.0 -0.129981264 0.806756416
1170011000.0 -0.11503736 0.789495744
1185010500.0 -0.101738296 0.790905344
1200010000.0 -0.072446864 0.79359168
1215009500.0 -0.044893496 0.795814016
1230009000.0 -0.0196803 0.799794624
1245008500.0 0.007874278 0.8030912
1260008000.0 0.049769396 0.79415232
1275007500.0 0.076731968 0.799427776
1290007000.0 0.106410872 0.796702592
1305006500.0 0.137888928 0.78408896
1320006000.0 0.167674176 0.770088704
1335005500.0 0.204187264 0.766533184
1350005000.0 0.233749056 0.758682624
1365004500.0 0.26553848 0.764580736
1380004000.0 0.295755392 0.742959872
1395003500.0 0.308702752 0.723265408
1410003000.0 0.340993632 0.706943232
1425002500.0 0.38006768 0.68572928
1440002000.0 0.409433856 0.667681984
1455001500.0 0.42744656 0.648903296
1470001000.0 0.452139904 0.6442608
1485000500.0 0.46005632 0.583063232
1500000000.0 0.502827776 0.606706496
