! Created with skrf 1.8.0 (http://scikit-rf.org).
# Hz S RI R 50.0 
!freq ReS11 ImS11
50000.0 2.4740278070820128 -0.10470858127486282
15049500.0 2.4537065414243093 -1.9041062097486086
30049000.0 -0.08156104084580018 -0.9115580413640506
45048500.0 -0.14412717929340843 2.0297892360987997
60048000.0 -1.2825552805028173 1.3344757850253595
75047500.0 -2.828587776610799 1.7865367006225013
90047000.0 -0.3345332367628702 0.5959382445416175
105046500.0 -1.1046030128472035 1.8923884498271681
120046000.0 -0.3220743924117394 -1.0940283930999286
135045500.0 -1.4147129904302889 0.706532633183854
150045000.0 -5.681781145291404 -1.962332646781544
165044500.0 -0.23608928906398033 0.19319902457333293
180044000.0 -0.8948442308777262 0.006660840386821825
195043500.0 2.352552503918717 -0.84118147235899
210043000.0 2.532267049495316 -0.5270831816771137
225042500.0 1.9491211647615532 0.7250877462296802
240042000.0 -6.097132729424528 11.871002717583213
255041500.0 -0.5442106691481317 -0.5931994252426789
270041000.0 3.4314921710418433 3.4701121618550475
285040500.0 0.30987777886229423 2.763820230146035
300040000.0 0.335037706629336 -2.147335791801728
315039500.0 0.42036127276475777 -4.471387815944099
330039000.0 -6.112666703538378 4.644090486095837
345038500.0 0.20789476725791517 -1.7717621821205158
360038000.0 -0.7540928841393035 -0.48528652957765145
375037500.0 -0.3769115182130473 -1.0356944869711802
390037000.0 0.3037582443118727 1.4540722450702726
405036500.0 7.630651223179613 -6.28833070397315
420036000.0 -0.2668060819139007 -1.7083373716450136
435035500.0 0.7998726839521616 0.8671503746925661
450035000.0 -0.3988704938187639 3.370192643327426
465034500.0 7.7720625024185 1.6718248864584246
480034000.0 -1.1138791950238212 0.6058709903224391
495033500.0 1.7231506220437918 -0.17709041185158053
510033000.0 -0.33432762216158785 -0.2754922014806533
525032500.0 2.769952092451545 0.6016146534001526
540032000.0 1.1216929782166074 -1.4401808664493225
555031500.0 0.9907057381268534 -0.24686368770591668
570031000.0 -6.034451765940553 1.5182844278419647
585030500.0 -0.31032128153867494 -0.19131827464544507
600030000.0 -0.8496707309540891 4.516338472355277
615029500.0 -0.9936997348245507 -0.14285175917226295
630029000.0 -2.946402748059175 3.486862107802938
645028500.0 -1.9409792341266185 0.8295343266842463
660028000.0 2.544458668197155 -0.28804839684956823
675027500.0 1.1876247817688803 7.896801955810587
690027000.0 0.8552494823408424 -0.25012599326709245
705026500.0 1.5930580434279007 -1.3200755540972025
720026000.0 -1.5681298458506288 -2.043403225289911
735025500.0 0.6406500275535911 -2.261381387566195
750025000.0 1.482467686839194 2.6836607484483337
765024500.0 -0.9711371278461354 -0.8137285813945793
780024000.0 1.134289200270952 0.4712925348830308
795023500.0 2.0779018646953094 -2.8031229407795553
810023000.0 0.4262716633443453 -0.00042977911054003864
825022500.0 -3.5011117130192972 1.0507795730048322
840022000.0 -5.985831867801936 -0.9272221179064731
855021500.0 0.3646294767039885 -0.5362716633659875
870021000.0 0.45989913912686153 -0.7474703755430354
885020500.0 -1.9835549574288336 0.8730089815607518
900020000.0 0.590210256918987 0.27139404078641427
915019500.0 6.698152585923309 -2.3368499976177137
930019000.0 -0.48649137634884215 1.4442180730937446
945018500.0 0.910867908984688 1.745945619152032
960018000.0 1.8846571619552461 0.716139651331944
975017500.0 0.5494911024537188 0.9425876676236973
990017000.0 -0.13888340895110704 -1.6903858199999533
1005016500.0 2.226728616311009 -1.6125115358442064
1020016000.0 -0.6373565836605581 1.3871368440391143
1035015500.0 0.2444417043151672 -1.9415370689032088
1050015000.0 -0.355121209304568 0.6480437069498106
1065014500.0 -0.9704456362068048 0.8748284638461538
1080014000.0 -0.696279563757061 1.3784967270762556
1095013500.0 -0.9377890219271623 0.32554249735015073
1110013000.0 0.19301432298509508 -0.27503729470469557
1125012500.0 -0.6767271437454768 2.000527321324542
1140012000.0 0.39362912887337487 -1.7575433340284359
1155011500.0 -1.5304603344345598 -0.46805260815175276
1170011000.0 0.3947635803280622 12.7526301554815
1185010500.0 -1.6365026970888585 -0.891697819748424
1200010000.0 0.924538874481403 0.08139426193220134
1215009500.0 -2.0062092850481896 -0.4047614527920328
1230009000.0 0.7179248006766012 -0.6065140728117381
1245008500.0 1.0179752754075821 1.5850043531645008
1260008000.0 -0.05272368743219804 1.0086321101447273
1275007500.0 3.629116799734072 -2.5833772183143746
1290007000.0 2.1707049157309743 -2.6710771931803907
1305006500.0 0.18263060000339318 0.021892510366463606
1320006000.0 -0.7878304091106804 1.9206590798264573
1335005500.0 0.04691340571506981 -0.2983911924379673
1350005000.0 0.3322780884269783 -0.045946007404091
1365004500.0 -0.42720692772884483 -0.5241114586124513
1380004000.0 1.8705600409112415 -2.6022307252786345
1395003500.0 -1.2352915590805176 2.0093249173204164
1410003000.0 0.5448927779245107 -0.4602072658774674
1425002500.0 0.9085528720335977 -2.038144085274918
1440002000.0 3.4550359154302472 -4.6124966319083125
1455001500.0 0.5706108328430621 -0.6063821452376238
1470001000.0 -2.7303436373391112 -4.904652205733707
1485000500.0 -2.8312859332026563 -0.8835682172222613
1500000000.0 1.395959772902897 0.7141371774822366
