! Created with skrf 1.8.0 (http://scikit-rf.org).
# Hz S RI R 50.0 
!freq ReS11 ImS11
50000.0 0.001244110792441142 0.0015838223884116066
15049500.0 -0.0010015125313867568 -0.0006340250255860319
30049000.0 -0.00036990933520939846 0.00010401843230974926
45048500.0 0.00022040491383398808 0.00033692710237563645
60048000.0 0.00016611346812318435 -0.0001894891540327943
75047500.0 0.00023043264201022388 0.0007694218747789776
90047000.0 2.068882424806507e-05 -0.00016013516018167264
105046500.0 -0.00045193400803527614 0.00018712821002844467
120046000.0 0.0003218127988221488 9.563123474117065e-05
135045500.0 0.0014203376488015717 -0.0005019023126410804
150045000.0 -0.0006590062848250766 -0.0020139839867858015
165044500.0 0.0003048090528726017 0.00040708714904365794
180044000.0 3.9576669431327625e-06 2.1898337284782778e-05
195043500.0 -0.0004118273160059672 0.0003862529153849413
210043000.0 0.001341791347650387 -0.001999953613651995
225042500.0 -0.0006937379555992686 -0.00024582401188758945
240042000.0 0.006420153533544024 0.006921903552601408
255041500.0 -0.00015659812011023332 0.0002014318150309507
270041000.0 -0.0024420027995227097 -0.0038324498882188413
285040500.0 0.005704125151122468 -0.0007646877449602948
300040000.0 -0.005629472527392702 0.004984510254190497
315039500.0 -0.0035649487501607175 -0.013991605517517323
330039000.0 -0.02494028427297643 0.0020403314011574864
345038500.0 -0.001094895721807387 -0.0054755127105176596
360038000.0 0.0013591662889102156 -0.0008563273232582419
375037500.0 -0.0026143820167487835 -0.0008926691647114883
390037000.0 0.026722708051904843 -0.014156666213104827
405036500.0 0.00889930958529152 -0.043936140124510116
420036000.0 -0.001482230365692004 -0.00352647620239855
435035500.0 -0.00330816760233263 -7.262026555423731e-05
450035000.0 -0.04381496971415409 -0.033619015812081626
465034500.0 -0.0003251794215456222 -0.0257270942407253
480034000.0 0.0017699487274213377 -0.0017006178635787076
495033500.0 -0.0030033204652213097 0.00033742543890308047
510033000.0 0.002434965197840551 -0.0006924561014766024
525032500.0 -0.005769367292544461 0.006590115611186015
540032000.0 0.011542997627560905 -0.0035544914171047027
555031500.0 0.0005384341684743532 -0.0009512346549114863
570031000.0 -0.013763381312920828 -0.019984856385246434
585030500.0 0.0012466719056079957 0.00432427870508687
600030000.0 -0.03829117348302031 0.007999084778149418
615029500.0 0.0006719358452348172 -6.388272572927336e-05
630029000.0 0.037240780744522695 0.007373379748156558
645028500.0 -0.0055171252680958115 0.009646871398708146
660028000.0 0.011488775908286468 -0.004589612268350849
675027500.0 -0.03009059565083517 0.02389812155738896
690027000.0 0.0007684241161323304 0.0001443545127274873
705026500.0 0.0006753376335016697 0.0014427475919420781
720026000.0 -0.022079296286275203 0.005608892000418534
735025500.0 -0.005113227999899611 -0.012440077846611317
750025000.0 0.017336753064851947 -0.0035221164255375336
765024500.0 -0.0019807376732490127 -0.0015188911262397238
780024000.0 -0.013716517520110475 -0.009879901918281107
795023500.0 0.020404158053872502 0.009296789967349577
810023000.0 0.0020522302375227263 -0.0007696641502064802
825022500.0 -0.009607377513148321 0.00939996993672066
840022000.0 0.029521594051780387 -0.009786226246653094
855021500.0 -0.0005518075661418316 -0.0009341564118876724
870021000.0 -0.0037245894035595503 0.00021922769868110105
885020500.0 0.005694057028386462 0.011517711651182908
900020000.0 0.0009348258401398866 -0.001644042095895904
915019500.0 -0.021182493277187124 -0.013336276529265044
930019000.0 0.005795240181024925 1.3099663372929262e-05
945018500.0 0.002597922305132655 -0.012886525888558908
960018000.0 -0.012831621340643997 0.0073229915499581095
975017500.0 0.0085464219799514 -0.003372469363745034
990017000.0 0.001545963951136477 -0.010600417464142333
1005016500.0 0.004379410577265236 -0.01020359608507742
1020016000.0 0.0018119020043879564 0.016561549515106522
1035015500.0 0.007678784302405207 -0.009820840581818624
1050015000.0 -0.02255236157708682 -0.0162948437262392
1065014500.0 -0.0038104801571963737 0.006905527820273047
1080014000.0 0.013764815072870761 -0.014641640753138823
1095013500.0 0.0004423987415288869 0.0017342756230325598
1110013000.0 -0.0019117794000525342 0.0014147593089644714
1125012500.0 0.015037237900494922 -0.002906790551022375
1140012000.0 -0.0012281843338801484 -0.004977959526297641
1155011500.0 -0.008140967363046078 -0.03170413381290563
1170011000.0 0.26372855686796376 0.1224619028737537
1185010500.0 -0.0025492343526527963 0.005746583367326364
1200010000.0 -0.0010355624912165736 0.0002295137208034806
1215009500.0 -0.012621964360610019 0.004312666126038355
1230009000.0 0.005747923051890411 -0.004535351808880464
1245008500.0 -0.013381209400962445 -0.008983658123399416
1260008000.0 0.01774215595263156 0.005055063326338767
1275007500.0 0.053378691057116234 0.0065278253545947035
1290007000.0 0.014521798038138894 0.02919522824505506
1305006500.0 0.006629044597442645 -0.0027195240132193606
1320006000.0 0.0024483726638485728 -0.012320972121525666
1335005500.0 -0.0018953150322143409 -0.005787404216142616
1350005000.0 0.0028915515843553593 0.0015920869608266619
1365004500.0 0.03105711964531757 0.009931240973696524
1380004000.0 0.01433747746952015 -0.015249732344133765
1395003500.0 -0.0006479480914576076 -0.030289644617880234
1410003000.0 -0.006241582287279446 0.003408771806372682
1425002500.0 0.020070984611022396 -0.02351204048971868
1440002000.0 0.061638292935827774 -0.016951028113783493
1455001500.0 -0.0032559728661488724 -0.008737806825089432
1470001000.0 0.10019650184472106 -0.08877971543228921
1485000500.0 -0.029511618056704676 0.10461602636747645
1500000000.0 0.010291473513050351 0.02049117551975565
