! Created with skrf 1.8.0 (http://scikit-rf.org).
# Hz S RI R 50.0 
!freq ReS11 ImS11 ReS21 ImS21 ReS12 ImS12 ReS22 ImS22
50000.0 0.0 0.0 -0.817743104 -0.011649242 0.0 0.0 0.0 0.0
15049500.0 0.0 0.0 -0.784787648 0.200721872 0.0 0.0 0.0 0.0
30049000.0 0.0 0.0 -0.714907648 0.375820512 0.0 0.0 0.0 0.0
45048500.0 0.0 0.0 -0.606445312 0.529254496 0.0 0.0 0.0 0.0
60048000.0 0.0 0.0 -0.468228032 0.6516848 0.0 0.0 0.0 0.0
75047500.0 0.0 0.0 -0.308060384 0.737300416 0.0 0.0 0.0 0.0
90047000.0 0.0 0.0 -0.125883464 0.782833984 0.0 0.0 0.0 0.0
105046500.0 0.0 0.0 0.054375844 0.78974336 0.0 0.0 0.0 0.0
120046000.0 0.0 0.0 0.227857776 0.756360256 0.0 0.0 0.0 0.0
135045500.0 0.0 0.0 0.388682048 0.685329728 0.0 0.0 0.0 0.0
150045000.0 0.0 0.0 0.529882496 0.581220416 0.0 0.0 0.0 0.0
165044500.0 0.0 0.0 0.6447632 0.448979968 0.0 0.0 0.0 0.0
180044000.0 0.0 0.0 0.727776192 0.296041216 0.0 0.0 0.0 0.0
195043500.0 0.0 0.0 0.775120768 0.127982632 0.0 0.0 0.0 0.0
210043000.0 0.0 0.0 0.783976704 -0.047077552 0.0 0.0 0.0 0.0
225042500.0 0.0 0.0 0.753042944 -0.220098272 0.0 0.0 0.0 0.0
240042000.0 0.0 0.0 0.682855168 -0.382180416 0.0 0.0 0.0 0.0
255041500.0 0.0 0.0 0.577390528 -0.524072096 0.0 0.0 0.0 0.0
270041000.0 0.0 0.0 0.44226848 -0.637545536 0.0 0.0 0.0 0.0
285040500.0 0.0 0.0 0.286009376 -0.71631584 0.0 0.0 0.0 0.0
300040000.0 0.0 0.0 0.132172424 -0.758442176 0.0 0.0 0.0 0.0
315039500.0 0.0 0.0 -0.03946626 -0.76437216 0.0 0.0 0.0 0.0
330039000.0 0.0 0.0 -0.205268544 -0.738532224 0.0 0.0 0.0 0.0
345038500.0 0.0 0.0 -0.363763552 -0.670529536 0.0 0.0 0.0 0.0
360038000.0 0.0 0.0 -0.502111424 -0.573027776 0.0 0.0 0.0 0.0
375037500.0 0.0 0.0 -0.614032192 -0.447891808 0.0 0.0 0.0 0.0
390037000.0 0.0 0.0 -0.692725184 -0.30632064 0.0 0.0 0.0 0.0
405036500.0 0.0 0.0 -0.74205536 -0.143595504 0.0 0.0 0.0 0.0
420036000.0 0.0 0.0 -0.748194304 0.021876782 0.0 0.0 0.0 0.0
435035500.0 0.0 0.0 -0.714287488 0.185478064 0.0 0.0 0.0 0.0
450035000.0 0.0 0.0 -0.644091776 0.338764704 0.0 0.0 0.0 0.0
465034500.0 0.0 0.0 -0.538419136 0.470392096 0.0 0.0 0.0 0.0
480034000.0 0.0 0.0 -0.411896352 0.569489536 0.0 0.0 0.0 0.0
495033500.0 0.0 0.0 -0.269426272 0.639751104 0.0 0.0 0.0 0.0
510033000.0 0.0 0.0 -0.122436512 0.675085056 0.0 0.0 0.0 0.0
525032500.0 0.0 0.0 0.028951928 0.679250624 0.0 0.0 0.0 0.0
540032000.0 0.0 0.0 0.173647008 0.652055232 0.0 0.0 0.0 0.0
555031500.0 0.0 0.0 0.308450176 0.596790976 0.0 0.0 0.0 0.0
570031000.0 0.0 0.0 0.428858464 0.5142448 0.0 0.0 0.0 0.0
585030500.0 0.0 0.0 0.529102208 0.408919648 0.0 0.0 0.0 0.0
600030000.0 0.0 0.0 0.60908224 0.291348736 0.0 0.0 0.0 0.0
615029500.0 0.0 0.0 0.657222848 0.150586832 0.0 0.0 0.0 0.0
630029000.0 0.0 0.0 0.6732816 0.000745148 0.0 0.0 0.0 0.0
645028500.0 0.0 0.0 0.654464768 -0.151083024 0.0 0.0 0.0 0.0
660028000.0 0.0 0.0 0.599938304 -0.292965184 0.0 0.0 0.0 0.0
675027500.0 0.0 0.0 0.51486368 -0.416889856 0.0 0.0 0.0 0.0
690027000.0 0.0 0.0 0.40538016 -0.517851904 0.0 0.0 0.0 0.0
705026500.0 0.0 0.0 0.276844256 -0.58570656 0.0 0.0 0.0 0.0
720026000.0 0.0 0.0 0.141100048 -0.624636352 0.0 0.0 0.0 0.0
735025500.0 0.0 0.0 0.002873137 -0.635201152 0.0 0.0 0.0 0.0
750025000.0 0.0 0.0 -0.13286692 -0.617544448 0.0 0.0 0.0 0.0
765024500.0 0.0 0.0 -0.259736336 -0.568180096 0.0 0.0 0.0 0.0
780024000.0 0.0 0.0 -0.357359648 -0.502526656 0.0 0.0 0.0 0.0
795023500.0 0.0 0.0 -0.468137408 -0.401334336 0.0 0.0 0.0 0.0
810023000.0 0.0 0.0 -0.543859712 -0.287810848 0.0 0.0 0.0 0.0
825022500.0 0.0 0.0 -0.594306752 -0.159006752 0.0 0.0 0.0 0.0
840022000.0 0.0 0.0 -0.613121344 -0.021488362 0.0 0.0 0.0 0.0
855021500.0 0.0 0.0 -0.601156736 0.116964632 0.0 0.0 0.0 0.0
870021000.0 0.0 0.0 -0.558928064 0.25027856 0.0 0.0 0.0 0.0
885020500.0 0.0 0.0 -0.488547968 0.36799632 0.0 0.0 0.0 0.0
900020000.0 0.0 0.0 -0.374263808 0.466725088 0.0 0.0 0.0 0.0
915019500.0 0.0 0.0 -0.259706528 0.535326048 0.0 0.0 0.0 0.0
930019000.0 0.0 0.0 -0.138673552 0.577456832 0.0 0.0 0.0 0.0
945018500.0 0.0 0.0 -0.01614014 0.593464 0.0 0.0 0.0 0.0
960018000.0 0.0 0.0 0.111350504 0.59060768 0.0 0.0 0.0 0.0
975017500.0 0.0 0.0 0.2261664 0.556596352 0.0 0.0 0.0 0.0
990017000.0 0.0 0.0 0.343814688 0.497921536 0.0 0.0 0.0 0.0
1005016500.0 0.0 0.0 0.448579936 0.425139424 0.0 0.0 0.0 0.0
1020016000.0 0.0 0.0 0.5373888 0.327021472 0.0 0.0 0.0 0.0
1035015500.0 0.0 0.0 0.606157184 0.20158328 0.0 0.0 0.0 0.0
1050015000.0 0.0 0.0 0.641143936 0.05852424 0.0 0.0 0.0 0.0
1065014500.0 0.0 0.0 0.658229568 -0.08984136 0.0 0.0 0.0 0.0
1080014000.0 0.0 0.0 0.630586944 -0.2502816 0.0 0.0 0.0 0.0
1095013500.0 0.0 0.0 0.565147456 -0.39858912 0.0 0.0 0.0 0.0
1110013000.0 0.0 0.0 0.459728768 -0.524065504 0.0 0.0 0.0 0.0
1125012500.0 0.0 0.0 0.331983328 -0.619951872 0.0 0.0 0.0 0.0
1140012000.0 0.0 0.0 0.177356432 -0.683025216 0.0 0.0 0.0 0.0
1155011500.0 0.0 0.0 -0.002759294 -0.710208192 0.0 0.0 0.0 0.0
1170011000.0 0.0 0.0 -0.134516272 -0.716239872 0.0 0.0 0.0 0.0
1185010500.0 0.0 0.0 -0.312082752 -0.674775744 0.0 0.0 0.0 0.0
1200010000.0 0.0 0.0 -0.463606528 -0.598786688 0.0 0.0 0.0 0.0
1215009500.0 0.0 0.0 -0.595750144 -0.500520288 0.0 0.0 0.0 0.0
1230009000.0 0.0 0.0 -0.705446272 -0.370936352 0.0 0.0 0.0 0.0
1245008500.0 0.0 0.0 -0.801758656 -0.216439408 0.0 0.0 0.0 0.0
1260008000.0 0.0 0.0 -0.852295808 -0.044351504 0.0 0.0 0.0 0.0
1275007500.0 0.0 0.0 -0.862232064 0.160489376 0.0 0.0 0.0 0.0
1290007000.0 0.0 0.0 -0.811860864 0.351408736 0.0 0.0 0.0 0.0
1305006500.0 0.0 0.0 -0.720814912 0.53335904 0.0 0.0 0.0 0.0
1320006000.0 0.0 0.0 -0.595616576 0.697556032 0.0 0.0 0.0 0.0
1335005500.0 0.0 0.0 -0.435179072 0.80725376 0.0 0.0 0.0 0.0
1350005000.0 0.0 0.0 -0.241995104 0.889775936 0.0 0.0 0.0 0.0
1365004500.0 0.0 0.0 -0.041567496 0.935800128 0.0 0.0 0.0 0.0
1380004000.0 0.0 0.0 0.119159712 0.910319488 0.0 0.0 0.0 0.0
1395003500.0 0.0 0.0 0.317927488 0.874644544 0.0 0.0 0.0 0.0
1410003000.0 0.0 0.0 0.488577728 0.811459264 0.0 0.0 0.0 0.0
1425002500.0 0.0 0.0 0.644038208 0.70124544 0.0 0.0 0.0 0.0
1440002000.0 0.0 0.0 0.788648704 0.58143328 0.0 0.0 0.0 0.0
1455001500.0 0.0 0.0 0.907992768 0.449619392 0.0 0.0 0.0 0.0
1470001000.0 0.0 0.0 1.006697774 0.273950496 0.0 0.0 0.0 0.0
1485000500.0 0.0 0.0 1.040816068 0.075965904 0.0 0.0 0.0 0.0
1500000000.0 0.0 0.0 1.040414332 -0.121400976 0.0 0.0 0.0 0.0
