! Created with skrf 1.8.0 (http://scikit-rf.org).
# Hz S RI R 50.0 
!freq ReS11 ImS11
50000.0 -0.006486295 -0.003796027
15049500.0 -0.001529511 0.00524664
30049000.0 -0.00472104 0.007499312
45048500.0 -0.010394704 0.007918022
60048000.0 -0.017220658 0.005707203
75047500.0 -0.02431585 0.0012075
90047000.0 -0.030557602 -0.005770854
105046500.0 -0.034560344 -0.013594878
120046000.0 -0.036064568 -0.021794912
135045500.0 -0.034674468 -0.029005896
150045000.0 -0.030903562 -0.034565428
165044500.0 -0.025201372 -0.037358576
180044000.0 -0.019441928 -0.034921924
195043500.0 -0.014087102 -0.030864722
210043000.0 -0.010725154 -0.023984316
225042500.0 -0.010048248 -0.015330914
240042000.0 -0.012857806 -0.006743084
255041500.0 -0.01882874 -0.000191472
270041000.0 -0.026909434 0.002462494
285040500.0 -0.035616792 0.000542261
300040000.0 -0.04180108 -0.007170858
315039500.0 -0.045540044 -0.017671542
330039000.0 -0.043192024 -0.033654548
345038500.0 -0.032150198 -0.050672052
360038000.0 -0.014155352 -0.065375052
375037500.0 0.013019226 -0.077510472
390037000.0 0.04728214 -0.081195272
405036500.0 0.084401872 -0.076569608
420036000.0 0.123998672 -0.060199416
435035500.0 0.15895968 -0.033609212
450035000.0 0.188013072 0.001266511
465034500.0 0.205649472 0.043247392
480034000.0 0.212752 0.09072844
495033500.0 0.201737472 0.13461576
510033000.0 0.180626608 0.172346624
525032500.0 0.146120704 0.197865344
540032000.0 0.10333996 0.204878128
555031500.0 0.066137276 0.196662272
570031000.0 0.035511788 0.173432192
585030500.0 0.014455142 0.137477552
600030000.0 0.003801313 0.097019984
615029500.0 0.008072245 0.049044408
630029000.0 0.029739076 0.003015849
645028500.0 0.064819096 -0.032619942
660028000.0 0.108569864 -0.056099484
675027500.0 0.156105872 -0.064831876
690027000.0 0.202287728 -0.057560528
705026500.0 0.236988752 -0.03701224
720026000.0 0.262667056 0.00625002
735025500.0 0.275654688 0.056671428
750025000.0 0.266134656 0.116482864
765024500.0 0.226301136 0.173788448
780024000.0 0.158618768 0.214960432
795023500.0 0.0692202 0.21977528
810023000.0 -0.014140518 0.185715968
825022500.0 -0.081980344 0.133311528
840022000.0 -0.124500344 0.057652356
855021500.0 -0.150873296 -0.023384438
870021000.0 -0.168241376 -0.112400312
885020500.0 -0.174000928 -0.22003608
900020000.0 -0.16285456 -0.341357664
915019500.0 -0.214524144 -0.360459584
930019000.0 -0.270418464 -0.355428576
945018500.0 -0.317104384 -0.320398016
960018000.0 -0.359147232 -0.273586496
975017500.0 -0.375457152 -0.220609328
990017000.0 -0.36929264 -0.141197328
1005016500.0 -0.345166048 -0.083342064
1020016000.0 -0.294340928 -0.036579368
1035015500.0 -0.246939696 -0.005523867
1050015000.0 -0.188666128 0.009487802
1065014500.0 -0.14511496 -0.000617371
1080014000.0 -0.10064008 -0.01643679
1095013500.0 -0.058538748 -0.05101294
1110013000.0 -0.03296348 -0.089601904
1125012500.0 -0.033743836 -0.123449928
1140012000.0 -0.043990148 -0.172710608
1155011500.0 -0.076102424 -0.186877024
1170011000.0 -0.100762912 -0.184324048
1185010500.0 -0.135935008 -0.176359184
1200010000.0 -0.158229072 -0.138290736
1215009500.0 -0.165507536 -0.109111032
1230009000.0 -0.146468544 -0.070514176
1245008500.0 -0.12125932 -0.057004432
1260008000.0 -0.083284784 -0.028942754
1275007500.0 -0.031316232 -0.041038092
1290007000.0 0.005721384 -0.047439048
1305006500.0 0.016590988 -0.08563048
1320006000.0 0.0435168 -0.10848808
1335005500.0 0.001038149 -0.165152016
1350005000.0 -0.024739442 -0.16033048
1365004500.0 -0.069111952 -0.16600136
1380004000.0 -0.10179596 -0.149501728
1395003500.0 -0.143935024 -0.088882776
1410003000.0 -0.14596464 -0.052052116
1425002500.0 -0.12365088 0.023010048
1440002000.0 -0.12424956 0.077877536
1455001500.0 -0.03643268 0.121654696
1470001000.0 -0.012988706 0.151807712
1485000500.0 0.071881048 0.1840344
1500000000.0 0.126883224 0.149654192
