! Created with skrf 1.8.0 (http://scikit-rf.org).
# Hz S RI R 50.0 
!freq ReS11 ImS11
50000.0 -0.001924647 3.6495e-05
15049500.0 -0.003253488 -4.6706e-05
30049000.0 -0.005604709 -0.000459856
45048500.0 -0.008619958 -0.001884192
60048000.0 -0.0115918 -0.004953416
75047500.0 -0.01421926 -0.009388898
90047000.0 -0.015824068 -0.01524196
105046500.0 -0.015450428 -0.021432492
120046000.0 -0.013108464 -0.027635488
135045500.0 -0.008481978 -0.032918226
150045000.0 -0.002737928 -0.036791448
165044500.0 0.004231721 -0.03827822
180044000.0 0.01015686 -0.03586736
195043500.0 0.015372242 -0.03251852
210043000.0 0.018466088 -0.027126112
225042500.0 0.0184604 -0.021172734
240042000.0 0.01542228 -0.015926008
255041500.0 0.009894072 -0.012046772
270041000.0 0.001977101 -0.013214496
285040500.0 -0.006241228 -0.017423852
300040000.0 -0.012097556 -0.024328348
315039500.0 -0.017301106 -0.036983352
330039000.0 -0.016456406 -0.052878396
345038500.0 -0.009556016 -0.067887112
360038000.0 0.002513287 -0.084171648
375037500.0 0.021283118 -0.095331048
390037000.0 0.045265288 -0.100826992
405036500.0 0.070511 -0.097198224
420036000.0 0.098543768 -0.08646052
435035500.0 0.120970648 -0.066610656
450035000.0 0.13581816 -0.03754114
465034500.0 0.143718208 -0.003731477
480034000.0 0.138382176 0.030096114
495033500.0 0.120916024 0.063218408
510033000.0 0.092659224 0.08916064
525032500.0 0.056090756 0.103782848
540032000.0 0.012706054 0.104132528
555031500.0 -0.02546547 0.090016272
570031000.0 -0.054224236 0.062622672
585030500.0 -0.073744576 0.025214442
600030000.0 -0.081805008 -0.01545635
615029500.0 -0.072909552 -0.061699884
630029000.0 -0.045037448 -0.102067144
645028500.0 -0.006451466 -0.130719976
660028000.0 0.041705352 -0.145039856
675027500.0 0.088231224 -0.144778688
690027000.0 0.132844536 -0.12976964
705026500.0 0.16739848 -0.097123624
720026000.0 0.193331264 -0.048683072
735025500.0 0.204676128 0.008168591
750025000.0 0.195757664 0.07074524
765024500.0 0.162237968 0.135269792
780024000.0 0.095235016 0.18597464
795023500.0 0.018832286 0.194684416
810023000.0 -0.05606112 0.17137712
825022500.0 -0.118242008 0.129324824
840022000.0 -0.1557772 0.067414088
855021500.0 -0.177146752 -0.000266986
870021000.0 -0.19093264 -0.072479784
885020500.0 -0.192688432 -0.155838912
900020000.0 -0.177990864 -0.264402
915019500.0 -0.186825664 -0.260972624
930019000.0 -0.199071472 -0.261870384
945018500.0 -0.206151504 -0.252738656
960018000.0 -0.21446176 -0.239064096
975017500.0 -0.219516528 -0.230325904
990017000.0 -0.225663024 -0.2082128
1005016500.0 -0.235217328 -0.196478144
1020016000.0 -0.230269312 -0.187044896
1035015500.0 -0.228472672 -0.165785232
1050015000.0 -0.224416736 -0.150639248
1065014500.0 -0.219244336 -0.123489976
1080014000.0 -0.210882384 -0.105868144
1095013500.0 -0.191352992 -0.08609348
1110013000.0 -0.172663696 -0.072924152
1125012500.0 -0.145027968 -0.066107868
1140012000.0 -0.131201104 -0.0699584
1155011500.0 -0.130378528 -0.062845276
1170011000.0 -0.094733256 -0.067270632
1185010500.0 -0.09053216 -0.06884424
1200010000.0 -0.07501844 -0.069950032
1215009500.0 -0.059243632 -0.062850572
1230009000.0 -0.051855588 -0.075622624
1245008500.0 -0.040367588 -0.079059392
1260008000.0 -0.021918724 -0.074901232
1275007500.0 -0.004191174 -0.084807832
1290007000.0 -0.017398424 -0.095558872
1305006500.0 -0.001171371 -0.10385096
1320006000.0 0.005171229 -0.099104936
1335005500.0 0.003043334 -0.11027644
1350005000.0 0.009370872 -0.104655264
1365004500.0 0.00283558 -0.114366608
1380004000.0 -0.008276307 -0.12124544
1395003500.0 0.004932054 -0.09799176
1410003000.0 0.011953554 -0.086892368
1425002500.0 -0.013428682 -0.092188792
1440002000.0 -0.009952166 -0.054418644
1455001500.0 0.028531694 -0.036903844
1470001000.0 0.022441064 -0.0319257
1485000500.0 0.0178485 -0.027750276
1500000000.0 0.019900138 -0.015534544
