! Created with skrf 1.8.0 (http://scikit-rf.org).
# Hz S RI R 50.0 
!freq ReS11 ImS11 ReS21 ImS21 ReS12 ImS12 ReS22 ImS22
50000.0 0.0 0.0 -0.16249883147467975 -0.9638835435961048 0.0 0.0 0.0 0.0
15049500.0 0.0 0.0 -0.051814144400594196 -0.16432859389433077 0.0 0.0 0.0 0.0
30049000.0 0.0 0.0 0.0010211003572895292 -0.9036827928270706 0.0 0.0 0.0 0.0
45048500.0 0.0 0.0 -0.2549190521270736 0.6382491710244785 0.0 0.0 0.0 0.0
60048000.0 0.0 0.0 0.01828732927959798 0.1995272729675438 0.0 0.0 0.0 0.0
75047500.0 0.0 0.0 -0.07356015185526579 -0.4263492550838694 0.0 0.0 0.0 0.0
90047000.0 0.0 0.0 1.331472673830023 0.5875965313251955 0.0 0.0 0.0 0.0
105046500.0 0.0 0.0 -0.9225878136609428 -0.07500830570856429 0.0 0.0 0.0 0.0
120046000.0 0.0 0.0 -0.596730328029922 -0.2633761705886095 0.0 0.0 0.0 0.0
135045500.0 0.0 0.0 0.0022426594437888595 0.0033490372889999494 0.0 0.0 0.0 0.0
150045000.0 0.0 0.0 1.9593644722647847 0.8491391417605105 0.0 0.0 0.0 0.0
165044500.0 0.0 0.0 -1.5532827727991632 1.0495511327956273 0.0 0.0 0.0 0.0
180044000.0 0.0 0.0 0.7771709353479717 0.312542734314983 0.0 0.0 0.0 0.0
195043500.0 0.0 0.0 0.283658173483752 0.07661631718782205 0.0 0.0 0.0 0.0
210043000.0 0.0 0.0 -0.3616694679938264 0.2876301548288238 0.0 0.0 0.0 0.0
225042500.0 0.0 0.0 -0.3432368131693326 -0.14843976117720895 0.0 0.0 0.0 0.0
240042000.0 0.0 0.0 -0.00492964273763273 -0.16351733525724496 0.0 0.0 0.0 0.0
255041500.0 0.0 0.0 -0.513527821332257 -1.0214286463129505 0.0 0.0 0.0 0.0
270041000.0 0.0 0.0 0.20138545685121237 -0.09501707668774567 0.0 0.0 0.0 0.0
285040500.0 0.0 0.0 0.46096173660995193 -4.930433809144627 0.0 0.0 0.0 0.0
300040000.0 0.0 0.0 -0.032272467205724104 0.2706699415794046 0.0 0.0 0.0 0.0
315039500.0 0.0 0.0 0.8292733771182932 -0.016495008789249407 0.0 0.0 0.0 0.0
330039000.0 0.0 0.0 1.134510262596906 -0.6510771035946412 0.0 0.0 0.0 0.0
345038500.0 0.0 0.0 0.37364490881759943 -0.22962982196770035 0.0 0.0 0.0 0.0
360038000.0 0.0 0.0 -0.46868364369298976 -0.6812530788766931 0.0 0.0 0.0 0.0
375037500.0 0.0 0.0 -0.8204561585680429 0.1109303033337572 0.0 0.0 0.0 0.0
390037000.0 0.0 0.0 0.5429304071789207 0.2790924014727076 0.0 0.0 0.0 0.0
405036500.0 0.0 0.0 -0.668985666161064 1.5671795429259634 0.0 0.0 0.0 0.0
420036000.0 0.0 0.0 0.13910891735147388 0.23344098319715978 0.0 0.0 0.0 0.0
435035500.0 0.0 0.0 -0.2518578655511439 0.4624181690250618 0.0 0.0 0.0 0.0
450035000.0 0.0 0.0 -0.32117399475300107 -0.057245309571232326 0.0 0.0 0.0 0.0
465034500.0 0.0 0.0 0.45286363729531187 -0.7057746432949422 0.0 0.0 0.0 0.0
480034000.0 0.0 0.0 2.05320801350674 -0.7013706065581143 0.0 0.0 0.0 0.0
495033500.0 0.0 0.0 3.103977051292928 1.4954983294698263 0.0 0.0 0.0 0.0
510033000.0 0.0 0.0 -0.3343256740599003 0.24526126701814852 0.0 0.0 0.0 0.0
525032500.0 0.0 0.0 0.2841022523688966 -0.06490455423204079 0.0 0.0 0.0 0.0
540032000.0 0.0 0.0 0.25196301197331783 1.041550496232781 0.0 0.0 0.0 0.0
555031500.0 0.0 0.0 -0.9923247130275671 -0.20888243939210666 0.0 0.0 0.0 0.0
570031000.0 0.0 0.0 0.6161147653497238 0.31409826468647506 0.0 0.0 0.0 0.0
585030500.0 0.0 0.0 -0.6216230763429372 1.1664794556633815 0.0 0.0 0.0 0.0
600030000.0 0.0 0.0 -0.6152891228972635 -0.029234172704376803 0.0 0.0 0.0 0.0
615029500.0 0.0 0.0 -0.03066423287499461 0.010674383677103895 0.0 0.0 0.0 0.0
630029000.0 0.0 0.0 -1.3432300718130197 0.3573834417490633 0.0 0.0 0.0 0.0
645028500.0 0.0 0.0 0.1392986923637145 -0.047117756604654504 0.0 0.0 0.0 0.0
660028000.0 0.0 0.0 0.0647516395470787 0.10571640165768038 0.0 0.0 0.0 0.0
675027500.0 0.0 0.0 0.8606350397655627 -0.2737734429459093 0.0 0.0 0.0 0.0
690027000.0 0.0 0.0 -0.296800080290996 -0.5422125445917692 0.0 0.0 0.0 0.0
705026500.0 0.0 0.0 -0.18720432903144207 -0.13421653763591404 0.0 0.0 0.0 0.0
720026000.0 0.0 0.0 0.8565852518393762 -0.10733258447084922 0.0 0.0 0.0 0.0
735025500.0 0.0 0.0 -0.47561764255768774 0.13865504641440177 0.0 0.0 0.0 0.0
750025000.0 0.0 0.0 -0.1111766694408993 0.22161886488152194 0.0 0.0 0.0 0.0
765024500.0 0.0 0.0 0.9002350290374292 -0.305711749694945 0.0 0.0 0.0 0.0
780024000.0 0.0 0.0 -0.0968814857207699 -0.26232930036716706 0.0 0.0 0.0 0.0
795023500.0 0.0 0.0 -0.6558570339404896 1.6053369936529562 0.0 0.0 0.0 0.0
810023000.0 0.0 0.0 0.2111994909908719 -0.1958821558259955 0.0 0.0 0.0 0.0
825022500.0 0.0 0.0 0.7264004559078435 0.5348337077786366 0.0 0.0 0.0 0.0
840022000.0 0.0 0.0 -0.28118280351080893 0.1645694132926232 0.0 0.0 0.0 0.0
855021500.0 0.0 0.0 0.00041487691196138277 -0.049188619133500484 0.0 0.0 0.0 0.0
870021000.0 0.0 0.0 -0.3134030343740146 -0.8594964302991865 0.0 0.0 0.0 0.0
885020500.0 0.0 0.0 0.02877803563696068 -0.4193502804010704 0.0 0.0 0.0 0.0
900020000.0 0.0 0.0 0.005135143626150852 -0.1128678217739801 0.0 0.0 0.0 0.0
915019500.0 0.0 0.0 -1.116037276682799 0.06072732818045115 0.0 0.0 0.0 0.0
930019000.0 0.0 0.0 -0.4164199177978903 0.7370469521259146 0.0 0.0 0.0 0.0
945018500.0 0.0 0.0 0.13390636564194805 -0.011974321731884093 0.0 0.0 0.0 0.0
960018000.0 0.0 0.0 0.5751439127610493 -0.2924550312465936 0.0 0.0 0.0 0.0
975017500.0 0.0 0.0 0.7457514351523777 -0.2505699863598335 0.0 0.0 0.0 0.0
990017000.0 0.0 0.0 -0.013794555295354376 0.08171059435629054 0.0 0.0 0.0 0.0
1005016500.0 0.0 0.0 1.2561675741028533 1.4151079240299822 0.0 0.0 0.0 0.0
1020016000.0 0.0 0.0 1.2383080318155755 -0.1736848634216719 0.0 0.0 0.0 0.0
1035015500.0 0.0 0.0 0.2200738277173952 0.7506872338780167 0.0 0.0 0.0 0.0
1050015000.0 0.0 0.0 0.8430062263316742 0.47377920717508337 0.0 0.0 0.0 0.0
1065014500.0 0.0 0.0 0.6586440016711462 -1.023934233315877 0.0 0.0 0.0 0.0
1080014000.0 0.0 0.0 -0.16096171543300308 0.021375676814793958 0.0 0.0 0.0 0.0
1095013500.0 0.0 0.0 0.9639733951410757 0.564805079927656 0.0 0.0 0.0 0.0
1110013000.0 0.0 0.0 1.1995266340291395 0.11770198693696489 0.0 0.0 0.0 0.0
1125012500.0 0.0 0.0 0.09526157266016776 -0.9586282902837304 0.0 0.0 0.0 0.0
1140012000.0 0.0 0.0 -0.7164942663675491 0.24254432983541716 0.0 0.0 0.0 0.0
1155011500.0 0.0 0.0 0.1611661881385951 0.14632260940893574 0.0 0.0 0.0 0.0
1170011000.0 0.0 0.0 0.991113916904141 0.7665240238483825 0.0 0.0 0.0 0.0
1185010500.0 0.0 0.0 0.6184842196014013 0.19079520269402137 0.0 0.0 0.0 0.0
1200010000.0 0.0 0.0 0.41587427983693664 -0.26132364965222543 0.0 0.0 0.0 0.0
1215009500.0 0.0 0.0 0.11260163961365352 -0.017919494892216233 0.0 0.0 0.0 0.0
1230009000.0 0.0 0.0 0.22952848534311215 -0.05152330083919545 0.0 0.0 0.0 0.0
1245008500.0 0.0 0.0 0.056744866699552365 -0.06161991326429564 0.0 0.0 0.0 0.0
1260008000.0 0.0 0.0 0.38202949921986407 -0.07743737303235873 0.0 0.0 0.0 0.0
1275007500.0 0.0 0.0 0.9316487466004998 0.04492815971837527 0.0 0.0 0.0 0.0
1290007000.0 0.0 0.0 0.03302249850724786 0.03453525455508815 0.0 0.0 0.0 0.0
1305006500.0 0.0 0.0 -0.2171572353462509 -0.12238962315455643 0.0 0.0 0.0 0.0
1320006000.0 0.0 0.0 -0.20361504696598337 0.07678965048096552 0.0 0.0 0.0 0.0
1335005500.0 0.0 0.0 -0.44308456671316737 0.23559615630223607 0.0 0.0 0.0 0.0
1350005000.0 0.0 0.0 -2.3233912267159553 -2.9169094756198017 0.0 0.0 0.0 0.0
1365004500.0 0.0 0.0 0.8695471678730793 0.20370408798173525 0.0 0.0 0.0 0.0
1380004000.0 0.0 0.0 -0.3755406434588169 0.10487471051967491 0.0 0.0 0.0 0.0
1395003500.0 0.0 0.0 0.06615526682606478 -0.3827998963012357 0.0 0.0 0.0 0.0
1410003000.0 0.0 0.0 -0.5547609930204435 0.20103225462955657 0.0 0.0 0.0 0.0
1425002500.0 0.0 0.0 -1.0024306309889497 -0.011769202759694073 0.0 0.0 0.0 0.0
1440002000.0 0.0 0.0 0.04549770611043748 0.1515862635743284 0.0 0.0 0.0 0.0
1455001500.0 0.0 0.0 -5.775317196106782 -11.745251588047028 0.0 0.0 0.0 0.0
1470001000.0 0.0 0.0 -0.8993840012474368 -0.3551205140410487 0.0 0.0 0.0 0.0
1485000500.0 0.0 0.0 0.15385950924485345 0.8297345442362493 0.0 0.0 0.0 0.0
1500000000.0 0.0 0.0 4.694226952544419e-05 -0.4060577927196353 0.0 0.0 0.0 0.0
