! Created with skrf 1.8.0 (http://scikit-rf.org).
# Hz S RI R 50.0 
!freq ReS11 ImS11 ReS21 ImS21 ReS12 ImS12 ReS22 ImS22
50000.0 0.0 0.0 0.0019185328887061578 -3.779092685239419e-05 0.0 0.0 0.0 0.0
15049500.0 0.0 0.0 0.0031737460837085204 -0.0004804665952357779 0.0 0.0 0.0 0.0
30049000.0 0.0 0.0 0.005373840370756569 -0.0013407007430875344 0.0 0.0 0.0 0.0
45048500.0 0.0 0.0 0.008405962729106792 -0.002306949614375309 0.0 0.0 0.0 0.0
60048000.0 0.0 0.0 0.011925046200113743 -0.0030583867261238045 0.0 0.0 0.0 0.0
75047500.0 0.0 0.0 0.016170307621849213 -0.0038714607132047905 0.0 0.0 0.0 0.0
90047000.0 0.0 0.0 0.021107325506571167 -0.004407885588412798 0.0 0.0 0.0 0.0
105046500.0 0.0 0.0 0.025165308575806424 -0.00473219052606949 0.0 0.0 0.0 0.0
120046000.0 0.0 0.0 0.02906598494473705 -0.004865356332504448 0.0 0.0 0.0 0.0
135045500.0 0.0 0.0 0.032433512047665626 -0.0044804713807329415 0.0 0.0 0.0 0.0
150045000.0 0.0 0.0 0.034822570091271744 -0.004228517433293741 0.0 0.0 0.0 0.0
165044500.0 0.0 0.0 0.03623300085928403 -0.003637824130651574 0.0 0.0 0.0 0.0
180044000.0 0.0 0.0 0.03518353609100606 -0.002802053901552669 0.0 0.0 0.0 0.0
195043500.0 0.0 0.0 0.033652162800195236 -0.00241605162825323 0.0 0.0 0.0 0.0
210043000.0 0.0 0.0 0.030575833329776255 -0.002139043195433912 0.0 0.0 0.0 0.0
225042500.0 0.0 0.0 0.02612919625859514 -0.0026329746756074486 0.0 0.0 0.0 0.0
240042000.0 0.0 0.0 0.020100462321695954 -0.003889837241076671 0.0 0.0 0.0 0.0
255041500.0 0.0 0.0 0.012986184474514717 -0.005718976879521869 0.0 0.0 0.0 0.0
270041000.0 0.0 0.0 0.005311690174486969 -0.010716312770833044 0.0 0.0 0.0 0.0
285040500.0 0.0 0.0 -0.003149624814749676 -0.01585003489959923 0.0 0.0 0.0 0.0
300040000.0 0.0 0.0 -0.011592319995326682 -0.02124860378539663 0.0 0.0 0.0 0.0
315039500.0 0.0 0.0 -0.020479764043181657 -0.02828665751944089 0.0 0.0 0.0 0.0
330039000.0 0.0 0.0 -0.02798301675429421 -0.03716066319250506 0.0 0.0 0.0 0.0
345038500.0 0.0 0.0 -0.03392553635371952 -0.04574171148869138 0.0 0.0 0.0 0.0
360038000.0 0.0 0.0 -0.03981669629671057 -0.05719741272501191 0.0 0.0 0.0 0.0
375037500.0 0.0 0.0 -0.0427874817805941 -0.0665425655353107 0.0 0.0 0.0 0.0
390037000.0 0.0 0.0 -0.04433472588457354 -0.07645906467273894 0.0 0.0 0.0 0.0
405036500.0 0.0 0.0 -0.04376271728284827 -0.08461480524955768 0.0 0.0 0.0 0.0
420036000.0 0.0 0.0 -0.04070085145302307 -0.09406082423536861 0.0 0.0 0.0 0.0
435035500.0 0.0 0.0 -0.035832751971931066 -0.10126017033427077 0.0 0.0 0.0 0.0
450035000.0 0.0 0.0 -0.026895669311434237 -0.10589010951425493 0.0 0.0 0.0 0.0
465034500.0 0.0 0.0 -0.01589139754774163 -0.10929062274423083 0.0 0.0 0.0 0.0
480034000.0 0.0 0.0 -0.004861908066262882 -0.108039831336297 0.0 0.0 0.0 0.0
495033500.0 0.0 0.0 0.0077870278581494996 -0.10343952461404213 0.0 0.0 0.0 0.0
510033000.0 0.0 0.0 0.020684241128071778 -0.09459071353041272 0.0 0.0 0.0 0.0
525032500.0 0.0 0.0 0.03260832678425674 -0.08265223333175482 0.0 0.0 0.0 0.0
540032000.0 0.0 0.0 0.04495406562822445 -0.06620326321903167 0.0 0.0 0.0 0.0
555031500.0 0.0 0.0 0.05399565916006283 -0.04601598425822684 0.0 0.0 0.0 0.0
570031000.0 0.0 0.0 0.058049458653440064 -0.024372624772384187 0.0 0.0 0.0 0.0
585030500.0 0.0 0.0 0.059608344392802 4.409530133223023e-06 0.0 0.0 0.0 0.0
600030000.0 0.0 0.0 0.059198050269456494 0.022616514369371586 0.0 0.0 0.0 0.0
615029500.0 0.0 0.0 0.05404505358995912 0.04932676579528939 0.0 0.0 0.0 0.0
630029000.0 0.0 0.0 0.04351136011759198 0.07543963217444326 0.0 0.0 0.0 0.0
645028500.0 0.0 0.0 0.03109574890385186 0.09924839048879416 0.0 0.0 0.0 0.0
660028000.0 0.0 0.0 0.013748927127512318 0.12184556885890478 0.0 0.0 0.0 0.0
675027500.0 0.0 0.0 -0.004853835031216876 0.1404451928015422 0.0 0.0 0.0 0.0
690027000.0 0.0 0.0 -0.02305862473733295 0.15433157457944324 0.0 0.0 0.0 0.0
705026500.0 0.0 0.0 -0.04379536444226317 0.158051407641189 0.0 0.0 0.0 0.0
720026000.0 0.0 0.0 -0.06866195923332223 0.15653453568588516 0.0 0.0 0.0 0.0
735025500.0 0.0 0.0 -0.09225242538871228 0.1478432407732754 0.0 0.0 0.0 0.0
750025000.0 0.0 0.0 -0.11499809892162317 0.13482858508710677 0.0 0.0 0.0 0.0
765024500.0 0.0 0.0 -0.14006261807078133 0.1168984721381235 0.0 0.0 0.0 0.0
780024000.0 0.0 0.0 -0.16249795745096102 0.0837551351743417 0.0 0.0 0.0 0.0
795023500.0 0.0 0.0 -0.17023714185890582 0.05015780735624613 0.0 0.0 0.0 0.0
810023000.0 0.0 0.0 -0.17548640704689875 0.007487918906114738 0.0 0.0 0.0 0.0
825022500.0 0.0 0.0 -0.1761171911045367 -0.0425301852016869 0.0 0.0 0.0 0.0
840022000.0 0.0 0.0 -0.15979699913002007 -0.09622584886521246 0.0 0.0 0.0 0.0
855021500.0 0.0 0.0 -0.1309772723104702 -0.15184558364448558 0.0 0.0 0.0 0.0
870021000.0 0.0 0.0 -0.09376051465435872 -0.20942526911064527 0.0 0.0 0.0 0.0
885020500.0 0.0 0.0 -0.04496546909147355 -0.25929842773531087 0.0 0.0 0.0 0.0
900020000.0 0.0 0.0 0.014682708247114871 -0.30112149921390663 0.0 0.0 0.0 0.0
915019500.0 0.0 0.0 0.07283344621784613 -0.29495865568387136 0.0 0.0 0.0 0.0
930019000.0 0.0 0.0 0.1313474976585741 -0.2840490528302778 0.0 0.0 0.0 0.0
945018500.0 0.0 0.0 0.18184225174898241 -0.25253616959427744 0.0 0.0 0.0 0.0
960018000.0 0.0 0.0 0.22176173994505588 -0.21583969129933558 0.0 0.0 0.0 0.0
975017500.0 0.0 0.0 0.2557624401180674 -0.16993789068131432 0.0 0.0 0.0 0.0
990017000.0 0.0 0.0 0.2741959218195862 -0.12271399182184019 0.0 0.0 0.0 0.0
1005016500.0 0.0 0.0 0.2928468120248622 -0.07197929353807125 0.0 0.0 0.0 0.0
1020016000.0 0.0 0.0 0.2922882023438301 -0.009893966432204178 0.0 0.0 0.0 0.0
1035015500.0 0.0 0.0 0.27768062835251106 0.0384121297009933 0.0 0.0 0.0 0.0
1050015000.0 0.0 0.0 0.2580752660838894 0.08946066888964994 0.0 0.0 0.0 0.0
1065014500.0 0.0 0.0 0.22381810479614977 0.11635421839861826 0.0 0.0 0.0 0.0
1080014000.0 0.0 0.0 0.18858477857545136 0.14346740371031158 0.0 0.0 0.0 0.0
1095013500.0 0.0 0.0 0.14513543915779425 0.1549796057256326 0.0 0.0 0.0 0.0
1110013000.0 0.0 0.0 0.10056420596083736 0.16233349651452653 0.0 0.0 0.0 0.0
1125012500.0 0.0 0.0 0.055423611247552684 0.155402806607391 0.0 0.0 0.0 0.0
1140012000.0 0.0 0.0 0.00960891294866185 0.15471109232513455 0.0 0.0 0.0 0.0
1155011500.0 0.0 0.0 -0.012655384312848794 0.15044790688256718 0.0 0.0 0.0 0.0
1170011000.0 0.0 0.0 -0.05792208373129355 0.10872825653834305 0.0 0.0 0.0 0.0
1185010500.0 0.0 0.0 -0.08074251167264304 0.08925132797448852 0.0 0.0 0.0 0.0
1200010000.0 0.0 0.0 -0.09587949003136696 0.053555275522598866 0.0 0.0 0.0 0.0
1215009500.0 0.0 0.0 -0.0917893739494411 0.02022131294759637 0.0 0.0 0.0 0.0
1230009000.0 0.0 0.0 -0.09810178578561507 -0.016705490875141914 0.0 0.0 0.0 0.0
1245008500.0 0.0 0.0 -0.08509609799342195 -0.04820574937351768 0.0 0.0 0.0 0.0
1260008000.0 0.0 0.0 -0.05211568340484732 -0.07051118311908716 0.0 0.0 0.0 0.0
1275007500.0 0.0 0.0 -0.013583674767815473 -0.09371861538684315 0.0 0.0 0.0 0.0
1290007000.0 0.0 0.0 -0.003180303241277204 -0.10791094141522546 0.0 0.0 0.0 0.0
1305006500.0 0.0 0.0 0.0431130236027645 -0.10522995357443617 0.0 0.0 0.0 0.0
1320006000.0 0.0 0.0 0.0692935962775923 -0.08113355480201385 0.0 0.0 0.0 0.0
1335005500.0 0.0 0.0 0.09474684835772701 -0.0677897983533466 0.0 0.0 0.0 0.0
1350005000.0 0.0 0.0 0.10093079374433823 -0.03419698995318765 0.0 0.0 0.0 0.0
1365004500.0 0.0 0.0 0.11372869075264404 -0.024105001936920886 0.0 0.0 0.0 0.0
1380004000.0 0.0 0.0 0.11118133314745143 -0.0026657006915460782 0.0 0.0 0.0 0.0
1395003500.0 0.0 0.0 0.08420069290251779 0.02704077559412305 0.0 0.0 0.0 0.0
1410003000.0 0.0 0.0 0.062366267200806236 0.04248513418336759 0.0 0.0 0.0 0.0
1425002500.0 0.0 0.0 0.07117264649726532 0.03947404916698889 0.0 0.0 0.0 0.0
1440002000.0 0.0 0.0 0.03721203062752627 0.02879363830686667 0.0 0.0 0.0 0.0
1455001500.0 0.0 0.0 -0.00437036654917244 0.03906368294093752 0.0 0.0 0.0 0.0
1470001000.0 0.0 0.0 -0.006492681462610828 0.033790959425351715 0.0 0.0 0.0 0.0
1485000500.0 0.0 0.0 -0.010947065544616795 0.028734150568971925 0.0 0.0 0.0 0.0
1500000000.0 0.0 0.0 -0.018843696861468622 0.016616476198333112 0.0 0.0 0.0 0.0
