! Created with skrf 1.8.0 (http://scikit-rf.org).
# Hz S RI R 50.0 
!freq ReS11 ImS11 ReS21 ImS21 ReS12 ImS12 ReS22 ImS22
50000.0 0.0 0.0 -0.006410792774145549 -0.005011626835544997 0.0 0.0 0.0 0.0
15049500.0 0.0 0.0 -0.005482677558564989 -0.0027776605247217326 0.0 0.0 0.0 0.0
30049000.0 0.0 0.0 -0.005903132282221318 -0.005372208649810745 0.0 0.0 0.0 0.0
45048500.0 0.0 0.0 -0.006665235982851542 -0.007945651501062736 0.0 0.0 0.0 0.0
60048000.0 0.0 0.0 -0.007812158195908269 -0.010352224991936776 0.0 0.0 0.0 0.0
75047500.0 0.0 0.0 -0.008957850539871576 -0.012849965428792947 0.0 0.0 0.0 0.0
90047000.0 0.0 0.0 -0.010429984951397337 -0.015084344157288175 0.0 0.0 0.0 0.0
105046500.0 0.0 0.0 -0.012080245538158863 -0.01715441961839308 0.0 0.0 0.0 0.0
120046000.0 0.0 0.0 -0.013779511427573669 -0.019008500207084028 0.0 0.0 0.0 0.0
135045500.0 0.0 0.0 -0.015567915975835834 -0.02106371685102056 0.0 0.0 0.0 0.0
150045000.0 0.0 0.0 -0.017493174642126953 -0.022518202925535337 0.0 0.0 0.0 0.0
165044500.0 0.0 0.0 -0.01935634721449146 -0.023818791526368854 0.0 0.0 0.0 0.0
180044000.0 0.0 0.0 -0.02141232204390284 -0.025122721515712713 0.0 0.0 0.0 0.0
195043500.0 0.0 0.0 -0.023274288005206104 -0.02620881918314385 0.0 0.0 0.0 0.0
210043000.0 0.0 0.0 -0.025247726694999025 -0.02719166463347887 0.0 0.0 0.0 0.0
225042500.0 0.0 0.0 -0.027044460487854083 -0.02809286236675691 0.0 0.0 0.0 0.0
240042000.0 0.0 0.0 -0.028682271259253385 -0.028986674261059487 0.0 0.0 0.0 0.0
255041500.0 0.0 0.0 -0.03028678280837126 -0.029776207475714737 0.0 0.0 0.0 0.0
270041000.0 0.0 0.0 -0.03189076356657043 -0.030397857965534365 0.0 0.0 0.0 0.0
285040500.0 0.0 0.0 -0.03327475300469538 -0.03103169908899425 0.0 0.0 0.0 0.0
300040000.0 0.0 0.0 -0.03261651709180809 -0.031681450527776496 0.0 0.0 0.0 0.0
315039500.0 0.0 0.0 -0.034442758849923844 -0.03173292002834915 0.0 0.0 0.0 0.0
330039000.0 0.0 0.0 -0.035462129884619546 -0.03199967719583842 0.0 0.0 0.0 0.0
345038500.0 0.0 0.0 -0.036647525989152184 -0.03156409302339841 0.0 0.0 0.0 0.0
360038000.0 0.0 0.0 -0.03690193509671254 -0.03351784413893585 0.0 0.0 0.0 0.0
375037500.0 0.0 0.0 -0.03783709390870075 -0.03327343297160257 0.0 0.0 0.0 0.0
390037000.0 0.0 0.0 -0.03806094813643929 -0.03247694360296633 0.0 0.0 0.0 0.0
405036500.0 0.0 0.0 -0.038218835857070366 -0.033615908766579564 0.0 0.0 0.0 0.0
420036000.0 0.0 0.0 -0.039151953230567485 -0.03257396162370291 0.0 0.0 0.0 0.0
435035500.0 0.0 0.0 -0.040136098709104395 -0.0315549726399751 0.0 0.0 0.0 0.0
450035000.0 0.0 0.0 -0.03891264477719245 -0.03167601258503876 0.0 0.0 0.0 0.0
465034500.0 0.0 0.0 -0.03941814689332339 -0.030752987938868055 0.0 0.0 0.0 0.0
480034000.0 0.0 0.0 -0.04172472989665033 -0.03025879359799721 0.0 0.0 0.0 0.0
495033500.0 0.0 0.0 -0.04011567981450632 -0.029542637070530613 0.0 0.0 0.0 0.0
510033000.0 0.0 0.0 -0.04074356295279907 -0.028768396308565636 0.0 0.0 0.0 0.0
525032500.0 0.0 0.0 -0.04076237834091808 -0.028807773101047273 0.0 0.0 0.0 0.0
540032000.0 0.0 0.0 -0.04120226729484917 -0.027182760769321333 0.0 0.0 0.0 0.0
555031500.0 0.0 0.0 -0.04196486353484713 -0.025692311877463434 0.0 0.0 0.0 0.0
570031000.0 0.0 0.0 -0.04120500228120395 -0.025767845833389504 0.0 0.0 0.0 0.0
585030500.0 0.0 0.0 -0.0410507797432232 -0.02669732471626618 0.0 0.0 0.0 0.0
600030000.0 0.0 0.0 -0.04242133078522177 -0.02345543322247689 0.0 0.0 0.0 0.0
615029500.0 0.0 0.0 -0.042080843303558144 -0.024259701837179216 0.0 0.0 0.0 0.0
630029000.0 0.0 0.0 -0.04330609930210588 -0.02386212809978747 0.0 0.0 0.0 0.0
645028500.0 0.0 0.0 -0.044141746108676404 -0.02087625356213148 0.0 0.0 0.0 0.0
660028000.0 0.0 0.0 -0.0437066731595555 -0.020129267414818654 0.0 0.0 0.0 0.0
675027500.0 0.0 0.0 -0.044537499543908836 -0.021322993620705423 0.0 0.0 0.0 0.0
690027000.0 0.0 0.0 -0.04584026263225392 -0.01651471032869445 0.0 0.0 0.0 0.0
705026500.0 0.0 0.0 -0.04593519449988352 -0.018609684499565897 0.0 0.0 0.0 0.0
720026000.0 0.0 0.0 -0.04610178257357507 -0.015916020935918835 0.0 0.0 0.0 0.0
735025500.0 0.0 0.0 -0.04712134461480976 -0.01627185645603611 0.0 0.0 0.0 0.0
750025000.0 0.0 0.0 -0.048148573002135875 -0.0136025468438011 0.0 0.0 0.0 0.0
765024500.0 0.0 0.0 -0.049625644671122286 -0.015123308365344581 0.0 0.0 0.0 0.0
780024000.0 0.0 0.0 -0.04740044365300733 -0.01649703686361855 0.0 0.0 0.0 0.0
795023500.0 0.0 0.0 -0.05270970481906714 -0.013433275083049126 0.0 0.0 0.0 0.0
810023000.0 0.0 0.0 -0.053374791476503106 -0.012622400007024031 0.0 0.0 0.0 0.0
825022500.0 0.0 0.0 -0.0551781093450222 -0.01452503151454229 0.0 0.0 0.0 0.0
840022000.0 0.0 0.0 -0.055785485354485666 -0.015239749063479587 0.0 0.0 0.0 0.0
855021500.0 0.0 0.0 -0.056993096162829306 -0.015134435760374479 0.0 0.0 0.0 0.0
870021000.0 0.0 0.0 -0.05809153821796636 -0.015159841549103764 0.0 0.0 0.0 0.0
885020500.0 0.0 0.0 -0.057733350743482265 -0.014950393223572157 0.0 0.0 0.0 0.0
900020000.0 0.0 0.0 -0.0629939446900189 -0.009904328303474432 0.0 0.0 0.0 0.0
915019500.0 0.0 0.0 -0.055871305077610844 -0.013678271489420718 0.0 0.0 0.0 0.0
930019000.0 0.0 0.0 -0.05756514764085164 -0.022615783655058664 0.0 0.0 0.0 0.0
945018500.0 0.0 0.0 -0.05135532360048754 -0.014002793954963125 0.0 0.0 0.0 0.0
960018000.0 0.0 0.0 -0.06392591634993963 -0.018463426595893697 0.0 0.0 0.0 0.0
975017500.0 0.0 0.0 -0.061112944636250895 -0.014396416920211562 0.0 0.0 0.0 0.0
990017000.0 0.0 0.0 -0.059240577313844946 -0.015016141090684582 0.0 0.0 0.0 0.0
1005016500.0 0.0 0.0 -0.05981207287979705 -0.02221487707429152 0.0 0.0 0.0 0.0
1020016000.0 0.0 0.0 -0.06020685952095467 -0.02837835487263985 0.0 0.0 0.0 0.0
1035015500.0 0.0 0.0 -0.06096755717355367 -0.022171748322836412 0.0 0.0 0.0 0.0
1050015000.0 0.0 0.0 -0.045773611861197896 -0.017504573372750434 0.0 0.0 0.0 0.0
1065014500.0 0.0 0.0 -0.05323102952281519 -0.03292810959179538 0.0 0.0 0.0 0.0
1080014000.0 0.0 0.0 -0.05185157144463832 -0.024221074382789545 0.0 0.0 0.0 0.0
1095013500.0 0.0 0.0 -0.04875965167829214 -0.024465889234396673 0.0 0.0 0.0 0.0
1110013000.0 0.0 0.0 -0.04478095593895762 -0.02061099893647465 0.0 0.0 0.0 0.0
1125012500.0 0.0 0.0 -0.05435713990405048 -0.014697579049381999 0.0 0.0 0.0 0.0
1140012000.0 0.0 0.0 -0.04878730009373184 -0.01406133133374422 0.0 0.0 0.0 0.0
1155011500.0 0.0 0.0 -0.04842291390471408 -0.019811137787893323 0.0 0.0 0.0 0.0
1170011000.0 0.0 0.0 -0.05397935969706557 -0.03538879058165182 0.0 0.0 0.0 0.0
1185010500.0 0.0 0.0 -0.03752930915730036 -0.02417352800097134 0.0 0.0 0.0 0.0
1200010000.0 0.0 0.0 -0.04349283032066099 -0.01242522945081477 0.0 0.0 0.0 0.0
1215009500.0 0.0 0.0 -0.04442749283099258 -0.01758373124942583 0.0 0.0 0.0 0.0
1230009000.0 0.0 0.0 -0.04244808325722083 -0.016241277804527547 0.0 0.0 0.0 0.0
1245008500.0 0.0 0.0 -0.055626536060773175 -0.03026213021095627 0.0 0.0 0.0 0.0
1260008000.0 0.0 0.0 -0.04301541203882813 -0.011491339529838022 0.0 0.0 0.0 0.0
1275007500.0 0.0 0.0 -0.027676337638658476 -0.010519755659344357 0.0 0.0 0.0 0.0
1290007000.0 0.0 0.0 -0.02612683075492422 -0.020679944248298734 0.0 0.0 0.0 0.0
1305006500.0 0.0 0.0 -0.0531409811768486 -0.011820390388615504 0.0 0.0 0.0 0.0
1320006000.0 0.0 0.0 -0.035050766916626314 -0.037904360819319985 0.0 0.0 0.0 0.0
1335005500.0 0.0 0.0 -0.05198094564544302 -0.04017924678951206 0.0 0.0 0.0 0.0
1350005000.0 0.0 0.0 -0.015292686379750219 -0.016577331733934674 0.0 0.0 0.0 0.0
1365004500.0 0.0 0.0 -0.024053329248255588 -0.007059717965317881 0.0 0.0 0.0 0.0
1380004000.0 0.0 0.0 -0.03796341900396668 -0.03354527977509387 0.0 0.0 0.0 0.0
1395003500.0 0.0 0.0 -0.016606636422995945 -0.017322370937914687 0.0 0.0 0.0 0.0
1410003000.0 0.0 0.0 -0.05659396161060604 -0.0038291973650761693 0.0 0.0 0.0 0.0
1425002500.0 0.0 0.0 -0.016066283549112305 -0.038916318119419854 0.0 0.0 0.0 0.0
1440002000.0 0.0 0.0 -0.029075677420024097 0.003603394376460002 0.0 0.0 0.0 0.0
1455001500.0 0.0 0.0 0.009364992570325763 -0.0254825001184938 0.0 0.0 0.0 0.0
1470001000.0 0.0 0.0 -0.04219251845218101 0.03717030386198317 0.0 0.0 0.0 0.0
1485000500.0 0.0 0.0 0.012437361334339734 0.01299911215291951 0.0 0.0 0.0 0.0
1500000000.0 0.0 0.0 -0.020583863057185507 0.02195309564435311 0.0 0.0 0.0 0.0
