! Created with skrf 1.8.0 (http://scikit-rf.org).
# Hz S RI R 50.0 
!freq ReS11 ImS11 ReS21 ImS21 ReS12 ImS12 ReS22 ImS22
50000.0 0.0 0.0 -0.36539034205486964 0.22973884503261077 0.0 0.0 0.0 0.0
15049500.0 0.0 0.0 -0.3314965399956379 0.08005946836936502 0.0 0.0 0.0 0.0
30049000.0 0.0 0.0 -0.17682728542625473 0.025175607186551794 0.0 0.0 0.0 0.0
45048500.0 0.0 0.0 0.29281591276836955 0.4344657652148488 0.0 0.0 0.0 0.0
60048000.0 0.0 0.0 0.07419166461826075 0.242888216920334 0.0 0.0 0.0 0.0
75047500.0 0.0 0.0 1.012703681317128 0.2266813606338284 0.0 0.0 0.0 0.0
90047000.0 0.0 0.0 0.81832057946209 -0.9350040040253526 0.0 0.0 0.0 0.0
105046500.0 0.0 0.0 0.04739912145622073 -0.14879192517116752 0.0 0.0 0.0 0.0
120046000.0 0.0 0.0 -0.12730280908221975 0.1035952228674587 0.0 0.0 0.0 0.0
135045500.0 0.0 0.0 -0.41370125971006666 -2.538132377198941 0.0 0.0 0.0 0.0
150045000.0 0.0 0.0 0.03516886685787066 -0.10251785708526047 0.0 0.0 0.0 0.0
165044500.0 0.0 0.0 -1.0472041447827356 3.130547110685424 0.0 0.0 0.0 0.0
180044000.0 0.0 0.0 -0.8487496829371475 0.12765974318079754 0.0 0.0 0.0 0.0
195043500.0 0.0 0.0 0.3601316898392959 0.3309617956438781 0.0 0.0 0.0 0.0
210043000.0 0.0 0.0 0.3116707750053737 0.3478281937080545 0.0 0.0 0.0 0.0
225042500.0 0.0 0.0 0.9679806301985535 -0.6404230094422185 0.0 0.0 0.0 0.0
240042000.0 0.0 0.0 -0.15304843995099554 -0.6819870328963433 0.0 0.0 0.0 0.0
255041500.0 0.0 0.0 1.4316576803916192 -0.22380614284948372 0.0 0.0 0.0 0.0
270041000.0 0.0 0.0 -1.672142168513858 0.33592025390707964 0.0 0.0 0.0 0.0
285040500.0 0.0 0.0 -1.6613884484966244 0.15323475751974563 0.0 0.0 0.0 0.0
300040000.0 0.0 0.0 -0.059449829043757556 0.6442965688768016 0.0 0.0 0.0 0.0
315039500.0 0.0 0.0 -0.6908602677037475 -0.7759036948506944 0.0 0.0 0.0 0.0
330039000.0 0.0 0.0 -0.3895459103064728 0.5588104349021009 0.0 0.0 0.0 0.0
345038500.0 0.0 0.0 0.7808591849447061 -0.5133805589412292 0.0 0.0 0.0 0.0
360038000.0 0.0 0.0 0.2213631853597436 0.5065000239701046 0.0 0.0 0.0 0.0
375037500.0 0.0 0.0 -0.7136875506172856 -1.268763678501032 0.0 0.0 0.0 0.0
390037000.0 0.0 0.0 -0.330052158537119 0.941015485749769 0.0 0.0 0.0 0.0
405036500.0 0.0 0.0 0.3852921168805149 -0.07185715410480446 0.0 0.0 0.0 0.0
420036000.0 0.0 0.0 -0.1496977969959055 0.19302060778972707 0.0 0.0 0.0 0.0
435035500.0 0.0 0.0 0.15189007987013722 0.045519859425576396 0.0 0.0 0.0 0.0
450035000.0 0.0 0.0 0.10697348717172882 0.031340341612924566 0.0 0.0 0.0 0.0
465034500.0 0.0 0.0 0.1479295359535592 -0.39991949180683456 0.0 0.0 0.0 0.0
480034000.0 0.0 0.0 -0.07084546462561188 -0.3548487026958516 0.0 0.0 0.0 0.0
495033500.0 0.0 0.0 0.16978618577399043 -0.2542116241188207 0.0 0.0 0.0 0.0
510033000.0 0.0 0.0 -0.6561303338619378 0.2752997476616104 0.0 0.0 0.0 0.0
525032500.0 0.0 0.0 0.9350984674611262 0.0689210002309773 0.0 0.0 0.0 0.0
540032000.0 0.0 0.0 -0.9741969350071222 -0.39337543165178834 0.0 0.0 0.0 0.0
555031500.0 0.0 0.0 0.17215708812134461 -0.8870445502351207 0.0 0.0 0.0 0.0
570031000.0 0.0 0.0 0.45781193216909366 -0.6605181091596919 0.0 0.0 0.0 0.0
585030500.0 0.0 0.0 1.447832315039533 0.7308455829169098 0.0 0.0 0.0 0.0
600030000.0 0.0 0.0 -0.7396665773959575 1.7079401235239293 0.0 0.0 0.0 0.0
615029500.0 0.0 0.0 -0.07675768661636764 0.03732863140334952 0.0 0.0 0.0 0.0
630029000.0 0.0 0.0 -1.0581895487508504 -0.19867264789487313 0.0 0.0 0.0 0.0
645028500.0 0.0 0.0 0.5431637694705884 0.11986954035428632 0.0 0.0 0.0 0.0
660028000.0 0.0 0.0 -0.17033900440005775 -0.02184794582504881 0.0 0.0 0.0 0.0
675027500.0 0.0 0.0 0.004986002335174412 0.41656007374291004 0.0 0.0 0.0 0.0
690027000.0 0.0 0.0 -0.7776870249086708 -0.4048553548101509 0.0 0.0 0.0 0.0
705026500.0 0.0 0.0 1.5555434803831938 -1.6008788110691525 0.0 0.0 0.0 0.0
720026000.0 0.0 0.0 0.16315959616874776 0.07837854132301039 0.0 0.0 0.0 0.0
735025500.0 0.0 0.0 0.20500979566716362 0.26557465628371396 0.0 0.0 0.0 0.0
750025000.0 0.0 0.0 0.15570849427251082 -0.05305649448672726 0.0 0.0 0.0 0.0
765024500.0 0.0 0.0 0.0995855965281176 5.317302569125515 0.0 0.0 0.0 0.0
780024000.0 0.0 0.0 1.289452305415857 -6.716766039966637 0.0 0.0 0.0 0.0
795023500.0 0.0 0.0 0.5089739971133398 0.07922926165935426 0.0 0.0 0.0 0.0
810023000.0 0.0 0.0 -1.08655736785232 -0.08639065647868092 0.0 0.0 0.0 0.0
825022500.0 0.0 0.0 -2.8865710206539683 0.08778336702447866 0.0 0.0 0.0 0.0
840022000.0 0.0 0.0 -0.14416796746387286 -0.2819987658015222 0.0 0.0 0.0 0.0
855021500.0 0.0 0.0 -0.006698880433724572 0.04622025971381406 0.0 0.0 0.0 0.0
870021000.0 0.0 0.0 -0.22309376827013247 -0.16328956026693173 0.0 0.0 0.0 0.0
885020500.0 0.0 0.0 1.2026144604408247 -0.4809801131036089 0.0 0.0 0.0 0.0
900020000.0 0.0 0.0 -0.031375772042055244 0.5409747182851722 0.0 0.0 0.0 0.0
915019500.0 0.0 0.0 0.23719527102683846 0.26373905089798716 0.0 0.0 0.0 0.0
930019000.0 0.0 0.0 0.6291367694233363 0.1653887138401769 0.0 0.0 0.0 0.0
945018500.0 0.0 0.0 0.14772829857398723 0.02065265898616552 0.0 0.0 0.0 0.0
960018000.0 0.0 0.0 0.2022582841049063 -0.14337854915756618 0.0 0.0 0.0 0.0
975017500.0 0.0 0.0 0.25312776664939685 0.009180997008949107 0.0 0.0 0.0 0.0
990017000.0 0.0 0.0 -0.28382208006794446 0.3636929444484966 0.0 0.0 0.0 0.0
1005016500.0 0.0 0.0 -0.33319020624472456 -0.23369344712482681 0.0 0.0 0.0 0.0
1020016000.0 0.0 0.0 0.6469266970124166 -0.08105948459352745 0.0 0.0 0.0 0.0
1035015500.0 0.0 0.0 -0.004218499433876916 -0.0662220257191381 0.0 0.0 0.0 0.0
1050015000.0 0.0 0.0 -0.7434948424470371 -0.6701130710339571 0.0 0.0 0.0 0.0
1065014500.0 0.0 0.0 0.05462238704053616 -0.30654571512336387 0.0 0.0 0.0 0.0
1080014000.0 0.0 0.0 -0.9736902528009905 -0.031035526506507396 0.0 0.0 0.0 0.0
1095013500.0 0.0 0.0 0.006814552624768853 -0.2438016681395417 0.0 0.0 0.0 0.0
1110013000.0 0.0 0.0 0.4608357602920686 0.7335241344066685 0.0 0.0 0.0 0.0
1125012500.0 0.0 0.0 0.9615484722876532 -0.20247377031070027 0.0 0.0 0.0 0.0
1140012000.0 0.0 0.0 0.7579328130822922 0.2065369470680261 0.0 0.0 0.0 0.0
1155011500.0 0.0 0.0 0.011268008490946975 -0.0078083219275563095 0.0 0.0 0.0 0.0
1170011000.0 0.0 0.0 3.78341758738478 4.054398910849083 0.0 0.0 0.0 0.0
1185010500.0 0.0 0.0 -0.29911999563385433 0.3182691932345769 0.0 0.0 0.0 0.0
1200010000.0 0.0 0.0 -0.2736349192956185 -0.08542388664672151 0.0 0.0 0.0 0.0
1215009500.0 0.0 0.0 0.29261903603372286 -0.18262735749695425 0.0 0.0 0.0 0.0
1230009000.0 0.0 0.0 0.24020483082867278 0.201412908971363 0.0 0.0 0.0 0.0
1245008500.0 0.0 0.0 0.32364875968259527 -0.028783711995609296 0.0 0.0 0.0 0.0
1260008000.0 0.0 0.0 -0.0029411321443154714 0.08854165570583601 0.0 0.0 0.0 0.0
1275007500.0 0.0 0.0 -0.30761564381699874 -0.8898306609717108 0.0 0.0 0.0 0.0
1290007000.0 0.0 0.0 0.7161816479500145 -0.17057624418572456 0.0 0.0 0.0 0.0
1305006500.0 0.0 0.0 -0.15700266916341632 0.06339882430479646 0.0 0.0 0.0 0.0
1320006000.0 0.0 0.0 0.2544564241313052 0.18592509654263994 0.0 0.0 0.0 0.0
1335005500.0 0.0 0.0 -0.7302704695334545 1.0522851046093666 0.0 0.0 0.0 0.0
1350005000.0 0.0 0.0 -0.7837077607527827 0.6597969350243931 0.0 0.0 0.0 0.0
1365004500.0 0.0 0.0 -1.087487366634125 0.2279149254340294 0.0 0.0 0.0 0.0
1380004000.0 0.0 0.0 0.4687429680521091 1.5113993574599858 0.0 0.0 0.0 0.0
1395003500.0 0.0 0.0 -3.9971302445867214 -1.7950689947496639 0.0 0.0 0.0 0.0
1410003000.0 0.0 0.0 -0.37209734416410395 -0.3322212668860836 0.0 0.0 0.0 0.0
1425002500.0 0.0 0.0 0.3701422228955459 0.35060398251834446 0.0 0.0 0.0 0.0
1440002000.0 0.0 0.0 0.06614632831926016 -0.8255851929621566 0.0 0.0 0.0 0.0
1455001500.0 0.0 0.0 0.8910327141288475 0.13804449551605721 0.0 0.0 0.0 0.0
1470001000.0 0.0 0.0 0.9485910238784775 2.261078557928199 0.0 0.0 0.0 0.0
1485000500.0 0.0 0.0 -0.13869814742822476 0.07068675969115626 0.0 0.0 0.0 0.0
1500000000.0 0.0 0.0 0.5870066300347071 -0.2602357996321863 0.0 0.0 0.0 0.0
