! Created with skrf 1.8.0 (http://scikit-rf.org).
# Hz S RI R 50.0 
!freq ReS11 ImS11
50000.0 -0.0027622550854209693 0.00021323962321052252
15049500.0 -0.0021198055063407187 0.0002707531446976578
30049000.0 -0.001361160997274623 0.00031652615185107097
45048500.0 0.0004066746377477718 -0.00040939809448893794
60048000.0 0.002681970439605697 -0.0022345830206307996
75047500.0 0.006016238860894371 -0.0042774994248521705
90047000.0 0.01011366954799565 -0.006123848962178408
105046500.0 0.01263009774649413 -0.007809810263834361
120046000.0 0.013699416682471054 -0.009973386556175518
135045500.0 0.015816050044233015 -0.012583452430189828
150045000.0 0.015480412295773804 -0.012745867046347817
165044500.0 0.01506426638179928 -0.011627597727404819
180044000.0 0.014155761303356485 -0.0022543891826354912
195043500.0 0.01162970077167483 0.003500574469015067
210043000.0 0.008998128478774809 0.010933140773342093
225042500.0 0.006420080493277446 0.019690973636658497
240042000.0 0.004066253829490438 0.029835457381704327
255041500.0 0.0042748078860499455 0.04042706964801771
270041000.0 0.005821073010731497 0.049629911805153935
285040500.0 0.008320364515569126 0.05840961316286013
300040000.0 0.005095014200484113 0.07074285544612723
315039500.0 0.008709332999621231 0.08250336497654502
330039000.0 0.017274884700364136 0.09363951674290885
345038500.0 0.02603577325701228 0.10323368396361893
360038000.0 0.0408783758817932 0.10619019715527507
375037500.0 0.054310212244153284 0.10682603867355116
390037000.0 0.0639294621271322 0.10611897206755633
405036500.0 0.0692939998813379 0.09758178561953493
420036000.0 0.067908271784907 0.0898396413629944
435035500.0 0.06347261793400888 0.0767464847577616
450035000.0 0.05673507029191512 0.05960708415155819
465034500.0 0.046693607454167674 0.034215405042795785
480034000.0 0.03142011883979775 0.012100229583491818
495033500.0 0.016608367996929538 -0.008258024545393185
510033000.0 0.0024566357857602555 -0.017925531612975353
525032500.0 -0.017646128092765414 -0.022481792309152933
540032000.0 -0.034302194870912246 -0.048942792713632
555031500.0 -0.04546762214109667 -0.03613821065971764
570031000.0 -0.05457046856349263 -0.01827617848014331
585030500.0 -0.06339683548388467 -0.0005248152158008848
600030000.0 -0.06981397442025633 0.019214776298886013
615029500.0 -0.07541129944782174 0.04091549959714244
630029000.0 -0.08232436345602752 0.06000353546054008
645028500.0 -0.08950119867862903 0.06686541488052955
660028000.0 -0.08749391929580869 0.06981358601097772
675027500.0 -0.07951279100604189 0.05987451560353141
690027000.0 -0.06354725146446706 0.04472923350490284
705026500.0 -0.03705047928805039 0.02448530484314676
720026000.0 -0.011265276253175513 0.011007194983235961
735025500.0 0.017481133585566334 -0.009383908684062494
750025000.0 0.03810669064327944 -0.02843323333847
765024500.0 0.04852332723815227 -0.046960828987237725
780024000.0 0.0490587577633515 -0.05061092991707809
795023500.0 0.03216949050814022 -0.06931949835588762
810023000.0 -0.0012331351170675 -0.08492695088703661
825022500.0 -0.029699602816493042 -0.11620154181772466
840022000.0 -0.058302992533712204 -0.14787140068860666
855021500.0 -0.07388754393334017 -0.17908667410096643
870021000.0 -0.07775662775482747 -0.21322154978135213
885020500.0 -0.0592578900206648 -0.25811668935548215
900020000.0 -0.029414587398203042 -0.3042604260783487
915019500.0 -0.09513600990223517 -0.28792553004091853
930019000.0 -0.16100573249528208 -0.2621044797575896
945018500.0 -0.2094075020477314 -0.20963110264210685
960018000.0 -0.25898095774482766 -0.15132544155826677
975017500.0 -0.2815765171965081 -0.08673305851197133
990017000.0 -0.28786708433122443 -0.01764420646512601
1005016500.0 -0.2743638968637037 0.05076507912396437
1020016000.0 -0.25015129615429765 0.11554257974332632
1035015500.0 -0.21994639415448272 0.16867019249952458
1050015000.0 -0.15370051208056199 0.2124639352339994
1065014500.0 -0.10335682150630085 0.2459590987310818
1080014000.0 -0.0339936727599228 0.2635478492530908
1095013500.0 0.03310193244005071 0.2774791978800951
1110013000.0 0.10298308189674629 0.2773176147152389
1125012500.0 0.1518972950485076 0.2554798636549006
1140012000.0 0.22202173527263702 0.2381016677358127
1155011500.0 0.2858670546964459 0.19597495904028864
1170011000.0 0.30807245459313154 0.17412150417555178
1185010500.0 0.34003258148066295 0.10687663536304637
1200010000.0 0.35796877278686196 0.06026803475236689
1215009500.0 0.3468876559359414 0.009454837175700564
1230009000.0 0.3485121635583791 -0.05878573957741315
1245008500.0 0.3203906341166299 -0.1025301774375075
1260008000.0 0.2855752573174043 -0.168014693284129
1275007500.0 0.24635647993500842 -0.20117082513286444
1290007000.0 0.20259945436787918 -0.22944186726545301
1305006500.0 0.11332396288410183 -0.2605958959031718
1320006000.0 0.05341751018033628 -0.31823686863523315
1335005500.0 -0.032477807225743116 -0.34120698510977837
1350005000.0 -0.08615754914504238 -0.334840130436623
1365004500.0 -0.13548106451366657 -0.32907768463936554
1380004000.0 -0.19988139914419226 -0.29991322247862384
1395003500.0 -0.21982769819786294 -0.25503920140460834
1410003000.0 -0.23845768914134252 -0.21435186580625873
1425002500.0 -0.26462493206230514 -0.18771493997478217
1440002000.0 -0.20031825686041 -0.13499864452617705
1455001500.0 -0.20071572977137894 -0.13484978627385782
1470001000.0 -0.11272704957048671 -0.07028567889024542
1485000500.0 -0.029723360899721146 -0.02105811174575796
1500000000.0 0.04698829180219676 0.0008165962174622345
