! Created with skrf 1.8.0 (http://scikit-rf.org).
# Hz S RI R 50.0 
!freq ReS11 ImS11
50000.0 -0.004038063134116163 0.0003319788478456328
15049500.0 -0.003849107965150196 -0.0005760590152116273
30049000.0 -0.003339759122275515 -0.0008374534769475724
45048500.0 -0.0018177237059184492 -0.00174816690133284
60048000.0 0.00011356051752835325 -0.003739277975779217
75047500.0 0.0033298413551420265 -0.005251044448324811
90047000.0 0.00729591941576107 -0.007396446607152826
105046500.0 0.010242905968361924 -0.009134018005559021
120046000.0 0.011698008892830866 -0.010520350429634256
135045500.0 0.013058995279691371 -0.012126649812540411
150045000.0 0.013853494325465173 -0.013265252189631583
165044500.0 0.013681639169348307 -0.012082728649023574
180044000.0 0.013501832897074004 -0.0029404971006106186
195043500.0 0.01126759304542375 0.0026778454693514434
210043000.0 0.009396639341189745 0.009858678379761312
225042500.0 0.006631417943274367 0.018074271738120467
240042000.0 0.004825237091487863 0.027858556438804076
255041500.0 0.005627192752236975 0.039006966208006144
270041000.0 0.006361438877920817 0.047019967757753266
285040500.0 0.010608083897383935 0.05568262941264208
300040000.0 0.005581639186322704 0.0681920255256998
315039500.0 0.010109705986994197 0.07984889939463362
330039000.0 0.016296997019177584 0.08657675594673651
345038500.0 0.02474401865433036 0.09692023618810484
360038000.0 0.038849169090892366 0.09988650157433636
375037500.0 0.049479778884965464 0.10098394934801701
390037000.0 0.06156121910385317 0.0964638883054595
405036500.0 0.06202644515354814 0.09191659754543767
420036000.0 0.062295330274524725 0.08258396492309455
435035500.0 0.055365450429394246 0.06997867734461909
450035000.0 0.049044792830926116 0.04704668544171418
465034500.0 0.03626424741842004 0.02773546058755167
480034000.0 0.019689567007283883 0.0042982637104367165
495033500.0 0.006017866703061656 -0.013363526708118162
510033000.0 -0.012173047515583336 -0.02547865925165484
525032500.0 -0.030238836186147575 -0.027817554270192845
540032000.0 -0.045862900372066556 -0.05639090261133623
555031500.0 -0.0542345658866573 -0.04295908690247267
570031000.0 -0.0669953797308273 -0.024061139246521777
585030500.0 -0.07740547232575504 -0.00208709068320814
600030000.0 -0.08087297747611734 0.015783662568093174
615029500.0 -0.08685656168551108 0.039831787983209105
630029000.0 -0.09632539109724801 0.060374124039159226
645028500.0 -0.09529040636612793 0.06509654895698162
660028000.0 -0.09353326031609287 0.06466066139261704
675027500.0 -0.08458692347852989 0.06117354565921426
690027000.0 -0.06512217322264267 0.04033910420983975
705026500.0 -0.0400961787632717 0.023869434001557596
720026000.0 -0.009109793578804816 0.003173379481128305
735025500.0 0.020067332572691915 -0.018720704169399523
750025000.0 0.0429825458033359 -0.03546711483387415
765024500.0 0.053165455466230756 -0.05311792359102313
780024000.0 0.05708632289733502 -0.06599737873565542
795023500.0 0.036863295828123206 -0.08396637293866716
810023000.0 0.004440730145210771 -0.1033258672681898
825022500.0 -0.02441471868042663 -0.13667125130093621
840022000.0 -0.05415494618729824 -0.16847504747614073
855021500.0 -0.06817370791411692 -0.20419154959027844
870021000.0 -0.07569141216506209 -0.24047922088202442
885020500.0 -0.057497565135566996 -0.2812322428717629
900020000.0 -0.02058014612127413 -0.3273842691705112
915019500.0 -0.097136472322026 -0.31298338129494296
930019000.0 -0.1624390273530065 -0.29043550355593767
945018500.0 -0.22096932744025546 -0.24284799523162814
960018000.0 -0.26741541385314443 -0.17828019103038467
975017500.0 -0.29041194961806405 -0.11190222582162215
990017000.0 -0.3119626197456405 -0.05117422736547613
1005016500.0 -0.29915659728429245 0.01695759675511353
1020016000.0 -0.27908762809311366 0.09019864640371243
1035015500.0 -0.24862290430243592 0.14993696956081787
1050015000.0 -0.17823028800459306 0.21690157868404214
1065014500.0 -0.12979937946317943 0.24363031479336766
1080014000.0 -0.06215313607563422 0.2663315655416937
1095013500.0 0.010642346302838964 0.2710374997884659
1110013000.0 0.085039057940821 0.27686563057832836
1125012500.0 0.13906087465911837 0.2568074916121017
1140012000.0 0.19896331310509818 0.2403862484490745
1155011500.0 0.28416529994507095 0.1848836749934918
1170011000.0 0.3066765398490137 0.17485889545342131
1185010500.0 0.3399217354281672 0.11984562259284628
1200010000.0 0.3479973152037354 0.07014397228316177
1215009500.0 0.37020274394825775 0.010626374057496548
1230009000.0 0.3698557378400306 -0.04962128306162994
1245008500.0 0.3237928622723507 -0.11686172574876823
1260008000.0 0.29849297134580444 -0.15127805680679507
1275007500.0 0.2566229382873201 -0.22626963144140805
1290007000.0 0.18374118046557486 -0.26653076547633
1305006500.0 0.12863065606428067 -0.2987536300606764
1320006000.0 0.07216743446748117 -0.30253588654071856
1335005500.0 -0.023339871134527932 -0.33675077711778073
1350005000.0 -0.08611686640683462 -0.33500360444663335
1365004500.0 -0.16297681642927936 -0.32789696811728203
1380004000.0 -0.20561628543675167 -0.3286870841049056
1395003500.0 -0.268886878831304 -0.2690308095815621
1410003000.0 -0.2921473683272405 -0.2381188317592857
1425002500.0 -0.25532426008968373 -0.20112905264427142
1440002000.0 -0.2986635635780507 -0.1527311597462791
1455001500.0 -0.2855655491993218 -0.09970414355975175
1470001000.0 -0.2128601901705481 -0.10008653620104317
1485000500.0 -0.1133044336717339 0.005569011837978787
1500000000.0 -0.04315365459019136 0.010203610779542828
