! Created with skrf 1.8.0 (http://scikit-rf.org).
# Hz S RI R 50.0 
!freq ReS11 ImS11
50000.0 0.0008623193365023987 -0.0005941511876131123
15049500.0 -2.3649183353868316e-05 0.00015549018834347855
30049000.0 -0.00018123989605493932 4.957219578553851e-05
45048500.0 3.502337201618108e-05 -6.757033891822225e-05
60048000.0 0.00019774856056758595 -6.512091219380214e-05
75047500.0 6.718678272658292e-05 -0.00027746241888706807
90047000.0 -3.580608529044631e-05 -3.553135651613168e-05
105046500.0 0.00020752823968614347 -0.00022176410869498454
120046000.0 -5.164868332618438e-05 -8.495043049670866e-06
135045500.0 0.0005486766322838004 -0.0013798789287159375
150045000.0 7.156410078423413e-05 -0.000127896230898615
165044500.0 7.099204912144319e-05 -3.710922638408494e-05
180044000.0 7.3510205357044e-05 -7.291504423186443e-05
195043500.0 -9.5586789354463e-05 0.00021444218695354777
210043000.0 -0.00029087649123158115 -0.00014767261504234995
225042500.0 1.4482413356783423e-05 4.816442302848299e-05
240042000.0 -6.130188871602916e-05 0.00013536612107071575
255041500.0 7.146918995658338e-05 -3.3043441347662993e-06
270041000.0 0.00033259661367272266 -9.151923870067071e-05
285040500.0 -7.86597835652584e-06 8.597808389399487e-05
300040000.0 -0.0012149471835337588 0.00022729093729812773
315039500.0 2.5729912126865422e-05 0.00041757959203922505
330039000.0 -0.0005741428686271713 -0.00047803928144304534
345038500.0 0.0004875306236668101 -0.0020734149315557613
360038000.0 -0.00026545511200952665 -0.00027653961021974275
375037500.0 -4.326436849032397e-05 -0.00021234800132662726
390037000.0 -0.000777645333778884 0.0011379127592243978
405036500.0 -0.0003620706613142033 -0.0004460046288941127
420036000.0 -0.0010479475580439377 0.00018808351815795808
435035500.0 0.002511750167661019 -0.003079985312126817
450035000.0 -0.0004417651848301927 0.0032113573390266993
465034500.0 0.005097415603149453 0.0002310113147560664
480034000.0 -0.000872715566904556 0.0008891467691698875
495033500.0 0.0006269410259480756 0.0002587512801950429
510033000.0 0.0005556485134761099 0.00366288596418527
525032500.0 -0.003422790306910674 -0.001013015281874414
540032000.0 -2.8891680492411147e-05 -0.001055552621544275
555031500.0 0.0015744475485616595 -0.0008237005059767172
570031000.0 0.0009289285625930455 -0.0023397745480998977
585030500.0 -0.0004607285434352432 0.0004858104099864274
600030000.0 -0.001066034574097855 0.0004765389093781272
615029500.0 -0.0013250642419866756 0.003439402097588573
630029000.0 0.0005486612549728892 -0.00011928438596177581
645028500.0 -0.001388359955338882 0.0016556330639923684
660028000.0 -0.0027153312674187756 -0.006862112692357584
675027500.0 0.0003772902073862427 -0.0006761779956825535
690027000.0 -0.0014494469477999595 0.004722590825854272
705026500.0 -0.012116288735654018 -0.0018034698700697877
720026000.0 0.0024038568664882134 0.0011652486912994073
735025500.0 -0.0012039474104162966 0.0010189853461149761
750025000.0 -0.0031277402272864552 0.013418999272202253
765024500.0 -0.00023824194022797332 0.0015826884463135823
780024000.0 -0.050496918271342735 -0.002674539792849982
795023500.0 -0.00022901124375879667 -0.00013271545829766058
810023000.0 0.0027799817565798 -0.0027525969093699413
825022500.0 -0.0008089038254989264 -0.0009944931095050475
840022000.0 -0.00310198997176398 0.004212785583693734
855021500.0 0.018146115560625342 0.014202114210658836
870021000.0 0.0002675411122606727 -0.0005896947700354101
885020500.0 0.0013569424280069843 -4.6232065839023856e-05
900020000.0 0.024116801933291465 0.004288169882663929
915019500.0 0.0009488798326116272 -0.0009496832172582207
930019000.0 0.0028341429153669537 -0.0006667442917791842
945018500.0 -0.01273711394456821 0.007744118357009841
960018000.0 -0.0048153878049807175 0.002269066714199108
975017500.0 -0.031158633596606342 0.013512795835274524
990017000.0 -0.00908374517185991 -0.024489421091248072
1005016500.0 -0.01871059218107787 0.011886682981415472
1020016000.0 0.004708049254054555 0.007201642838311143
1035015500.0 -0.002832602870157662 -0.0029357279430723493
1050015000.0 -0.004632128152812878 0.00794532854254744
1065014500.0 0.006380885922289653 0.019706451185283462
1080014000.0 -0.17959158808184142 0.005590602551895671
1095013500.0 0.0005536591045161518 -0.0015776214965844357
1110013000.0 -0.0016966083603581449 0.002879494661401375
1125012500.0 0.03156856735315451 -0.01294275391360018
1140012000.0 -0.010036954693659358 -0.007606563036103902
1155011500.0 -0.024266500285020535 0.011320043703300281
1170011000.0 0.013528917642093139 -0.006393549682335637
1185010500.0 -0.0023097726222791664 0.0029960261795522664
1200010000.0 -0.019818364007959204 0.0011159037548705059
1215009500.0 0.0016159331814055854 -0.019696974581594643
1230009000.0 -0.0067433504690299515 0.012509958685632545
1245008500.0 0.05565606248822678 -0.00252029346683962
1260008000.0 -0.003604141837846484 -0.02111012887472867
1275007500.0 3.6662066903805225e-05 0.004326107737199436
1290007000.0 -0.043898233077753646 -0.045744937102404785
1305006500.0 -0.010217007389324925 0.01870484225012392
1320006000.0 0.05202997609175966 0.12385732024027828
1335005500.0 -0.0810456695838485 0.014096988265093853
1350005000.0 -0.013064013112236032 -0.016243148786969547
1365004500.0 -0.0010081719592643017 -0.012197138764712782
1380004000.0 -0.007355200836757604 0.026094744275700563
1395003500.0 0.0036840874800562634 -0.03406859668749057
1410003000.0 -0.014810698638783181 0.019714592702699405
1425002500.0 -0.0036300685097260805 -0.006926091093616101
1440002000.0 -0.013348231187864006 -0.0553961470822887
1455001500.0 0.009622842047566742 0.02511373287190823
1470001000.0 0.02972027956657852 -0.023373497128471726
1485000500.0 0.015000410688201205 0.036082223716938734
1500000000.0 0.03857028025355633 -0.025545331742579967
