! Created with skrf 1.8.0 (http://scikit-rf.org).
# Hz S RI R 50.0 
!freq ReS11 ImS11
50000.0 1.0007717930975486 0.00034847182852505715
15049500.0 0.996874476351003 0.16393297967966836
30049000.0 0.9590012418577046 0.3219523261160567
45048500.0 0.8943252870295679 0.46536281083002984
60048000.0 0.8109662682641224 0.61771277778546
75047500.0 0.7004236106153554 0.7413674239717081
90047000.0 0.5755018464019162 0.8346778710512666
105046500.0 0.44151497440810666 0.9261970424191669
120046000.0 0.28874419466381585 0.9907812907663016
135045500.0 0.1264374678405227 1.0233440343441353
150045000.0 -0.04052188528514509 1.0445002743170668
165044500.0 -0.2102393618924534 1.029260937884175
180044000.0 -0.3554241129220894 0.9868819371907017
195043500.0 -0.5100262773344121 0.927627402935372
210043000.0 -0.6483805273287294 0.8426486686689213
225042500.0 -0.7654129667771306 0.7355764617701903
240042000.0 -0.8729043074519314 0.6283415509283203
255041500.0 -0.9662478727664031 0.5060778929871027
270041000.0 -1.0497452239770906 0.3538072353011548
285040500.0 -1.118654150218584 0.18280308102600687
300040000.0 -1.112199808144321 -0.02851435972465786
315039500.0 -1.140777079869923 -0.20122130579789463
330039000.0 -1.1144776229680518 -0.38017298347799505
345038500.0 -1.0512499371473731 -0.5552352260728083
360038000.0 -0.9660169250024906 -0.6996986352749567
375037500.0 -0.8644788558767768 -0.857252978002603
390037000.0 -0.7319713051447613 -0.9952773059022734
405036500.0 -0.5692319471477646 -1.1032654541950782
420036000.0 -0.39782306928715067 -1.1943614923874397
435035500.0 -0.22098147981701707 -1.2460187569067667
450035000.0 -0.042557845917878145 -1.2596035970547261
465034500.0 0.12899572715687566 -1.2775916195700863
480034000.0 0.3100874426899152 -1.260762152991204
495033500.0 0.4902789186463694 -1.2086129773196403
510033000.0 0.6659468177338715 -1.141053062670768
525032500.0 0.8261768419187426 -1.0329501113479806
540032000.0 0.9638637183654867 -0.8831008918573224
555031500.0 1.0719405944032836 -0.755155832272005
570031000.0 1.157652342183934 -0.609337537686423
585030500.0 1.2204728449778575 -0.44904613495591417
600030000.0 1.2811377136155362 -0.26131814338489756
615029500.0 1.2987355100510827 -0.07800562417785781
630029000.0 1.2734309437497495 0.10977736489724542
645028500.0 1.2248965400452734 0.29232000613853776
660028000.0 1.1454362974898926 0.4531905569378527
675027500.0 1.0549933384160533 0.5789673604883796
690027000.0 0.9564170980601481 0.7035785553004308
705026500.0 0.8500662032892189 0.8006741411122525
720026000.0 0.7324934141534705 0.8928528697843351
735025500.0 0.6069149329975256 0.9879307997404476
750025000.0 0.45031953182621853 1.068806909473097
765024500.0 0.25543171075341614 1.1190274845196628
780024000.0 0.04827579812522659 1.1384038443564035
795023500.0 -0.15568913678970608 1.078631849122479
810023000.0 -0.3067396329329778 0.9670624692636507
825022500.0 -0.4093084447058092 0.8636682426733365
840022000.0 -0.47366767199897747 0.7703462271052981
855021500.0 -0.5300551322284929 0.7144780291102325
870021000.0 -0.5970508632015523 0.6963675246928497
885020500.0 -0.7102601959442374 0.7066164669423814
900020000.0 -0.8983095242018618 0.7292523921758387
915019500.0 -0.720489674088135 0.9132848857037273
930019000.0 -0.49263538460447037 1.0458289053882799
945018500.0 -0.24910757813162024 1.1140732290277722
960018000.0 0.017720629628608 1.1352136224224558
975017500.0 0.2626475124574421 1.0991135289276535
990017000.0 0.4998634570483536 0.9935616593714013
1005016500.0 0.7079270346191997 0.8372772209467589
1020016000.0 0.8735825536493972 0.6421959968844563
1035015500.0 0.9876831189446781 0.42567981454636666
1050015000.0 1.025077800319822 0.19382637255210083
1065014500.0 1.0588800129110965 -0.05628259762811059
1080014000.0 0.9993480019971861 -0.28439058289852137
1095013500.0 0.9042756203765511 -0.4816272820056479
1110013000.0 0.7818574964665295 -0.6549176154409638
1125012500.0 0.6354453597194609 -0.7666741264839347
1140012000.0 0.43400665907201036 -0.9006217670697362
1155011500.0 0.2720699622106063 -0.9415081355500429
1170011000.0 0.055658459048341796 -0.98143619168475
1185010500.0 -0.15017994113125027 -0.9472045172414882
1200010000.0 -0.337704283172455 -0.8940847053054576
1215009500.0 -0.5260224705112552 -0.7728495155826709
1230009000.0 -0.6699756457051306 -0.6411000962165297
1245008500.0 -0.7891403191981647 -0.47128119148966396
1260008000.0 -0.8791312373573552 -0.2673603477597776
1275007500.0 -0.9111022183595212 -0.04011818538835451
1290007000.0 -0.8897141824925142 0.17755470539326634
1305006500.0 -0.8501459858152133 0.40464209245532606
1320006000.0 -0.7517175219851896 0.592088281476662
1335005500.0 -0.5926733043273856 0.8079778141817351
1350005000.0 -0.4167136197554133 0.9505012646999083
1365004500.0 -0.18449014369124261 1.0488753159654984
1380004000.0 0.05461670319210608 1.1153956743558415
1395003500.0 0.29230925957565324 1.1285279321816921
1410003000.0 0.5031338090629579 1.034703881062948
1425002500.0 0.7266898010850261 0.9180276754593638
1440002000.0 0.8595635910664498 0.7971148274457833
1455001500.0 1.009896482966084 0.6478659585509579
1470001000.0 0.9625642884847228 0.3827586810857967
1485000500.0 0.9863109992234312 0.21951245223066684
1500000000.0 0.9240388723415862 0.04363568940704863
