! Created with skrf 1.8.0 (http://scikit-rf.org).
# Hz S RI R 50.0 
!freq ReS11 ImS11
50000.0 1.0031800915196842 0.0007371797770070262
15049500.0 0.9999922867605184 0.16610320744381082
30049000.0 0.9617678958327844 0.32552284935803594
45048500.0 0.8964366218883592 0.4701844582099943
60048000.0 0.8120870384577421 0.6237009862081141
75047500.0 0.7000991025309723 0.7483085949074568
90047000.0 0.5736393588300719 0.8419648287984208
105046500.0 0.4379533153534536 0.934010907701479
120046000.0 0.2834396525690213 0.9981184352518074
135045500.0 0.11852949934319049 1.031062327613612
150045000.0 -0.04947518009155727 1.050122990930488
165044500.0 -0.22104053365605764 1.033719434156355
180044000.0 -0.36750827003778724 0.9896504968101818
195043500.0 -0.5232157768271576 0.9284048079042778
210043000.0 -0.6623247730402736 0.8407358838617369
225042500.0 -0.7797299025843308 0.7318803209052693
240042000.0 -0.8868400825902285 0.6209519106605098
255041500.0 -0.9797760071620126 0.49626442701903417
270041000.0 -1.062692133021365 0.34256679649378763
285040500.0 -1.131905793247943 0.16812986441968758
300040000.0 -1.1200998404884799 -0.04357289772657872
315039500.0 -1.1455563802734754 -0.22152380699473714
330039000.0 -1.1165479920036818 -0.40347895835170655
345038500.0 -1.051074437824903 -0.5779548815442499
360038000.0 -0.9621379107170397 -0.7226509979916036
375037500.0 -0.8573816582408197 -0.8805814926124439
390037000.0 -0.717471520592677 -1.0171412492496488
405036500.0 -0.552945331002442 -1.1257309071637924
420036000.0 -0.37911747605971896 -1.2147010456404546
435035500.0 -0.1975487758478846 -1.2638001807330872
450035000.0 -0.018576043012583417 -1.2849432661783433
465034500.0 0.15912948704479463 -1.2887933958255682
480034000.0 0.33812019269761023 -1.2645576972481045
495033500.0 0.5217873058485271 -1.209351488782275
510033000.0 0.6962920525634975 -1.135035487727189
525032500.0 0.8560508403222195 -1.0205974375877362
540032000.0 0.9926380805968583 -0.8678575478831095
555031500.0 1.101455156066702 -0.7366844631827568
570031000.0 1.184313143950621 -0.5865846576740464
585030500.0 1.2428814514618984 -0.42489122456097494
600030000.0 1.2997817098889275 -0.23290421535167466
615029500.0 1.3132093127419633 -0.04644664206537298
630029000.0 1.284111859990225 0.1446943041722136
645028500.0 1.2270340161054722 0.3286193831845981
660028000.0 1.1427327871335144 0.4868698607938504
675027500.0 1.052704817781685 0.6095354149878623
690027000.0 0.9448722383902088 0.7328997993626717
705026500.0 0.8388498198677887 0.8333702741669696
720026000.0 0.7135491712765663 0.9224336139268023
735025500.0 0.5862583938743753 1.0175854586936557
750025000.0 0.42404148119376256 1.0956410787853168
765024500.0 0.22344481910218572 1.1376494781125899
780024000.0 0.014693280308073198 1.1472499348725607
795023500.0 -0.19120390884771596 1.0878463289577784
810023000.0 -0.34301661086562657 0.9677557424255606
825022500.0 -0.4462694456709656 0.8600481862186602
840022000.0 -0.5091908815097212 0.7630086587650369
855021500.0 -0.5659809866987199 0.704246818392904
870021000.0 -0.6312980543292153 0.6817982365383145
885020500.0 -0.7413073517344121 0.6833923437059402
900020000.0 -0.9301194502623901 0.6961166053233891
915019500.0 -0.7500474109668988 0.886738902454848
930019000.0 -0.536250115670491 1.028941973409933
945018500.0 -0.28780133712270867 1.1180768353208153
960018000.0 -0.027457720592013384 1.1391248811918515
975017500.0 0.21829639478172033 1.1118113083111358
990017000.0 0.4622743354705437 1.0160097502002658
1005016500.0 0.6756352928274127 0.8736646536936025
1020016000.0 0.8464138438962698 0.6972697040057969
1035015500.0 0.9700396185524236 0.4811058969439232
1050015000.0 1.0296007483679148 0.23015962692998282
1065014500.0 1.0555041062626955 -0.003923539514474328
1080014000.0 1.0201215463979325 -0.2328465111082218
1095013500.0 0.9332795271699594 -0.4334247987664978
1110013000.0 0.8063176985680129 -0.6215463812708233
1125012500.0 0.6694802970385837 -0.739771682495511
1140012000.0 0.49363085363975145 -0.8622618987260394
1155011500.0 0.3169714952824634 -0.9373679245614326
1170011000.0 0.10309617166107062 -0.9726121955597603
1185010500.0 -0.10297479770039565 -0.9758206456450362
1200010000.0 -0.306957367404399 -0.9187818106729042
1215009500.0 -0.4929560258600713 -0.8125372879904555
1230009000.0 -0.6641935360296852 -0.6870563270613708
1245008500.0 -0.7798774773250092 -0.5207900522873433
1260008000.0 -0.8534342702296634 -0.3257603445793458
1275007500.0 -0.9129139970769081 -0.10547595947506763
1290007000.0 -0.9181798591549835 0.12209323522336385
1305006500.0 -0.8723199281477231 0.3427420130512531
1320006000.0 -0.7673889264701633 0.5576600488576572
1335005500.0 -0.6092463862907893 0.7561702471355912
1350005000.0 -0.4342925222657331 0.9077814661868698
1365004500.0 -0.265800811173192 0.9750277202099417
1380004000.0 0.010115436059668751 1.119327326647527
1395003500.0 0.2580164657424922 1.097056511524203
1410003000.0 0.49317871367167443 1.063361124172272
1425002500.0 0.6785758073014184 0.9367864841413818
1440002000.0 0.8697369639932703 0.8030571093772279
1455001500.0 1.0019085365340479 0.624668271148859
1470001000.0 1.0262503367880706 0.46994594429082726
1485000500.0 1.0481376983331374 0.2243749702068738
1500000000.0 1.0023564301349357 0.060984960327846637
