! Created with skrf 1.8.0 (http://scikit-rf.org).
# Hz S RI R 50.0 
!freq ReS11 ImS11 ReS21 ImS21 ReS12 ImS12 ReS22 ImS22
50000.0 0.0 0.0 -0.8186943180321916 -0.014967994238269382 0.0 0.0 0.0 0.0
15049500.0 0.0 0.0 -0.8051509360795993 0.1155053163795023 0.0 0.0 0.0 0.0
30049000.0 0.0 0.0 -0.7823675165742443 0.21796093726323426 0.0 0.0 0.0 0.0
45048500.0 0.0 0.0 -0.746353217968899 0.3165930969143146 0.0 0.0 0.0 0.0
60048000.0 0.0 0.0 -0.6985914931002072 0.40916354111656345 0.0 0.0 0.0 0.0
75047500.0 0.0 0.0 -0.6408593810504792 0.4923409278293904 0.0 0.0 0.0 0.0
90047000.0 0.0 0.0 -0.5695313853446091 0.5663069818791343 0.0 0.0 0.0 0.0
105046500.0 0.0 0.0 -0.49221809703324715 0.633192840847882 0.0 0.0 0.0 0.0
120046000.0 0.0 0.0 -0.4096342003477484 0.6877668473532256 0.0 0.0 0.0 0.0
135045500.0 0.0 0.0 -0.3217093204080602 0.7316050952127291 0.0 0.0 0.0 0.0
150045000.0 0.0 0.0 -0.22948993671749457 0.7625384770911587 0.0 0.0 0.0 0.0
165044500.0 0.0 0.0 -0.13536056105912797 0.7819271025023627 0.0 0.0 0.0 0.0
180044000.0 0.0 0.0 -0.04108112203919106 0.790251931225152 0.0 0.0 0.0 0.0
195043500.0 0.0 0.0 0.05351403776339637 0.7875974544449977 0.0 0.0 0.0 0.0
210043000.0 0.0 0.0 0.14675358725472473 0.7734248415817117 0.0 0.0 0.0 0.0
225042500.0 0.0 0.0 0.23696394624185285 0.7480369022296612 0.0 0.0 0.0 0.0
240042000.0 0.0 0.0 0.32461846357526924 0.7111330853901995 0.0 0.0 0.0 0.0
255041500.0 0.0 0.0 0.40757775796428225 0.6651732594563289 0.0 0.0 0.0 0.0
270041000.0 0.0 0.0 0.48382789594646547 0.6084333757724124 0.0 0.0 0.0 0.0
285040500.0 0.0 0.0 0.5533097789783739 0.5431055436827357 0.0 0.0 0.0 0.0
300040000.0 0.0 0.0 0.6070644678295732 0.4832336869658959 0.0 0.0 0.0 0.0
315039500.0 0.0 0.0 0.6603324561370569 0.4061762377866032 0.0 0.0 0.0 0.0
330039000.0 0.0 0.0 0.703938135453643 0.32251187942978937 0.0 0.0 0.0 0.0
345038500.0 0.0 0.0 0.7372874763184936 0.23495406495226137 0.0 0.0 0.0 0.0
360038000.0 0.0 0.0 0.758800409680831 0.1440049771849077 0.0 0.0 0.0 0.0
375037500.0 0.0 0.0 0.7699736985738823 0.051184250719368336 0.0 0.0 0.0 0.0
390037000.0 0.0 0.0 0.7677442443382407 -0.042234837552279476 0.0 0.0 0.0 0.0
405036500.0 0.0 0.0 0.7578716296316272 -0.132688690958997 0.0 0.0 0.0 0.0
420036000.0 0.0 0.0 0.7341394099652083 -0.21939805938742182 0.0 0.0 0.0 0.0
435035500.0 0.0 0.0 0.6974608079881663 -0.3032236553241324 0.0 0.0 0.0 0.0
450035000.0 0.0 0.0 0.6486301286562665 -0.3852085474704074 0.0 0.0 0.0 0.0
465034500.0 0.0 0.0 0.589416628488621 -0.45782925825358556 0.0 0.0 0.0 0.0
480034000.0 0.0 0.0 0.521233707209401 -0.5229968424805589 0.0 0.0 0.0 0.0
495033500.0 0.0 0.0 0.4475790646555902 -0.5800809067655538 0.0 0.0 0.0 0.0
510033000.0 0.0 0.0 0.3671990871383536 -0.6261064895840485 0.0 0.0 0.0 0.0
525032500.0 0.0 0.0 0.2867535584278315 -0.6616313473945686 0.0 0.0 0.0 0.0
540032000.0 0.0 0.0 0.20155533249140917 -0.6872588490161675 0.0 0.0 0.0 0.0
555031500.0 0.0 0.0 0.11865755495472248 -0.699169369461093 0.0 0.0 0.0 0.0
570031000.0 0.0 0.0 0.03526468560990431 -0.702722698080868 0.0 0.0 0.0 0.0
585030500.0 0.0 0.0 -0.045608332844941195 -0.6989733867800786 0.0 0.0 0.0 0.0
600030000.0 0.0 0.0 -0.12477653606514688 -0.6762109317718782 0.0 0.0 0.0 0.0
615029500.0 0.0 0.0 -0.20118104582990462 -0.6527411800681023 0.0 0.0 0.0 0.0
630029000.0 0.0 0.0 -0.2742577261801463 -0.6215828605421707 0.0 0.0 0.0 0.0
645028500.0 0.0 0.0 -0.3419122115468076 -0.5835839498263825 0.0 0.0 0.0 0.0
660028000.0 0.0 0.0 -0.4050449396290521 -0.538556044521008 0.0 0.0 0.0 0.0
675027500.0 0.0 0.0 -0.46488395920887604 -0.48435991123867633 0.0 0.0 0.0 0.0
690027000.0 0.0 0.0 -0.5183459961210077 -0.42602704951937176 0.0 0.0 0.0 0.0
705026500.0 0.0 0.0 -0.5657203116636528 -0.3624957124884076 0.0 0.0 0.0 0.0
720026000.0 0.0 0.0 -0.6018451766686529 -0.2960847221891828 0.0 0.0 0.0 0.0
735025500.0 0.0 0.0 -0.6340457688825163 -0.22152196055196044 0.0 0.0 0.0 0.0
750025000.0 0.0 0.0 -0.657296409714103 -0.14469527597236118 0.0 0.0 0.0 0.0
765024500.0 0.0 0.0 -0.6691503393397893 -0.06662063752342148 0.0 0.0 0.0 0.0
780024000.0 0.0 0.0 -0.6742135794374118 0.013335781110680418 0.0 0.0 0.0 0.0
795023500.0 0.0 0.0 -0.6630036920136979 0.0933044644987271 0.0 0.0 0.0 0.0
810023000.0 0.0 0.0 -0.6445176178763797 0.17272005715313513 0.0 0.0 0.0 0.0
825022500.0 0.0 0.0 -0.617357362514407 0.24891347045540255 0.0 0.0 0.0 0.0
840022000.0 0.0 0.0 -0.5806996120562905 0.32176806654004175 0.0 0.0 0.0 0.0
855021500.0 0.0 0.0 -0.537456946122616 0.38783829266906855 0.0 0.0 0.0 0.0
870021000.0 0.0 0.0 -0.4880404398904459 0.4519684631679456 0.0 0.0 0.0 0.0
885020500.0 0.0 0.0 -0.42893706470371007 0.5113187232858023 0.0 0.0 0.0 0.0
900020000.0 0.0 0.0 -0.3474406220842997 0.589234985977203 0.0 0.0 0.0 0.0
915019500.0 0.0 0.0 -0.2828603480168737 0.6224519753298139 0.0 0.0 0.0 0.0
930019000.0 0.0 0.0 -0.20999534530179584 0.658422791481824 0.0 0.0 0.0 0.0
945018500.0 0.0 0.0 -0.13524612696641872 0.6779981675671853 0.0 0.0 0.0 0.0
960018000.0 0.0 0.0 -0.057935022485353385 0.6933572507313008 0.0 0.0 0.0 0.0
975017500.0 0.0 0.0 0.013425754298035678 0.6931759613425026 0.0 0.0 0.0 0.0
990017000.0 0.0 0.0 0.09704039649687857 0.7003309443204663 0.0 0.0 0.0 0.0
1005016500.0 0.0 0.0 0.17469524210770584 0.6884616166311814 0.0 0.0 0.0 0.0
1020016000.0 0.0 0.0 0.25111432535756384 0.6841822953494102 0.0 0.0 0.0 0.0
1035015500.0 0.0 0.0 0.33935481043178395 0.6604644206401078 0.0 0.0 0.0 0.0
1050015000.0 0.0 0.0 0.4099360693799566 0.6158984866292915 0.0 0.0 0.0 0.0
1065014500.0 0.0 0.0 0.4933265480029472 0.5840204061737404 0.0 0.0 0.0 0.0
1080014000.0 0.0 0.0 0.5688639120196556 0.53813465249872 0.0 0.0 0.0 0.0
1095013500.0 0.0 0.0 0.6423330859633595 0.47689170457196833 0.0 0.0 0.0 0.0
1110013000.0 0.0 0.0 0.710741541755702 0.404308974606489 0.0 0.0 0.0 0.0
1125012500.0 0.0 0.0 0.7664756626572344 0.32763607709743786 0.0 0.0 0.0 0.0
1140012000.0 0.0 0.0 0.832930128433117 0.23786917728864482 0.0 0.0 0.0 0.0
1155011500.0 0.0 0.0 0.8986328381268606 0.12613066446159285 0.0 0.0 0.0 0.0
1170011000.0 0.0 0.0 0.9087282300458578 0.026198085124411727 0.0 0.0 0.0 0.0
1185010500.0 0.0 0.0 0.9335994353634175 -0.10875308431342455 0.0 0.0 0.0 0.0
1200010000.0 0.0 0.0 0.9350959332742725 -0.24847538008329326 0.0 0.0 0.0 0.0
1215009500.0 0.0 0.0 0.9135138105885627 -0.3668551838308285 0.0 0.0 0.0 0.0
1230009000.0 0.0 0.0 0.8783748727443058 -0.49846063328418644 0.0 0.0 0.0 0.0
1245008500.0 0.0 0.0 0.8246102120826605 -0.6264807047267914 0.0 0.0 0.0 0.0
1260008000.0 0.0 0.0 0.7578936433900239 -0.7411764948643749 0.0 0.0 0.0 0.0
1275007500.0 0.0 0.0 0.6688090088343965 -0.8409135610890348 0.0 0.0 0.0 0.0
1290007000.0 0.0 0.0 0.573605528792729 -0.9382319098032812 0.0 0.0 0.0 0.0
1305006500.0 0.0 0.0 0.45492022069459154 -1.0117901448353017 0.0 0.0 0.0 0.0
1320006000.0 0.0 0.0 0.34586531829448874 -1.0806915112204125 0.0 0.0 0.0 0.0
1335005500.0 0.0 0.0 0.21973028229124547 -1.136892319004087 0.0 0.0 0.0 0.0
1350005000.0 0.0 0.0 0.1061454424099822 -1.1389492290810155 0.0 0.0 0.0 0.0
1365004500.0 0.0 0.0 0.024005135589825616 -1.1907321570501057 0.0 0.0 0.0 0.0
1380004000.0 0.0 0.0 -0.14816750019063357 -1.1636701416488908 0.0 0.0 0.0 0.0
1395003500.0 0.0 0.0 -0.2585811659322135 -1.199196074951491 0.0 0.0 0.0 0.0
1410003000.0 0.0 0.0 -0.36159351702936904 -1.13594229842874 0.0 0.0 0.0 0.0
1425002500.0 0.0 0.0 -0.49127460449385324 -1.1032759939085208 0.0 0.0 0.0 0.0
1440002000.0 0.0 0.0 -0.5875060720942822 -1.054445890656705 0.0 0.0 0.0 0.0
1455001500.0 0.0 0.0 -0.6775137376937598 -1.02947547765304 0.0 0.0 0.0 0.0
1470001000.0 0.0 0.0 -0.7577489027420622 -0.9594642335370503 0.0 0.0 0.0 0.0
1485000500.0 0.0 0.0 -0.8485161692147556 -0.9245449141795039 0.0 0.0 0.0 0.0
1500000000.0 0.0 0.0 -0.9373991857829731 -0.8249786856901782 0.0 0.0 0.0 0.0
