! Created with skrf 1.8.0 (http://scikit-rf.org).
# Hz S RI R 50.0 
!freq ReS11 ImS11 ReS21 ImS21 ReS12 ImS12 ReS22 ImS22
50000.0 0.0 0.0 -3.3311807982257613 0.2758768568420483 0.0 0.0 0.0 0.0
15049500.0 0.0 0.0 -0.6316099238724878 -0.286763909573458 0.0 0.0 0.0 0.0
30049000.0 0.0 0.0 -0.7810863337669465 1.7963715472583621 0.0 0.0 0.0 0.0
45048500.0 0.0 0.0 -0.28128636758926784 0.42705693493408947 0.0 0.0 0.0 0.0
60048000.0 0.0 0.0 -0.2904117411283235 0.08140700225415494 0.0 0.0 0.0 0.0
75047500.0 0.0 0.0 0.8080022915885615 -0.16177049103828206 0.0 0.0 0.0 0.0
90047000.0 0.0 0.0 0.1294678367097975 -0.7173820455608292 0.0 0.0 0.0 0.0
105046500.0 0.0 0.0 1.1278009234709283 1.1861022161678236 0.0 0.0 0.0 0.0
120046000.0 0.0 0.0 0.24789857903003384 0.05055269982023252 0.0 0.0 0.0 0.0
135045500.0 0.0 0.0 0.4016039828364235 0.7046248041211292 0.0 0.0 0.0 0.0
150045000.0 0.0 0.0 -1.588000151321241 1.856412161638252 0.0 0.0 0.0 0.0
165044500.0 0.0 0.0 0.5127345235422973 -0.9827446834837311 0.0 0.0 0.0 0.0
180044000.0 0.0 0.0 0.37231613520566553 0.6344519070978907 0.0 0.0 0.0 0.0
195043500.0 0.0 0.0 0.5588324510941026 -0.37090278077908 0.0 0.0 0.0 0.0
210043000.0 0.0 0.0 -0.28577880109363496 -0.6301246773920258 0.0 0.0 0.0 0.0
225042500.0 0.0 0.0 0.600160901729301 -0.364580672678289 0.0 0.0 0.0 0.0
240042000.0 0.0 0.0 0.4687069109481459 -0.2661103307366736 0.0 0.0 0.0 0.0
255041500.0 0.0 0.0 0.5713606067524427 0.25384792531142547 0.0 0.0 0.0 0.0
270041000.0 0.0 0.0 0.8431336805416626 -0.36484318050436104 0.0 0.0 0.0 0.0
285040500.0 0.0 0.0 -3.8728103131305396 0.9116505495880078 0.0 0.0 0.0 0.0
300040000.0 0.0 0.0 -0.3486411308565577 -0.7961001450560318 0.0 0.0 0.0 0.0
315039500.0 0.0 0.0 -0.17468758662399247 0.048563968793204 0.0 0.0 0.0 0.0
330039000.0 0.0 0.0 0.7208938153601734 -0.631238798929237 0.0 0.0 0.0 0.0
345038500.0 0.0 0.0 0.4739007243149184 -0.02464016060189125 0.0 0.0 0.0 0.0
360038000.0 0.0 0.0 -0.22107839294048445 0.21837448022230166 0.0 0.0 0.0 0.0
375037500.0 0.0 0.0 -0.16882564446377524 -0.006480561990222504 0.0 0.0 0.0 0.0
390037000.0 0.0 0.0 -0.6261635571970721 0.33370279767324773 0.0 0.0 0.0 0.0
405036500.0 0.0 0.0 -0.11896654577766022 0.5028263766374057 0.0 0.0 0.0 0.0
420036000.0 0.0 0.0 -0.9227764008109092 0.13266456827696066 0.0 0.0 0.0 0.0
435035500.0 0.0 0.0 -0.025637816443609723 -1.2510495351411146 0.0 0.0 0.0 0.0
450035000.0 0.0 0.0 -0.46133327878082026 -0.1764273006282362 0.0 0.0 0.0 0.0
465034500.0 0.0 0.0 1.3314331729674496 1.3685725170225316 0.0 0.0 0.0 0.0
480034000.0 0.0 0.0 0.34106881406659606 1.5786701764319797 0.0 0.0 0.0 0.0
495033500.0 0.0 0.0 0.10813078527020112 -0.819266112973636 0.0 0.0 0.0 0.0
510033000.0 0.0 0.0 -0.8764623660082488 0.8627495039811427 0.0 0.0 0.0 0.0
525032500.0 0.0 0.0 0.3006788809971489 0.48610499569888904 0.0 0.0 0.0 0.0
540032000.0 0.0 0.0 0.5913830984343003 -0.2669875568768061 0.0 0.0 0.0 0.0
555031500.0 0.0 0.0 -0.3017707486774505 0.38360290126378804 0.0 0.0 0.0 0.0
570031000.0 0.0 0.0 -0.5388577181865022 -0.6184034459710304 0.0 0.0 0.0 0.0
585030500.0 0.0 0.0 -0.4562055457209374 0.8106665095963116 0.0 0.0 0.0 0.0
600030000.0 0.0 0.0 0.15581253833774983 0.5683479797199864 0.0 0.0 0.0 0.0
615029500.0 0.0 0.0 0.6432848699582108 0.22933001951157714 0.0 0.0 0.0 0.0
630029000.0 0.0 0.0 0.038117979655070744 0.4463807305708616 0.0 0.0 0.0 0.0
645028500.0 0.0 0.0 0.25508515362830436 -0.1392135786026449 0.0 0.0 0.0 0.0
660028000.0 0.0 0.0 0.38356616956076034 -0.6430147828567055 0.0 0.0 0.0 0.0
675027500.0 0.0 0.0 -0.10116568607644733 -0.6653385046982006 0.0 0.0 0.0 0.0
690027000.0 0.0 0.0 0.9766636664811306 0.8438582754496973 0.0 0.0 0.0 0.0
705026500.0 0.0 0.0 0.5445494040141762 -1.399643048702433 0.0 0.0 0.0 0.0
720026000.0 0.0 0.0 0.7352365375237788 -1.1267124549379106 0.0 0.0 0.0 0.0
735025500.0 0.0 0.0 -0.4450394751236806 -0.2799730666459176 0.0 0.0 0.0 0.0
750025000.0 0.0 0.0 -0.3472026805625502 -1.3596949104482403 0.0 0.0 0.0 0.0
765024500.0 0.0 0.0 0.4375312270267309 0.6905682622208964 0.0 0.0 0.0 0.0
780024000.0 0.0 0.0 -0.9232879403374812 0.7799757713258315 0.0 0.0 0.0 0.0
795023500.0 0.0 0.0 -0.19006214898872176 -0.14412226486272395 0.0 0.0 0.0 0.0
810023000.0 0.0 0.0 -0.052052065282494384 -0.8320582277276782 0.0 0.0 0.0 0.0
825022500.0 0.0 0.0 -0.4054655378516676 0.551228552064544 0.0 0.0 0.0 0.0
840022000.0 0.0 0.0 -0.42543292857133863 -0.5029999915005304 0.0 0.0 0.0 0.0
855021500.0 0.0 0.0 -0.9022880159751484 -0.11715931255055946 0.0 0.0 0.0 0.0
870021000.0 0.0 0.0 -0.4936127496500562 0.24497004965162203 0.0 0.0 0.0 0.0
885020500.0 0.0 0.0 -0.17504895994838482 0.5005363889281621 0.0 0.0 0.0 0.0
900020000.0 0.0 0.0 -0.5433063821500267 0.4374942116862077 0.0 0.0 0.0 0.0
915019500.0 0.0 0.0 -0.33368360707943984 -0.23315016616624212 0.0 0.0 0.0 0.0
930019000.0 0.0 0.0 -0.17685164567565073 0.11710248323645803 0.0 0.0 0.0 0.0
945018500.0 0.0 0.0 0.058975606774454806 0.18350422905747718 0.0 0.0 0.0 0.0
960018000.0 0.0 0.0 -0.06535207692121188 0.5889779115123953 0.0 0.0 0.0 0.0
975017500.0 0.0 0.0 -0.5128917648084845 1.3757487546096745 0.0 0.0 0.0 0.0
990017000.0 0.0 0.0 0.0598203927657077 0.5407944712777577 0.0 0.0 0.0 0.0
1005016500.0 0.0 0.0 -2.436641342924341 -2.2941960553719505 0.0 0.0 0.0 0.0
1020016000.0 0.0 0.0 -0.15943431248438483 -0.7517186540849463 0.0 0.0 0.0 0.0
1035015500.0 0.0 0.0 0.2919402519546194 -0.38178551471564925 0.0 0.0 0.0 0.0
1050015000.0 0.0 0.0 -0.3277128809869641 -0.7656095097680412 0.0 0.0 0.0 0.0
1065014500.0 0.0 0.0 2.390529712860103 -0.08366291069556032 0.0 0.0 0.0 0.0
1080014000.0 0.0 0.0 1.951187311537424 -0.4410362730650309 0.0 0.0 0.0 0.0
1095013500.0 0.0 0.0 -0.014820127589417996 -0.2580040877515322 0.0 0.0 0.0 0.0
1110013000.0 0.0 0.0 -0.12832705026397104 -0.9932473498129478 0.0 0.0 0.0 0.0
1125012500.0 0.0 0.0 1.2377949716430827 -2.6054116875007063 0.0 0.0 0.0 0.0
1140012000.0 0.0 0.0 -0.24573263229448267 -0.6193941832736283 0.0 0.0 0.0 0.0
1155011500.0 0.0 0.0 -0.5882373847627079 -0.16389616277746788 0.0 0.0 0.0 0.0
1170011000.0 0.0 0.0 0.44773984403296724 0.039436565052435944 0.0 0.0 0.0 0.0
1185010500.0 0.0 0.0 -0.3835879608692508 -0.13035330129341988 0.0 0.0 0.0 0.0
1200010000.0 0.0 0.0 -1.0036264311762797 -0.18957143686896302 0.0 0.0 0.0 0.0
1215009500.0 0.0 0.0 -0.670488840051224 -0.41692111160636675 0.0 0.0 0.0 0.0
1230009000.0 0.0 0.0 -0.5521115509574602 -0.008182381965980302 0.0 0.0 0.0 0.0
1245008500.0 0.0 0.0 -0.7075123216987892 0.04102279461995194 0.0 0.0 0.0 0.0
1260008000.0 0.0 0.0 -0.2923196343767874 0.47713636427195555 0.0 0.0 0.0 0.0
1275007500.0 0.0 0.0 -0.2097304096708422 0.0269884620477309 0.0 0.0 0.0 0.0
1290007000.0 0.0 0.0 -0.8686681747857254 0.24171375787699323 0.0 0.0 0.0 0.0
1305006500.0 0.0 0.0 -0.6751129996716727 0.7653315871880647 0.0 0.0 0.0 0.0
1320006000.0 0.0 0.0 -1.2471238013574137 0.6795192172995455 0.0 0.0 0.0 0.0
1335005500.0 0.0 0.0 0.858553793915531 0.5345577623191121 0.0 0.0 0.0 0.0
1350005000.0 0.0 0.0 -2.598335439723314 -1.1726853936816743 0.0 0.0 0.0 0.0
1365004500.0 0.0 0.0 0.389923721957731 0.4442410920620803 0.0 0.0 0.0 0.0
1380004000.0 0.0 0.0 0.4107712079178886 0.21962617431753723 0.0 0.0 0.0 0.0
1395003500.0 0.0 0.0 0.3753091135170293 0.5268433642886354 0.0 0.0 0.0 0.0
1410003000.0 0.0 0.0 0.7301405037195169 0.41716366944654687 0.0 0.0 0.0 0.0
1425002500.0 0.0 0.0 0.09749823454815244 -0.15275461939698864 0.0 0.0 0.0 0.0
1440002000.0 0.0 0.0 0.9224939046375262 0.7129962522384452 0.0 0.0 0.0 0.0
1455001500.0 0.0 0.0 -8.251030131963391 5.71478722879134 0.0 0.0 0.0 0.0
1470001000.0 0.0 0.0 -0.5852590449876917 -0.5668594873472691 0.0 0.0 0.0 0.0
1485000500.0 0.0 0.0 0.1547145915872542 -1.0277864278592934 0.0 0.0 0.0 0.0
1500000000.0 0.0 0.0 0.24504486285812835 -0.6298461894467204 0.0 0.0 0.0 0.0
