! Created with skrf 1.8.0 (http://scikit-rf.org).
# Hz S RI R 50.0 
!freq ReS11 ImS11 ReS21 ImS21 ReS12 ImS12 ReS22 ImS22
50000.0 0.0 0.0 -0.8180890890096615 -0.011978572765697582 0.0 0.0 0.0 0.0
15049500.0 0.0 0.0 -0.7865343657018177 0.20120083414177792 0.0 0.0 0.0 0.0
30049000.0 0.0 0.0 -0.7162688356260678 0.3768569942904136 0.0 0.0 0.0 0.0
45048500.0 0.0 0.0 -0.6074448242872225 0.5307074223139691 0.0 0.0 0.0 0.0
60048000.0 0.0 0.0 -0.46869489656087626 0.6535816886651044 0.0 0.0 0.0 0.0
75047500.0 0.0 0.0 -0.3079829342330904 0.7391329504684716 0.0 0.0 0.0 0.0
90047000.0 0.0 0.0 -0.12550393550598174 0.784647848739558 0.0 0.0 0.0 0.0
105046500.0 0.0 0.0 0.05507459768325243 0.7916512140940006 0.0 0.0 0.0 0.0
120046000.0 0.0 0.0 0.22881541930987823 0.7582928588233483 0.0 0.0 0.0 0.0
135045500.0 0.0 0.0 0.39052049903811464 0.6868038111798402 0.0 0.0 0.0 0.0
150045000.0 0.0 0.0 0.5323797794649043 0.5821762748696887 0.0 0.0 0.0 0.0
165044500.0 0.0 0.0 0.6471967482264391 0.44938889355170325 0.0 0.0 0.0 0.0
180044000.0 0.0 0.0 0.7306307834363478 0.29491459387467595 0.0 0.0 0.0 0.0
195043500.0 0.0 0.0 0.7778949473648001 0.12580384840680023 0.0 0.0 0.0 0.0
210043000.0 0.0 0.0 0.7858797752559457 -0.05055685741146618 0.0 0.0 0.0 0.0
225042500.0 0.0 0.0 0.7537457609910077 -0.2245151678648681 0.0 0.0 0.0 0.0
240042000.0 0.0 0.0 0.6822083554222488 -0.38702668640211924 0.0 0.0 0.0 0.0
255041500.0 0.0 0.0 0.575140710615529 -0.5281803520350506 0.0 0.0 0.0 0.0
270041000.0 0.0 0.0 0.43902291950059374 -0.6408979292445255 0.0 0.0 0.0 0.0
285040500.0 0.0 0.0 0.2823393030545904 -0.7180914225901205 0.0 0.0 0.0 0.0
300040000.0 0.0 0.0 0.12957650479016747 -0.7577046850704442 0.0 0.0 0.0 0.0
315039500.0 0.0 0.0 -0.04247465866590967 -0.7666573410864431 0.0 0.0 0.0 0.0
330039000.0 0.0 0.0 -0.21004947522019662 -0.7367569142644054 0.0 0.0 0.0 0.0
345038500.0 0.0 0.0 -0.3643976898812466 -0.6697062709058939 0.0 0.0 0.0 0.0
360038000.0 0.0 0.0 -0.5010404431874051 -0.5723124341443401 0.0 0.0 0.0 0.0
375037500.0 0.0 0.0 -0.6122740287791234 -0.4487857420885729 0.0 0.0 0.0 0.0
390037000.0 0.0 0.0 -0.6938687854225957 -0.30816611623967227 0.0 0.0 0.0 0.0
405036500.0 0.0 0.0 -0.7398412873897412 -0.14395369528792884 0.0 0.0 0.0 0.0
420036000.0 0.0 0.0 -0.7467590312368818 0.021087839509207545 0.0 0.0 0.0 0.0
435035500.0 0.0 0.0 -0.7126669346845117 0.1860838651409786 0.0 0.0 0.0 0.0
450035000.0 0.0 0.0 -0.6383134195317419 0.3414557878903299 0.0 0.0 0.0 0.0
465034500.0 0.0 0.0 -0.5351657835661071 0.47177509111793386 0.0 0.0 0.0 0.0
480034000.0 0.0 0.0 -0.4092782210860797 0.5747793242718311 0.0 0.0 0.0 0.0
495033500.0 0.0 0.0 -0.26688054734082745 0.6424131633899461 0.0 0.0 0.0 0.0
510033000.0 0.0 0.0 -0.11575157470090615 0.6794672206859165 0.0 0.0 0.0 0.0
525032500.0 0.0 0.0 0.03503711680379396 0.6836128554171929 0.0 0.0 0.0 0.0
540032000.0 0.0 0.0 0.17931643551320023 0.6580852026705076 0.0 0.0 0.0 0.0
555031500.0 0.0 0.0 0.3174617388826915 0.598249736170982 0.0 0.0 0.0 0.0
570031000.0 0.0 0.0 0.43704474479246486 0.5159749059407364 0.0 0.0 0.0 0.0
585030500.0 0.0 0.0 0.5374965652562418 0.4072247827967346 0.0 0.0 0.0 0.0
600030000.0 0.0 0.0 0.6183142168099277 0.28990230667963424 0.0 0.0 0.0 0.0
615029500.0 0.0 0.0 0.6668889059632035 0.14629495443253854 0.0 0.0 0.0 0.0
630029000.0 0.0 0.0 0.6831638422553353 -0.004022315964543311 0.0 0.0 0.0 0.0
645028500.0 0.0 0.0 0.6621552361066264 -0.15649560358963735 0.0 0.0 0.0 0.0
660028000.0 0.0 0.0 0.6066634265589589 -0.2985661294140845 0.0 0.0 0.0 0.0
675027500.0 0.0 0.0 0.5215897344711072 -0.4232603348491269 0.0 0.0 0.0 0.0
690027000.0 0.0 0.0 0.40673569399957954 -0.5207847288269741 0.0 0.0 0.0 0.0
705026500.0 0.0 0.0 0.27384676519556117 -0.5897380040377197 0.0 0.0 0.0 0.0
720026000.0 0.0 0.0 0.13231123116203275 -0.6263351602071866 0.0 0.0 0.0 0.0
735025500.0 0.0 0.0 -0.007517066656064961 -0.635198954666644 0.0 0.0 0.0 0.0
750025000.0 0.0 0.0 -0.14581121849411768 -0.6125940771265256 0.0 0.0 0.0 0.0
765024500.0 0.0 0.0 -0.27458572235056977 -0.5625801319303976 0.0 0.0 0.0 0.0
780024000.0 0.0 0.0 -0.382726697790201 -0.4842907784687565 0.0 0.0 0.0 0.0
795023500.0 0.0 0.0 -0.48439620403740197 -0.3912686169925952 0.0 0.0 0.0 0.0
810023000.0 0.0 0.0 -0.557433932865317 -0.27221899057367677 0.0 0.0 0.0 0.0
825022500.0 0.0 0.0 -0.6036590135767134 -0.13654423477224156 0.0 0.0 0.0 0.0
840022000.0 0.0 0.0 -0.6234919632804999 0.007140950833181252 0.0 0.0 0.0 0.0
855021500.0 0.0 0.0 -0.6115085206711164 0.1518320914600177 0.0 0.0 0.0 0.0
870021000.0 0.0 0.0 -0.5722910903134617 0.2899027618008216 0.0 0.0 0.0 0.0
885020500.0 0.0 0.0 -0.5077939638336822 0.41486588437926797 0.0 0.0 0.0 0.0
900020000.0 0.0 0.0 -0.40429011675401355 0.519897470662613 0.0 0.0 0.0 0.0
915019500.0 0.0 0.0 -0.27264854465349353 0.5967291884007998 0.0 0.0 0.0 0.0
930019000.0 0.0 0.0 -0.13939927711494796 0.6455144354178803 0.0 0.0 0.0 0.0
945018500.0 0.0 0.0 -0.0009716159787874476 0.6541153855165414 0.0 0.0 0.0 0.0
960018000.0 0.0 0.0 0.1412181375973255 0.6401051399558592 0.0 0.0 0.0 0.0
975017500.0 0.0 0.0 0.2687042140994771 0.6025862477295821 0.0 0.0 0.0 0.0
990017000.0 0.0 0.0 0.3972288342627622 0.5379192355029561 0.0 0.0 0.0 0.0
1005016500.0 0.0 0.0 0.5122251674796539 0.44620871703342374 0.0 0.0 0.0 0.0
1020016000.0 0.0 0.0 0.6001904862340125 0.3230252169759256 0.0 0.0 0.0 0.0
1035015500.0 0.0 0.0 0.6703948223089964 0.1863937138292541 0.0 0.0 0.0 0.0
1050015000.0 0.0 0.0 0.7028260957255699 0.02603236752574282 0.0 0.0 0.0 0.0
1065014500.0 0.0 0.0 0.6979308574353861 -0.14254993587213735 0.0 0.0 0.0 0.0
1080014000.0 0.0 0.0 0.6559506956189659 -0.30368622610778484 0.0 0.0 0.0 0.0
1095013500.0 0.0 0.0 0.5630258718405671 -0.45429240880549593 0.0 0.0 0.0 0.0
1110013000.0 0.0 0.0 0.44533145682782116 -0.5816845001382603 0.0 0.0 0.0 0.0
1125012500.0 0.0 0.0 0.30994456248245233 -0.6576769651386161 0.0 0.0 0.0 0.0
1140012000.0 0.0 0.0 0.14567487152312866 -0.7272484869611893 0.0 0.0 0.0 0.0
1155011500.0 0.0 0.0 -0.01956350567931304 -0.768287571632634 0.0 0.0 0.0 0.0
1170011000.0 0.0 0.0 -0.1878858881660601 -0.7333977277303317 0.0 0.0 0.0 0.0
1185010500.0 0.0 0.0 -0.34626112013917126 -0.6962086238868946 0.0 0.0 0.0 0.0
1200010000.0 0.0 0.0 -0.5056818597810874 -0.6239734918924463 0.0 0.0 0.0 0.0
1215009500.0 0.0 0.0 -0.6353798573433801 -0.511542635872246 0.0 0.0 0.0 0.0
1230009000.0 0.0 0.0 -0.7574138266335905 -0.37500235121629166 0.0 0.0 0.0 0.0
1245008500.0 0.0 0.0 -0.8405269520151077 -0.21769112558073903 0.0 0.0 0.0 0.0
1260008000.0 0.0 0.0 -0.8896263407660366 -0.029725023699272272 0.0 0.0 0.0 0.0
1275007500.0 0.0 0.0 -0.8959382646680049 0.1520056570727273 0.0 0.0 0.0 0.0
1290007000.0 0.0 0.0 -0.8400783360810156 0.36711783741850745 0.0 0.0 0.0 0.0
1305006500.0 0.0 0.0 -0.7561455814287223 0.5534946323638601 0.0 0.0 0.0 0.0
1320006000.0 0.0 0.0 -0.6098532060997013 0.6819241821486045 0.0 0.0 0.0 0.0
1335005500.0 0.0 0.0 -0.45560532737869214 0.819473001559722 0.0 0.0 0.0 0.0
1350005000.0 0.0 0.0 -0.26015834734087684 0.9006100779235049 0.0 0.0 0.0 0.0
1365004500.0 0.0 0.0 -0.14993191213878818 0.9706598178257522 0.0 0.0 0.0 0.0
1380004000.0 0.0 0.0 0.09530984462600517 0.9546101599685158 0.0 0.0 0.0 0.0
1395003500.0 0.0 0.0 0.29453052472932467 0.9203117922143661 0.0 0.0 0.0 0.0
1410003000.0 0.0 0.0 0.47607395769216104 0.8448203689190097 0.0 0.0 0.0 0.0
1425002500.0 0.0 0.0 0.6269238997144633 0.7618884752394598 0.0 0.0 0.0 0.0
1440002000.0 0.0 0.0 0.7919741338945401 0.6162625158781111 0.0 0.0 0.0 0.0
1455001500.0 0.0 0.0 0.8954160985040851 0.4528682662637342 0.0 0.0 0.0 0.0
1470001000.0 0.0 0.0 1.0091060977109316 0.26678034358455066 0.0 0.0 0.0 0.0
1485000500.0 0.0 0.0 1.0294388656019047 0.09711754872904037 0.0 0.0 0.0 0.0
1500000000.0 0.0 0.0 1.0517302570727782 -0.11595193920753115 0.0 0.0 0.0 0.0
