! Created with skrf 1.8.0 (http://scikit-rf.org).
# Hz S RI R 50.0 
!freq ReS11 ImS11 ReS21 ImS21 ReS12 ImS12 ReS22 ImS22
50000.0 0.0 0.0 -0.8177157100250926 -0.011856154113627717 0.0 0.0 0.0 0.0
15049500.0 0.0 0.0 -0.7858533331930475 0.201240018616927 0.0 0.0 0.0 0.0
30049000.0 0.0 0.0 -0.7156377835845573 0.3765264920021591 0.0 0.0 0.0 0.0
45048500.0 0.0 0.0 -0.6069612251880001 0.5301589367997861 0.0 0.0 0.0 0.0
60048000.0 0.0 0.0 -0.46859098785055053 0.6527880853319128 0.0 0.0 0.0 0.0
75047500.0 0.0 0.0 -0.3083567750964085 0.7381247556849903 0.0 0.0 0.0 0.0
90047000.0 0.0 0.0 -0.12621671443093851 0.7837634058541357 0.0 0.0 0.0 0.0
105046500.0 0.0 0.0 0.05422231858275906 0.7910978794719389 0.0 0.0 0.0 0.0
120046000.0 0.0 0.0 0.22799368428609543 0.7577757179486971 0.0 0.0 0.0 0.0
135045500.0 0.0 0.0 0.38900899037234893 0.6862434625966536 0.0 0.0 0.0 0.0
150045000.0 0.0 0.0 0.5312730195292684 0.5821142207483003 0.0 0.0 0.0 0.0
165044500.0 0.0 0.0 0.6458503899745958 0.44943490373673567 0.0 0.0 0.0 0.0
180044000.0 0.0 0.0 0.7290152416276516 0.29565187708974794 0.0 0.0 0.0 0.0
195043500.0 0.0 0.0 0.7764295328479933 0.12688638700471047 0.0 0.0 0.0 0.0
210043000.0 0.0 0.0 0.7848838774886306 -0.04867031089282164 0.0 0.0 0.0 0.0
225042500.0 0.0 0.0 0.7531509037747857 -0.22208114640039794 0.0 0.0 0.0 0.0
240042000.0 0.0 0.0 0.6817552480291889 -0.3841016650126489 0.0 0.0 0.0 0.0
255041500.0 0.0 0.0 0.5758884958233815 -0.5260765617321839 0.0 0.0 0.0 0.0
270041000.0 0.0 0.0 0.44055368849526716 -0.6376828489854617 0.0 0.0 0.0 0.0
285040500.0 0.0 0.0 0.2855020742364976 -0.7172160701168324 0.0 0.0 0.0 0.0
300040000.0 0.0 0.0 0.13181552802580312 -0.758034986326419 0.0 0.0 0.0 0.0
315039500.0 0.0 0.0 -0.03928815268835847 -0.7660337854260095 0.0 0.0 0.0 0.0
330039000.0 0.0 0.0 -0.20563703362968877 -0.7338125315004649 0.0 0.0 0.0 0.0
345038500.0 0.0 0.0 -0.36140103810826213 -0.6712106063977857 0.0 0.0 0.0 0.0
360038000.0 0.0 0.0 -0.4989235643076557 -0.5736161020134648 0.0 0.0 0.0 0.0
375037500.0 0.0 0.0 -0.6105892865648219 -0.4501540389512087 0.0 0.0 0.0 0.0
390037000.0 0.0 0.0 -0.6898874081611318 -0.31058239206449617 0.0 0.0 0.0 0.0
405036500.0 0.0 0.0 -0.7384865212772763 -0.14795235282516866 0.0 0.0 0.0 0.0
420036000.0 0.0 0.0 -0.7449243472573805 0.016786148939198563 0.0 0.0 0.0 0.0
435035500.0 0.0 0.0 -0.7113270690632545 0.18223948986570285 0.0 0.0 0.0 0.0
450035000.0 0.0 0.0 -0.6436909090554256 0.3355005550572285 0.0 0.0 0.0 0.0
465034500.0 0.0 0.0 -0.5378506223249812 0.46738656310902854 0.0 0.0 0.0 0.0
480034000.0 0.0 0.0 -0.4127693599248654 0.5706086660989674 0.0 0.0 0.0 0.0
495033500.0 0.0 0.0 -0.2701267234445259 0.6427955133084007 0.0 0.0 0.0 0.0
510033000.0 0.0 0.0 -0.1217100472257099 0.6781086585331708 0.0 0.0 0.0 0.0
525032500.0 0.0 0.0 0.030244177658806177 0.6810317547328734 0.0 0.0 0.0 0.0
540032000.0 0.0 0.0 0.1758776949222136 0.6563433664241051 0.0 0.0 0.0 0.0
555031500.0 0.0 0.0 0.3121638176146034 0.6001058641601468 0.0 0.0 0.0 0.0
570031000.0 0.0 0.0 0.4339050561500474 0.5178744723785424 0.0 0.0 0.0 0.0
585030500.0 0.0 0.0 0.5334039214191916 0.4115533090933485 0.0 0.0 0.0 0.0
600030000.0 0.0 0.0 0.6132502843608434 0.2930758916567121 0.0 0.0 0.0 0.0
615029500.0 0.0 0.0 0.6643458599691038 0.15125647912538476 0.0 0.0 0.0 0.0
630029000.0 0.0 0.0 0.681816544329809 0.0008282441070577833 0.0 0.0 0.0 0.0
645028500.0 0.0 0.0 0.6619237023331579 -0.1506370995939783 0.0 0.0 0.0 0.0
660028000.0 0.0 0.0 0.6089562742183483 -0.2914725579328139 0.0 0.0 0.0 0.0
675027500.0 0.0 0.0 0.5229625272661542 -0.4171010199785359 0.0 0.0 0.0 0.0
690027000.0 0.0 0.0 0.4094213884007643 -0.516696161066778 0.0 0.0 0.0 0.0
705026500.0 0.0 0.0 0.2820513119840721 -0.5867663222216629 0.0 0.0 0.0 0.0
720026000.0 0.0 0.0 0.141150085822538 -0.6274888009843367 0.0 0.0 0.0 0.0
735025500.0 0.0 0.0 -0.0014141204187727617 -0.6342494948988869 0.0 0.0 0.0 0.0
750025000.0 0.0 0.0 -0.13768112074032665 -0.6145810087711774 0.0 0.0 0.0 0.0
765024500.0 0.0 0.0 -0.2704467109707244 -0.5661358248944098 0.0 0.0 0.0 0.0
780024000.0 0.0 0.0 -0.3941031546866196 -0.4995873807535304 0.0 0.0 0.0 0.0
795023500.0 0.0 0.0 -0.4803662737384354 -0.3969382460076769 0.0 0.0 0.0 0.0
810023000.0 0.0 0.0 -0.553052598437605 -0.27835353864453005 0.0 0.0 0.0 0.0
825022500.0 0.0 0.0 -0.6015113581312669 -0.14374476329244767 0.0 0.0 0.0 0.0
840022000.0 0.0 0.0 -0.6206515885469511 -0.0009728927807216251 0.0 0.0 0.0 0.0
855021500.0 0.0 0.0 -0.61171779287609 0.14375991962274326 0.0 0.0 0.0 0.0
870021000.0 0.0 0.0 -0.5740672309259902 0.28397498828031054 0.0 0.0 0.0 0.0
885020500.0 0.0 0.0 -0.50992955826916 0.4075591197969065 0.0 0.0 0.0 0.0
900020000.0 0.0 0.0 -0.4126895845817654 0.5179777493600533 0.0 0.0 0.0 0.0
915019500.0 0.0 0.0 -0.2817040817860699 0.5961805300228138 0.0 0.0 0.0 0.0
930019000.0 0.0 0.0 -0.1501822594721033 0.6422190199486493 0.0 0.0 0.0 0.0
945018500.0 0.0 0.0 -0.006615389787170736 0.6576819319185647 0.0 0.0 0.0 0.0
960018000.0 0.0 0.0 0.13046190961714835 0.6429782265074252 0.0 0.0 0.0 0.0
975017500.0 0.0 0.0 0.2705404714394032 0.6008542369136263 0.0 0.0 0.0 0.0
990017000.0 0.0 0.0 0.39420961206946675 0.5399817264525497 0.0 0.0 0.0 0.0
1005016500.0 0.0 0.0 0.5019765158538816 0.45292266815471466 0.0 0.0 0.0 0.0
1020016000.0 0.0 0.0 0.5959615069143926 0.330033237992477 0.0 0.0 0.0 0.0
1035015500.0 0.0 0.0 0.6635513006752212 0.1932297665597282 0.0 0.0 0.0 0.0
1050015000.0 0.0 0.0 0.6925096495188818 0.03977777952154455 0.0 0.0 0.0 0.0
1065014500.0 0.0 0.0 0.6981993583028733 -0.12820419217653437 0.0 0.0 0.0 0.0
1080014000.0 0.0 0.0 0.6554265453772415 -0.291697748543189 0.0 0.0 0.0 0.0
1095013500.0 0.0 0.0 0.5733835491961308 -0.43936457846104754 0.0 0.0 0.0 0.0
1110013000.0 0.0 0.0 0.4524626387840443 -0.5676777079292099 0.0 0.0 0.0 0.0
1125012500.0 0.0 0.0 0.31545758206602154 -0.6512875551101602 0.0 0.0 0.0 0.0
1140012000.0 0.0 0.0 0.15868869246782422 -0.7182676596702925 0.0 0.0 0.0 0.0
1155011500.0 0.0 0.0 0.0007440163742953671 -0.7246288986878132 0.0 0.0 0.0 0.0
1170011000.0 0.0 0.0 -0.17211003625290608 -0.7185958582461147 0.0 0.0 0.0 0.0
1185010500.0 0.0 0.0 -0.3341945330834589 -0.7023073544901046 0.0 0.0 0.0 0.0
1200010000.0 0.0 0.0 -0.4850781608683578 -0.6223625833062952 0.0 0.0 0.0 0.0
1215009500.0 0.0 0.0 -0.6267979321634156 -0.5232063228617906 0.0 0.0 0.0 0.0
1230009000.0 0.0 0.0 -0.7556122705918293 -0.3933828142276071 0.0 0.0 0.0 0.0
1245008500.0 0.0 0.0 -0.8355955322640092 -0.23151593934654 0.0 0.0 0.0 0.0
1260008000.0 0.0 0.0 -0.8739511783793841 -0.04094375717391066 0.0 0.0 0.0 0.0
1275007500.0 0.0 0.0 -0.894153539090188 0.1524191748242979 0.0 0.0 0.0 0.0
1290007000.0 0.0 0.0 -0.8609689429743903 0.36502729585487975 0.0 0.0 0.0 0.0
1305006500.0 0.0 0.0 -0.7461101402966968 0.5294641711749949 0.0 0.0 0.0 0.0
1320006000.0 0.0 0.0 -0.6183890269007021 0.6788137596532742 0.0 0.0 0.0 0.0
1335005500.0 0.0 0.0 -0.47342573544029026 0.8141207312136748 0.0 0.0 0.0 0.0
1350005000.0 0.0 0.0 -0.2795999627762496 0.8779445594148454 0.0 0.0 0.0 0.0
1365004500.0 0.0 0.0 -0.08518603594690007 0.9565789245502712 0.0 0.0 0.0 0.0
1380004000.0 0.0 0.0 0.0760942095053675 0.94666562479652 0.0 0.0 0.0 0.0
1395003500.0 0.0 0.0 0.2887533943305809 0.918271445836851 0.0 0.0 0.0 0.0
1410003000.0 0.0 0.0 0.4596016132885942 0.8460292714305188 0.0 0.0 0.0 0.0
1425002500.0 0.0 0.0 0.6215602356680825 0.755332593631629 0.0 0.0 0.0 0.0
1440002000.0 0.0 0.0 0.7905220406810756 0.623194068231761 0.0 0.0 0.0 0.0
1455001500.0 0.0 0.0 0.896306794358971 0.46020570179081177 0.0 0.0 0.0 0.0
1470001000.0 0.0 0.0 0.9883216144852167 0.2970183731905095 0.0 0.0 0.0 0.0
1485000500.0 0.0 0.0 1.0127569033401795 0.09472381542186761 0.0 0.0 0.0 0.0
1500000000.0 0.0 0.0 1.0503256365093123 -0.1199584650764955 0.0 0.0 0.0 0.0
