! Created with skrf 1.8.0 (http://scikit-rf.org).
# Hz S RI R 50.0 
!freq ReS11 ImS11 ReS21 ImS21 ReS12 ImS12 ReS22 ImS22
50000.0 0.0 0.0 -1.975e-05 1.9363e-05 0.0 0.0 0.0 0.0
15049500.0 0.0 0.0 -2.9131e-05 5.661e-06 0.0 0.0 0.0 0.0
30049000.0 0.0 0.0 -1.7535e-05 2.0381e-05 0.0 0.0 0.0 0.0
45048500.0 0.0 0.0 -3.0117e-05 -5.367e-06 0.0 0.0 0.0 0.0
60048000.0 0.0 0.0 -4.2838e-05 1.4377e-05 0.0 0.0 0.0 0.0
75047500.0 0.0 0.0 -7.06e-05 3.895e-06 0.0 0.0 0.0 0.0
90047000.0 0.0 0.0 -3.5599e-05 2.8261e-05 0.0 0.0 0.0 0.0
105046500.0 0.0 0.0 -3.8639e-05 3.6264e-05 0.0 0.0 0.0 0.0
120046000.0 0.0 0.0 -6.4599e-05 2.5297e-05 0.0 0.0 0.0 0.0
135045500.0 0.0 0.0 -5.645e-05 4.9428e-05 0.0 0.0 0.0 0.0
150045000.0 0.0 0.0 -1.3339e-05 4.0442e-05 0.0 0.0 0.0 0.0
165044500.0 0.0 0.0 7.203e-06 3.9923e-05 0.0 0.0 0.0 0.0
180044000.0 0.0 0.0 -3.643e-06 -9.94e-07 0.0 0.0 0.0 0.0
195043500.0 0.0 0.0 -1.1313e-05 2.8569e-05 0.0 0.0 0.0 0.0
210043000.0 0.0 0.0 3.4797e-05 1.9557e-05 0.0 0.0 0.0 0.0
225042500.0 0.0 0.0 6.232e-06 5.1205e-05 0.0 0.0 0.0 0.0
240042000.0 0.0 0.0 -5.2e-06 5.4124e-05 0.0 0.0 0.0 0.0
255041500.0 0.0 0.0 -5.782e-06 4.656e-05 0.0 0.0 0.0 0.0
270041000.0 0.0 0.0 4.0083e-05 2.3513e-05 0.0 0.0 0.0 0.0
285040500.0 0.0 0.0 3.3877e-05 -1.8422e-05 0.0 0.0 0.0 0.0
300040000.0 0.0 0.0 0.0004138 5.5193e-05 0.0 0.0 0.0 0.0
315039500.0 0.0 0.0 1.0949e-05 6.1752e-05 0.0 0.0 0.0 0.0
330039000.0 0.0 0.0 -1.6465e-05 2.2499e-05 0.0 0.0 0.0 0.0
345038500.0 0.0 0.0 5.5805e-05 -8.1752e-05 0.0 0.0 0.0 0.0
360038000.0 0.0 0.0 -0.000269432 0.000339436 0.0 0.0 0.0 0.0
375037500.0 0.0 0.0 0.000186484 -0.000253013 0.0 0.0 0.0 0.0
390037000.0 0.0 0.0 -0.000434073 0.000188671 0.0 0.0 0.0 0.0
405036500.0 0.0 0.0 0.000151589 5.599e-05 0.0 0.0 0.0 0.0
420036000.0 0.0 0.0 0.000451376 3.4097e-05 0.0 0.0 0.0 0.0
435035500.0 0.0 0.0 -9.2705e-05 -0.0001506 0.0 0.0 0.0 0.0
450035000.0 0.0 0.0 0.000498506 -0.000283112 0.0 0.0 0.0 0.0
465034500.0 0.0 0.0 0.000331693 0.000135145 0.0 0.0 0.0 0.0
480034000.0 0.0 0.0 0.000536207 -0.000205244 0.0 0.0 0.0 0.0
495033500.0 0.0 0.0 0.000571239 8.0384e-05 0.0 0.0 0.0 0.0
510033000.0 0.0 0.0 0.000583289 -0.000441336 0.0 0.0 0.0 0.0
525032500.0 0.0 0.0 -0.000225074 -0.000212853 0.0 0.0 0.0 0.0
540032000.0 0.0 0.0 0.000394952 -0.000168757 0.0 0.0 0.0 0.0
555031500.0 0.0 0.0 0.000263995 -0.00076135 0.0 0.0 0.0 0.0
570031000.0 0.0 0.0 0.000399617 -0.000640571 0.0 0.0 0.0 0.0
585030500.0 0.0 0.0 -0.000408551 -0.000428368 0.0 0.0 0.0 0.0
600030000.0 0.0 0.0 0.000189753 -0.00100886 0.0 0.0 0.0 0.0
615029500.0 0.0 0.0 0.000111075 -0.000237623 0.0 0.0 0.0 0.0
630029000.0 0.0 0.0 0.000178711 -0.000390355 0.0 0.0 0.0 0.0
645028500.0 0.0 0.0 0.000109455 -0.000627016 0.0 0.0 0.0 0.0
660028000.0 0.0 0.0 0.000289315 -0.000178006 0.0 0.0 0.0 0.0
675027500.0 0.0 0.0 0.000207583 -0.000265376 0.0 0.0 0.0 0.0
690027000.0 0.0 0.0 0.000142192 -0.0008964 0.0 0.0 0.0 0.0
705026500.0 0.0 0.0 0.000306541 -0.000379269 0.0 0.0 0.0 0.0
720026000.0 0.0 0.0 0.00050119 0.000101793 0.0 0.0 0.0 0.0
735025500.0 0.0 0.0 -8.8208e-05 -5.8854e-05 0.0 0.0 0.0 0.0
750025000.0 0.0 0.0 -0.000241371 -0.000498201 0.0 0.0 0.0 0.0
765024500.0 0.0 0.0 -0.000102185 -0.000368171 0.0 0.0 0.0 0.0
780024000.0 0.0 0.0 -2.1843e-05 -0.00067952 0.0 0.0 0.0 0.0
795023500.0 0.0 0.0 -2.6851e-05 -0.000530533 0.0 0.0 0.0 0.0
810023000.0 0.0 0.0 -0.000222787 -0.000410315 0.0 0.0 0.0 0.0
825022500.0 0.0 0.0 -0.000475901 -0.000341503 0.0 0.0 0.0 0.0
840022000.0 0.0 0.0 -0.000229513 -0.000171568 0.0 0.0 0.0 0.0
855021500.0 0.0 0.0 -0.000222962 -0.000431894 0.0 0.0 0.0 0.0
870021000.0 0.0 0.0 -0.000311015 -0.00044073 0.0 0.0 0.0 0.0
885020500.0 0.0 0.0 -0.000140024 -0.000364444 0.0 0.0 0.0 0.0
900020000.0 0.0 0.0 0.002245777 -0.00187895 0.0 0.0 0.0 0.0
915019500.0 0.0 0.0 0.000593879 -0.002304784 0.0 0.0 0.0 0.0
930019000.0 0.0 0.0 0.001875498 0.000505323 0.0 0.0 0.0 0.0
945018500.0 0.0 0.0 0.000880729 -0.00072299 0.0 0.0 0.0 0.0
960018000.0 0.0 0.0 0.001438533 8.4669e-05 0.0 0.0 0.0 0.0
975017500.0 0.0 0.0 0.000619149 -0.000874585 0.0 0.0 0.0 0.0
990017000.0 0.0 0.0 -0.001223807 -0.000868147 0.0 0.0 0.0 0.0
1005016500.0 0.0 0.0 -0.001184947 -0.00098101 0.0 0.0 0.0 0.0
1020016000.0 0.0 0.0 0.000398688 -0.00028514 0.0 0.0 0.0 0.0
1035015500.0 0.0 0.0 0.001279759 -0.00036741 0.0 0.0 0.0 0.0
1050015000.0 0.0 0.0 0.001559196 -0.000790233 0.0 0.0 0.0 0.0
1065014500.0 0.0 0.0 -0.00093982 -0.000690074 0.0 0.0 0.0 0.0
1080014000.0 0.0 0.0 -0.000423282 -0.000710043 0.0 0.0 0.0 0.0
1095013500.0 0.0 0.0 0.000551381 -0.003622113 0.0 0.0 0.0 0.0
1110013000.0 0.0 0.0 0.000907231 0.000133581 0.0 0.0 0.0 0.0
1125012500.0 0.0 0.0 0.002252186 0.000322236 0.0 0.0 0.0 0.0
1140012000.0 0.0 0.0 -0.001414405 -0.003290829 0.0 0.0 0.0 0.0
1155011500.0 0.0 0.0 -0.002366303 -0.000450696 0.0 0.0 0.0 0.0
1170011000.0 0.0 0.0 -0.000515781 -0.00056939 0.0 0.0 0.0 0.0
1185010500.0 0.0 0.0 -0.000966172 0.000157188 0.0 0.0 0.0 0.0
1200010000.0 0.0 0.0 -0.002053278 -0.005301149 0.0 0.0 0.0 0.0
1215009500.0 0.0 0.0 -0.003849532 0.000742149 0.0 0.0 0.0 0.0
1230009000.0 0.0 0.0 -0.001476385 0.003925119 0.0 0.0 0.0 0.0
1245008500.0 0.0 0.0 -0.003444049 0.006482619 0.0 0.0 0.0 0.0
1260008000.0 0.0 0.0 0.001138839 0.000870091 0.0 0.0 0.0 0.0
1275007500.0 0.0 0.0 -0.002525319 0.000641927 0.0 0.0 0.0 0.0
1290007000.0 0.0 0.0 -0.00042247 -0.002105476 0.0 0.0 0.0 0.0
1305006500.0 0.0 0.0 0.007227795 0.00475687 0.0 0.0 0.0 0.0
1320006000.0 0.0 0.0 -0.005839427 -0.009172872 0.0 0.0 0.0 0.0
1335005500.0 0.0 0.0 0.000345356 -0.002546289 0.0 0.0 0.0 0.0
1350005000.0 0.0 0.0 0.005300384 -0.007139113 0.0 0.0 0.0 0.0
1365004500.0 0.0 0.0 0.007170075 -0.0076478 0.0 0.0 0.0 0.0
1380004000.0 0.0 0.0 -0.001222 0.004723542 0.0 0.0 0.0 0.0
1395003500.0 0.0 0.0 0.001560832 0.006855803 0.0 0.0 0.0 0.0
1410003000.0 0.0 0.0 0.009618868 0.002031785 0.0 0.0 0.0 0.0
1425002500.0 0.0 0.0 0.009095014 0.001916693 0.0 0.0 0.0 0.0
1440002000.0 0.0 0.0 -0.003047098 -0.008150531 0.0 0.0 0.0 0.0
1455001500.0 0.0 0.0 -0.003874934 0.016465058 0.0 0.0 0.0 0.0
1470001000.0 0.0 0.0 -0.003657907 -0.01032655 0.0 0.0 0.0 0.0
1485000500.0 0.0 0.0 0.01642543 0.014307618 0.0 0.0 0.0 0.0
1500000000.0 0.0 0.0 -0.003952809 0.000283999 0.0 0.0 0.0 0.0
