! Created with skrf 1.8.0 (http://scikit-rf.org).
# Hz S RI R 50.0 
!freq ReS11 ImS11
50000.0 0.996407872 0.001488563
15049500.0 0.939637568 0.360768768
30049000.0 0.750178688 0.67293536
45048500.0 0.461871296 0.892427392
60048000.0 0.103296608 1.013780356
75047500.0 -0.273335936 0.988373568
90047000.0 -0.619584832 0.820117888
105046500.0 -0.891446592 0.546179008
120046000.0 -1.041908024 0.185099264
135045500.0 -1.045450808 -0.209747632
150045000.0 -0.914401792 -0.586045888
165044500.0 -0.6486976 -0.88509312
180044000.0 -0.314547712 -1.044047952
195043500.0 0.064443448 -1.101888656
210043000.0 0.435116992 -1.022524356
225042500.0 0.752454656 -0.82138016
240042000.0 0.9952736 -0.540012544
255041500.0 1.136846896 -0.187858704
270041000.0 1.15162576 0.221936656
285040500.0 1.022440076 0.633668288
300040000.0 0.686420224 0.95581536
315039500.0 0.318729952 1.18965184
330039000.0 -0.141133248 1.2561388
345038500.0 -0.599975488 1.142236944
360038000.0 -0.967902784 0.868752832
375037500.0 -1.256207344 0.47640672
390037000.0 -1.361996416 -0.015447028
405036500.0 -1.287576448 -0.518944736
420036000.0 -1.033470154 -0.963853248
435035500.0 -0.631754304 -1.270826688
450035000.0 -0.15170472 -1.39375104
465034500.0 0.304187168 -1.382491584
480034000.0 0.724111488 -1.213636992
495033500.0 1.077006936 -0.92053344
510033000.0 1.319959648 -0.531301088
525032500.0 1.406059616 -0.063555792
540032000.0 1.363466976 0.385797888
555031500.0 1.150111552 0.800080448
570031000.0 0.816914944 1.11343384
585030500.0 0.3923376 1.287487744
600030000.0 -0.046147448 1.344080096
615029500.0 -0.493159904 1.22581232
630029000.0 -0.882410688 0.964111936
645028500.0 -1.171836608 0.582090432
660028000.0 -1.310005056 0.099855824
675027500.0 -1.266967536 -0.395995968
690027000.0 -1.01730585 -0.866413952
705026500.0 -0.609809536 -1.165922288
720026000.0 -0.13720256 -1.269004576
735025500.0 0.315405952 -1.213271968
750025000.0 0.712298624 -1.00410521
765024500.0 1.004204512 -0.657235712
780024000.0 1.127114416 -0.23330528
795023500.0 1.09881616 0.21272752
810023000.0 0.859987392 0.553552192
825022500.0 0.55955712 0.735304896
840022000.0 0.278036544 0.77825216
855021500.0 0.05773122 0.761430592
870021000.0 -0.125399008 0.727746624
885020500.0 -0.297168768 0.718818624
900020000.0 -0.52285488 0.738857152
915019500.0 -0.507442944 0.738173376
930019000.0 -0.488786464 0.744728512
945018500.0 -0.47968896 0.736978688
960018000.0 -0.456186592 0.743456192
975017500.0 -0.438991008 0.763082496
990017000.0 -0.416235296 0.755440832
1005016500.0 -0.401861632 0.761240192
1020016000.0 -0.369968512 0.784049664
1035015500.0 -0.35244 0.775079296
1050015000.0 -0.348360576 0.773819712
1065014500.0 -0.30927536 0.79412096
1080014000.0 -0.288626528 0.796770368
1095013500.0 -0.253625088 0.793761856
1110013000.0 -0.235860128 0.80396064
1125012500.0 -0.221883888 0.794019456
1140012000.0 -0.18031888 0.82243296
1155011500.0 -0.126520384 0.799820928
1170011000.0 -0.124753136 0.799715264
1185010500.0 -0.097251808 0.813448768
1200010000.0 -0.075012 0.81230464
1215009500.0 -0.050092532 0.813874752
1230009000.0 -0.010924908 0.827987328
1245008500.0 0.022339712 0.816859072
1260008000.0 0.061308328 0.806888384
1275007500.0 0.08658864 0.806289792
1290007000.0 0.111885152 0.80824992
1305006500.0 0.145963696 0.812255936
1320006000.0 0.181475184 0.802588992
1335005500.0 0.21613232 0.78845888
1350005000.0 0.2318792 0.783529792
1365004500.0 0.251516048 0.783314688
1380004000.0 0.295927104 0.758637952
1395003500.0 0.325760928 0.737418368
1410003000.0 0.35196096 0.720736384
1425002500.0 0.35601888 0.702454272
1440002000.0 0.408737568 0.685134016
1455001500.0 0.421444128 0.661728832
1470001000.0 0.429449248 0.640196352
1485000500.0 0.473956576 0.64384704
1500000000.0 0.504613984 0.617792256
