! Created with skrf 1.8.0 (http://scikit-rf.org).
# Hz S RI R 50.0 
!freq ReS11 ImS11
50000.0 1.3264868744019485 0.14475761327733377
15049500.0 -0.6935090993568624 -0.40171841425286586
30049000.0 -0.046662898085349666 -2.56756560759195
45048500.0 0.39109872658481926 -2.0137776356592028
60048000.0 -1.1124963197148523 0.33340649077214946
75047500.0 1.0927653336035161 0.06068588500320422
90047000.0 1.209705047633597 0.8268217273816
105046500.0 0.9184178158423077 -4.771282238169822
120046000.0 -0.8654297693915112 -2.590106605786457
135045500.0 0.8855201238437446 1.4825549385970886
150045000.0 -1.9784449336619376 -2.242673185556668
165044500.0 -3.029881791488179 2.0362125477055852
180044000.0 0.019631484200094994 3.2765486565153212
195043500.0 -1.5357077273153905 4.090480913888644
210043000.0 1.3237587477278683 0.11816910459822413
225042500.0 0.01941746186759874 -0.4357824362055871
240042000.0 -0.9649605782275462 -1.2248371096022812
255041500.0 -0.4799258962982111 -0.13382783071060322
270041000.0 -0.8942854673289401 2.3358466211804534
285040500.0 1.4502641676248245 -0.6328610233203118
300040000.0 -1.7032814211761247 0.6083272462069657
315039500.0 1.8821654597157431 6.39100441306282
330039000.0 -1.405745096406661 1.837440918114557
345038500.0 1.6691229979984001 1.0896189891454144
360038000.0 1.366603597468283 3.7773316515928137
375037500.0 -0.389244503791183 -0.3961314533513186
390037000.0 38.34131721579397 -14.617986698857417
405036500.0 6.117078255417549 7.555817276810703
420036000.0 0.8488729068156173 0.7890442377604842
435035500.0 0.4806118818134527 -0.5144191550672477
450035000.0 -0.24263976643465154 -1.684789327611194
465034500.0 0.8835742415236649 1.0644022142358847
480034000.0 -11.285452287587637 0.01914615191976361
495033500.0 -1.9095305943353562 -3.678058845709262
510033000.0 -2.4541047788241532 1.3977979491213863
525032500.0 3.9938392513014564 3.0797795294561867
540032000.0 2.223207066166658 -0.46081774303684564
555031500.0 -1.5832422615517274 1.1327500807711461
570031000.0 14.350276781775603 4.031450502812512
585030500.0 -0.30943429006146755 3.243132774966903
600030000.0 0.8498135739345739 1.717140817855008
615029500.0 2.1842009274957146 0.1164528770476311
630029000.0 1.4870592699091723 2.7773395208997242
645028500.0 0.09808108167313598 0.025413011896792705
660028000.0 2.3692151487307083 0.06105090898233766
675027500.0 -3.2073248424716976 1.3842954925014808
690027000.0 9.626959328822897 -8.40805475929979
705026500.0 -0.18879897316175837 -2.365656057892031
720026000.0 -0.32772293796119456 -1.010489579460651
735025500.0 0.6599830061254621 -0.7379823909261354
750025000.0 0.8425163893382258 -1.296130193968527
765024500.0 -0.8776664804463679 -0.5771140611126931
780024000.0 0.7749337542281896 0.4207728500844102
795023500.0 -1.466894039587965 0.008153306541537626
810023000.0 -1.0931483302511693 -2.0129700536020025
825022500.0 -1.057406480260051 -0.20640628209426679
840022000.0 -0.18971766282456176 -1.410054780715806
855021500.0 -1.941237125533352 0.6311449241534826
870021000.0 -0.4498907449909912 -2.2835162427770754
885020500.0 -0.6776711085551257 -0.618975957855785
900020000.0 1.2206775555798857 0.3425012194432987
915019500.0 0.07994082651384891 0.5164654244953318
930019000.0 -0.3917927113766384 2.2325610572270684
945018500.0 1.7953554515568573 -1.691752491714947
960018000.0 -6.740132259292568 0.77982657072845
975017500.0 0.15732379337583596 1.3548833015068271
990017000.0 -0.4443585046262935 0.5014713203821927
1005016500.0 0.6134473855962724 0.7617085487555938
1020016000.0 1.601237728476215 -2.627071626180431
1035015500.0 1.2674705306426282 1.1781862356964183
1050015000.0 0.5468027364900474 1.4143823716390618
1065014500.0 0.5386767547392184 0.0633784683554564
1080014000.0 -0.5022314101360377 0.03593279938036799
1095013500.0 2.748961901217458 0.5176050456578193
1110013000.0 -0.22636713778621836 -0.3172897919495859
1125012500.0 0.2676508364200363 -1.1441981463244209
1140012000.0 1.034981227924656 -0.9496465980351002
1155011500.0 1.8562673969319716 3.1158746920748497
1170011000.0 -0.14721643739458498 0.3752736854365483
1185010500.0 0.20209279206661915 0.41943208402355836
1200010000.0 -1.7672920870880993 -0.4679555034600751
1215009500.0 -2.1677383873859437 1.0175110169329369
1230009000.0 1.744013445409036 -0.600503720165874
1245008500.0 -2.0436544028182904 -1.272359078797254
1260008000.0 2.3053056959431393 -1.0638223100694395
1275007500.0 -0.6577464080596995 0.16281663962699502
1290007000.0 0.33263752532911767 1.4831987102646327
1305006500.0 3.2086447716626383 0.6458378114763732
1320006000.0 -0.2730973339905374 0.2233243268461112
1335005500.0 -8.898151599938657 -5.685439918037171
1350005000.0 -2.515080742833771 0.8896465554907009
1365004500.0 -1.0850700500691837 -1.7514127572649212
1380004000.0 -0.34607825872391335 0.5082025366413756
1395003500.0 -0.2941096820355769 0.22985882488345713
1410003000.0 0.8481703372722847 0.2808409857801064
1425002500.0 -0.14288831626656479 1.834476466626869
1440002000.0 -0.6971889809575418 0.6929144171890796
1455001500.0 0.32729034821374947 0.8139137146934968
1470001000.0 3.5699808819496717 -2.933792337391205
1485000500.0 0.18505675938680666 0.3833140688907577
1500000000.0 -1.4778820044743524 1.9075734972716745
