! Created with skrf 1.8.0 (http://scikit-rf.org).
# Hz S RI R 50.0 
!freq ReS11 ImS11
50000.0 -0.000437251970473668 0.00023137939230425728
15049500.0 -0.0001331045740273736 0.00015572079478873746
30049000.0 0.0006405409170041889 -0.0007965324368171141
45048500.0 9.553643089541852e-05 -0.0002860226410101268
60048000.0 -9.391488120951586e-05 5.069817435106674e-05
75047500.0 -1.7549628453625112e-05 -3.748534785935815e-07
90047000.0 -0.00037064576013928427 0.00010814256193578249
105046500.0 -0.00021956976107136427 0.0008425237106608042
120046000.0 -0.0006509113107857763 -0.0002660197710745766
135045500.0 0.0009657567106022329 0.0015797252361458964
150045000.0 -0.000643885122402585 -0.0015075556445460839
165044500.0 0.0018368591135789114 0.0005148689943894219
180044000.0 -0.001435013753205205 -0.0008845985424217411
195043500.0 0.0020924073702010535 0.0018153816006270874
210043000.0 0.00012429000686545443 0.00015518797878098082
225042500.0 0.00026548487199770513 -0.0003696013162134064
240042000.0 0.00026471430276786144 0.00039725245751131877
255041500.0 -5.937652706818494e-05 -0.00031883841246029855
270041000.0 -0.001663869083469571 -4.300233055931036e-05
285040500.0 0.0015485039204119224 0.0009299094946541064
300040000.0 0.004347506728196746 0.00174350998083021
315039500.0 0.01912906091195979 -0.014198984310535734
330039000.0 0.005009654712966519 -0.008573691649018837
345038500.0 -0.005763179960469661 -0.0026975842438505568
360038000.0 0.014534644049703433 -0.008981801174072209
375037500.0 0.00039569897036132156 0.001637429105500851
390037000.0 0.7270169167652509 -0.6276462442339702
405036500.0 0.02987086346010079 0.028455890248695433
420036000.0 -0.0017162417419388507 0.002048918275382451
435035500.0 -8.924593310274798e-07 0.0017277760007903904
450035000.0 0.021268874685077696 -0.028426690975036483
465034500.0 0.004439665033612835 -0.0021021663321023217
480034000.0 0.08309536910418032 -0.009646128532035026
495033500.0 -0.015505806107588407 0.0006481926678930286
510033000.0 -0.004840843648402574 0.004738982794326224
525032500.0 -0.02513748252648571 0.0022675700001350764
540032000.0 0.006038148367534661 0.0032002592012562547
555031500.0 0.009955638685360453 -0.000804426261714755
570031000.0 0.09922482266459061 0.011977470938380481
585030500.0 -0.014792685516637033 -0.011565919544411801
600030000.0 -8.973651437141556e-05 0.008645430677983148
615029500.0 0.00910642791679549 -1.626106912945116e-05
630029000.0 -0.01660092905668685 -0.02679815001323115
645028500.0 0.0007777223458630319 0.00179387025922213
660028000.0 -0.004812768079537906 -0.009912773797854971
675027500.0 0.014016311554752681 0.012704369627723137
690027000.0 -0.04760585729367569 0.014904498658105222
705026500.0 0.005695413286913698 0.01134352008126309
720026000.0 0.004888828606565663 0.000524313135070894
735025500.0 -0.0038588947819417894 -0.0010719703549410594
750025000.0 -0.0042287041746414174 -0.011250266164237402
765024500.0 -0.00038853018110136735 -0.001863543736785995
780024000.0 -0.007398753345233245 -0.007688627007187973
795023500.0 0.0040480593213451255 0.00010744072233597082
810023000.0 0.0029903008622596964 0.014515409674301101
825022500.0 -0.00044315173061022924 -0.0007344588564358671
840022000.0 -0.0017941076392650184 -0.004350660778966713
855021500.0 -0.004379877308707639 0.001802307799121964
870021000.0 -0.016709402807195635 -0.005537984722028356
885020500.0 0.0011508902586346418 -0.0022377390433658754
900020000.0 -4.0419885208147194e-05 0.003965883928147765
915019500.0 0.005777055655867333 -0.0026679102279739755
930019000.0 -0.015751687807365657 0.00842314444166218
945018500.0 -0.022132897031532824 -0.0016614932868717761
960018000.0 0.02771822260960933 -0.006618174294199793
975017500.0 -0.011568954897903152 0.006035486986597987
990017000.0 0.001274496136822806 0.0011152706701235144
1005016500.0 -0.0029556797381370893 -0.004629158086239629
1020016000.0 0.05155549221422665 -0.009259199820368345
1035015500.0 0.0049751452012241175 0.000724428821866777
1050015000.0 0.04787772388833039 -0.03875047502108229
1065014500.0 0.0013136250350850086 -0.003126516659658323
1080014000.0 -0.0015810575521303704 0.0034245586770007626
1095013500.0 0.02355200268908516 -0.018514054029685586
1110013000.0 -0.0016507274688350197 -0.0028104421166970355
1125012500.0 -0.009349322443158399 -0.0015917427366208365
1140012000.0 0.01208453473918908 0.005767218734851948
1155011500.0 0.10866859540755104 0.15573290448476854
1170011000.0 0.01312728317637338 -0.0004057147700339163
1185010500.0 0.005747525151058994 -0.0016660522207339386
1200010000.0 -0.01091505317211788 0.009761639314565886
1215009500.0 0.023399646207302637 -0.014728789830634857
1230009000.0 0.007027986823349734 0.020773470587752505
1245008500.0 -0.015175451053645378 -0.00377293325860398
1260008000.0 0.015464138198142999 -0.020432220477073767
1275007500.0 0.0025306650859770333 -0.006137643348635243
1290007000.0 -0.009209356854050757 -0.003246600987629097
1305006500.0 -0.027307456760959106 0.05508281969124152
1320006000.0 -0.010726423958389663 -0.00492389898638849
1335005500.0 0.06127164099327482 -0.06935247453290345
1350005000.0 0.022551954747704196 -0.04348556134731916
1365004500.0 0.05839028489284038 -0.0036335016450868007
1380004000.0 -0.007992749131093243 -0.009931558815192731
1395003500.0 0.0014104727267177381 0.0023103306371358248
1410003000.0 -0.006418642996060018 0.00256189043862103
1425002500.0 -0.0060958235457172025 -0.024802987593680343
1440002000.0 -0.008968713744093667 0.015549161323412755
1455001500.0 0.004021979194147778 0.006471077597350098
1470001000.0 -0.07304963562778197 0.07715414410678902
1485000500.0 -0.003885490056311427 0.0006875497331650485
1500000000.0 -0.02403083945522901 0.03226574169753333
