! Created with skrf 1.8.0 (http://scikit-rf.org).
# Hz S RI R 50.0 
!freq ReS11 ImS11 ReS21 ImS21 ReS12 ImS12 ReS22 ImS22
50000.0 0.0 0.0 -0.81697344 -0.012516048 0.0 0.0 0.0 0.0
15049500.0 0.0 0.0 -0.782576256 0.20128256 0.0 0.0 0.0 0.0
30049000.0 0.0 0.0 -0.71220928 0.375938048 0.0 0.0 0.0 0.0
45048500.0 0.0 0.0 -0.603419776 0.528605952 0.0 0.0 0.0 0.0
60048000.0 0.0 0.0 -0.465006592 0.650470272 0.0 0.0 0.0 0.0
75047500.0 0.0 0.0 -0.305155488 0.734920512 0.0 0.0 0.0 0.0
90047000.0 0.0 0.0 -0.123685816 0.780110592 0.0 0.0 0.0 0.0
105046500.0 0.0 0.0 0.055940936 0.786922816 0.0 0.0 0.0 0.0
120046000.0 0.0 0.0 0.22896416 0.752968512 0.0 0.0 0.0 0.0
135045500.0 0.0 0.0 0.389547968 0.681666048 0.0 0.0 0.0 0.0
150045000.0 0.0 0.0 0.530270144 0.576771648 0.0 0.0 0.0 0.0
165044500.0 0.0 0.0 0.6438288 0.444525184 0.0 0.0 0.0 0.0
180044000.0 0.0 0.0 0.725424512 0.291126496 0.0 0.0 0.0 0.0
195043500.0 0.0 0.0 0.771710976 0.123107416 0.0 0.0 0.0 0.0
210043000.0 0.0 0.0 0.778932544 -0.05156348 0.0 0.0 0.0 0.0
225042500.0 0.0 0.0 0.74646784 -0.223671232 0.0 0.0 0.0 0.0
240042000.0 0.0 0.0 0.674945472 -0.384424608 0.0 0.0 0.0 0.0
255041500.0 0.0 0.0 0.568800512 -0.524121472 0.0 0.0 0.0 0.0
270041000.0 0.0 0.0 0.43420832 -0.635767872 0.0 0.0 0.0 0.0
285040500.0 0.0 0.0 0.278776576 -0.714065472 0.0 0.0 0.0 0.0
300040000.0 0.0 0.0 0.126044792 -0.752062592 0.0 0.0 0.0 0.0
315039500.0 0.0 0.0 -0.045202548 -0.76026976 0.0 0.0 0.0 0.0
330039000.0 0.0 0.0 -0.212609808 -0.72996032 0.0 0.0 0.0 0.0
345038500.0 0.0 0.0 -0.367171136 -0.66422496 0.0 0.0 0.0 0.0
360038000.0 0.0 0.0 -0.503334336 -0.565676288 0.0 0.0 0.0 0.0
375037500.0 0.0 0.0 -0.615018048 -0.441328448 0.0 0.0 0.0 0.0
390037000.0 0.0 0.0 -0.695254912 -0.299426304 0.0 0.0 0.0 0.0
405036500.0 0.0 0.0 -0.737732032 -0.13522632 0.0 0.0 0.0 0.0
420036000.0 0.0 0.0 -0.7423008 0.029557512 0.0 0.0 0.0 0.0
435035500.0 0.0 0.0 -0.706195264 0.191864224 0.0 0.0 0.0 0.0
450035000.0 0.0 0.0 -0.633859008 0.345061504 0.0 0.0 0.0 0.0
465034500.0 0.0 0.0 -0.529622432 0.472375456 0.0 0.0 0.0 0.0
480034000.0 0.0 0.0 -0.40234256 0.57044768 0.0 0.0 0.0 0.0
495033500.0 0.0 0.0 -0.261495776 0.636432896 0.0 0.0 0.0 0.0
510033000.0 0.0 0.0 -0.115047104 0.670167872 0.0 0.0 0.0 0.0
525032500.0 0.0 0.0 0.034748756 0.673550656 0.0 0.0 0.0 0.0
540032000.0 0.0 0.0 0.178527344 0.646328896 0.0 0.0 0.0 0.0
555031500.0 0.0 0.0 0.312883392 0.590367488 0.0 0.0 0.0 0.0
570031000.0 0.0 0.0 0.434695776 0.508081152 0.0 0.0 0.0 0.0
585030500.0 0.0 0.0 0.532002272 0.400248448 0.0 0.0 0.0 0.0
600030000.0 0.0 0.0 0.610217536 0.283876192 0.0 0.0 0.0 0.0
615029500.0 0.0 0.0 0.65727008 0.141985056 0.0 0.0 0.0 0.0
630029000.0 0.0 0.0 0.670919424 -0.008419362 0.0 0.0 0.0 0.0
645028500.0 0.0 0.0 0.649216832 -0.158425552 0.0 0.0 0.0 0.0
660028000.0 0.0 0.0 0.59232544 -0.299399808 0.0 0.0 0.0 0.0
675027500.0 0.0 0.0 0.506387168 -0.422815424 0.0 0.0 0.0 0.0
690027000.0 0.0 0.0 0.396878144 -0.517773504 0.0 0.0 0.0 0.0
705026500.0 0.0 0.0 0.270635648 -0.584819392 0.0 0.0 0.0 0.0
720026000.0 0.0 0.0 0.1345064 -0.6224192 0.0 0.0 0.0 0.0
735025500.0 0.0 0.0 -0.004785734 -0.630862208 0.0 0.0 0.0 0.0
750025000.0 0.0 0.0 -0.140045296 -0.612673408 0.0 0.0 0.0 0.0
765024500.0 0.0 0.0 -0.262950992 -0.562498816 0.0 0.0 0.0 0.0
780024000.0 0.0 0.0 -0.37075392 -0.499302432 0.0 0.0 0.0 0.0
795023500.0 0.0 0.0 -0.471070208 -0.39657456 0.0 0.0 0.0 0.0
810023000.0 0.0 0.0 -0.5465552 -0.283394528 0.0 0.0 0.0 0.0
825022500.0 0.0 0.0 -0.595186112 -0.15306872 0.0 0.0 0.0 0.0
840022000.0 0.0 0.0 -0.61369248 -0.01586737 0.0 0.0 0.0 0.0
855021500.0 0.0 0.0 -0.600974336 0.121791808 0.0 0.0 0.0 0.0
870021000.0 0.0 0.0 -0.558344384 0.255016864 0.0 0.0 0.0 0.0
885020500.0 0.0 0.0 -0.486146016 0.372797728 0.0 0.0 0.0 0.0
900020000.0 0.0 0.0 -0.362258848 0.472073216 0.0 0.0 0.0 0.0
915019500.0 0.0 0.0 -0.248965232 0.541931712 0.0 0.0 0.0 0.0
930019000.0 0.0 0.0 -0.132940296 0.580466432 0.0 0.0 0.0 0.0
945018500.0 0.0 0.0 -0.008252686 0.596521152 0.0 0.0 0.0 0.0
960018000.0 0.0 0.0 0.119402632 0.587163776 0.0 0.0 0.0 0.0
975017500.0 0.0 0.0 0.240067472 0.55553504 0.0 0.0 0.0 0.0
990017000.0 0.0 0.0 0.35420592 0.49871968 0.0 0.0 0.0 0.0
1005016500.0 0.0 0.0 0.459076032 0.418969952 0.0 0.0 0.0 0.0
1020016000.0 0.0 0.0 0.550583488 0.318268448 0.0 0.0 0.0 0.0
1035015500.0 0.0 0.0 0.618229056 0.189537792 0.0 0.0 0.0 0.0
1050015000.0 0.0 0.0 0.66035744 0.041416904 0.0 0.0 0.0 0.0
1065014500.0 0.0 0.0 0.667768 -0.113097688 0.0 0.0 0.0 0.0
1080014000.0 0.0 0.0 0.628501248 -0.265813952 0.0 0.0 0.0 0.0
1095013500.0 0.0 0.0 0.56195104 -0.417117664 0.0 0.0 0.0 0.0
1110013000.0 0.0 0.0 0.449093824 -0.544689984 0.0 0.0 0.0 0.0
1125012500.0 0.0 0.0 0.31368496 -0.630988672 0.0 0.0 0.0 0.0
1140012000.0 0.0 0.0 0.16894376 -0.692327744 0.0 0.0 0.0 0.0
1155011500.0 0.0 0.0 0.017501458 -0.739467456 0.0 0.0 0.0 0.0
1170011000.0 0.0 0.0 -0.15770544 -0.728446848 0.0 0.0 0.0 0.0
1185010500.0 0.0 0.0 -0.31778336 -0.679203264 0.0 0.0 0.0 0.0
1200010000.0 0.0 0.0 -0.477491584 -0.611148416 0.0 0.0 0.0 0.0
1215009500.0 0.0 0.0 -0.613105408 -0.496978368 0.0 0.0 0.0 0.0
1230009000.0 0.0 0.0 -0.738652992 -0.366075584 0.0 0.0 0.0 0.0
1245008500.0 0.0 0.0 -0.817855936 -0.201939456 0.0 0.0 0.0 0.0
1260008000.0 0.0 0.0 -0.878347328 -0.035298208 0.0 0.0 0.0 0.0
1275007500.0 0.0 0.0 -0.885949248 0.170385616 0.0 0.0 0.0 0.0
1290007000.0 0.0 0.0 -0.8280368 0.358446144 0.0 0.0 0.0 0.0
1305006500.0 0.0 0.0 -0.7448752 0.554976 0.0 0.0 0.0 0.0
1320006000.0 0.0 0.0 -0.601821376 0.718609152 0.0 0.0 0.0 0.0
1335005500.0 0.0 0.0 -0.444104384 0.818467904 0.0 0.0 0.0 0.0
1350005000.0 0.0 0.0 -0.245866912 0.882906048 0.0 0.0 0.0 0.0
1365004500.0 0.0 0.0 -0.01554434 0.922447808 0.0 0.0 0.0 0.0
1380004000.0 0.0 0.0 0.109748224 0.942592768 0.0 0.0 0.0 0.0
1395003500.0 0.0 0.0 0.286614688 0.907070016 0.0 0.0 0.0 0.0
1410003000.0 0.0 0.0 0.456893312 0.856367296 0.0 0.0 0.0 0.0
1425002500.0 0.0 0.0 0.643875136 0.757349888 0.0 0.0 0.0 0.0
1440002000.0 0.0 0.0 0.777211008 0.632022208 0.0 0.0 0.0 0.0
1455001500.0 0.0 0.0 0.88503456 0.479910976 0.0 0.0 0.0 0.0
1470001000.0 0.0 0.0 0.9735296 0.321220544 0.0 0.0 0.0 0.0
1485000500.0 0.0 0.0 1.014951348 0.129925488 0.0 0.0 0.0 0.0
1500000000.0 0.0 0.0 1.03507018 -0.074240888 0.0 0.0 0.0 0.0
