! Created with skrf 1.8.0 (http://scikit-rf.org).
# Hz S RI R 50.0 
!freq ReS11 ImS11
50000.0 0.996298368 0.001406749
15049500.0 0.939787328 0.360944416
30049000.0 0.749682624 0.672631424
45048500.0 0.461746752 0.89236288
60048000.0 0.103318424 1.013659478
75047500.0 -0.273730816 0.988130112
90047000.0 -0.619318336 0.81988416
105046500.0 -0.891311168 0.546116928
120046000.0 -1.041798352 0.185164768
135045500.0 -1.046042084 -0.209868768
150045000.0 -0.914141248 -0.586039168
165044500.0 -0.648317952 -0.884556032
180044000.0 -0.314550432 -1.04472792
195043500.0 0.063984588 -1.101446512
210043000.0 0.435298816 -1.022051334
225042500.0 0.752416192 -0.82123744
240042000.0 0.995076736 -0.539563648
255041500.0 1.136913184 -0.187079504
270041000.0 1.151591296 0.222623856
285040500.0 1.022470712 0.632961472
300040000.0 0.686993536 0.957880768
315039500.0 0.316700096 1.192387456
330039000.0 -0.138003856 1.25488544
345038500.0 -0.597864896 1.141661648
360038000.0 -0.968858752 0.872767552
375037500.0 -1.256224032 0.475447904
390037000.0 -1.391951808 -0.009415636
405036500.0 -1.290923584 -0.52010096
420036000.0 -1.038009644 -0.966532992
435035500.0 -0.632991552 -1.268346784
450035000.0 -0.171283312 -1.395675168
465034500.0 0.30052352 -1.380075936
480034000.0 0.729061184 -1.215820912
495033500.0 1.072443488 -0.915332352
510033000.0 1.318061344 -0.527764864
525032500.0 1.408256416 -0.064879456
540032000.0 1.35981344 0.38597104
555031500.0 1.153224464 0.80128832
570031000.0 0.81157408 1.11667836
585030500.0 0.39193728 1.292360672
600030000.0 -0.05102812 1.34182416
615029500.0 -0.493229504 1.227898592
630029000.0 -0.8803104 0.96429888
645028500.0 -1.169327264 0.582438592
660028000.0 -1.31066096 0.103991448
675027500.0 -1.26547312 -0.394006816
690027000.0 -1.014679432 -0.865859264
705026500.0 -0.608370048 -1.168205376
720026000.0 -0.135159008 -1.270864736
735025500.0 0.3136992 -1.21490824
750025000.0 0.710953792 -1.000640273
765024500.0 1.002006054 -0.657343424
780024000.0 1.138553856 -0.218060496
795023500.0 1.101552368 0.212530128
810023000.0 0.865978048 0.550629824
825022500.0 0.55918464 0.73371552
840022000.0 0.280751328 0.77789088
855021500.0 0.055879096 0.759615488
870021000.0 -0.123613024 0.731439104
885020500.0 -0.295819936 0.723464448
900020000.0 -0.521327424 0.736497984
915019500.0 -0.502017376 0.738102528
930019000.0 -0.485197024 0.74075264
945018500.0 -0.470122848 0.741791552
960018000.0 -0.455788288 0.750612672
975017500.0 -0.437396416 0.751734336
990017000.0 -0.410985824 0.757736064
1005016500.0 -0.396805056 0.766963008
1020016000.0 -0.385497664 0.77346912
1035015500.0 -0.354269984 0.782480832
1050015000.0 -0.318220768 0.795022144
1065014500.0 -0.30515184 0.790019072
1080014000.0 -0.271226432 0.793705152
1095013500.0 -0.253244224 0.801631552
1110013000.0 -0.225759392 0.794491264
1125012500.0 -0.221985104 0.77851968
1140012000.0 -0.181239984 0.797829696
1155011500.0 -0.1432096 0.816423936
1170011000.0 -0.120800752 0.789648896
1185010500.0 -0.107340168 0.812625152
1200010000.0 -0.077344912 0.810819136
1215009500.0 -0.043698992 0.815385408
1230009000.0 -0.01731312 0.812416064
1245008500.0 0.026011034 0.814693312
1260008000.0 0.045098748 0.821544064
1275007500.0 0.083885016 0.798768768
1290007000.0 0.11094084 0.82007456
1305006500.0 0.146140224 0.810486848
1320006000.0 0.182638592 0.779422144
1335005500.0 0.209824752 0.791769728
1350005000.0 0.243223104 0.77332
1365004500.0 0.285501952 0.784547456
1380004000.0 0.294782624 0.737209664
1395003500.0 0.317164384 0.729474368
1410003000.0 0.341000896 0.710305024
1425002500.0 0.366527456 0.708155072
1440002000.0 0.401721568 0.681977728
1455001500.0 0.419919008 0.68023936
1470001000.0 0.442229696 0.656787584
1485000500.0 0.47738064 0.602897088
1500000000.0 0.470525376 0.59316064
