! Created with skrf 1.8.0 (http://scikit-rf.org).
# Hz S RI R 50.0 
!freq ReS11 ImS11
50000.0 1.8014889988798508 0.33119700688942644
15049500.0 -2.3874079597642948 -0.7124027912260232
30049000.0 -1.8114788446402654 -1.0361984662274975
45048500.0 0.06460563910682159 0.6796610377752429
60048000.0 1.2161858400611656 -1.1866732914389866
75047500.0 -0.7739975974456097 -0.5130050009708996
90047000.0 -0.9206647801037489 0.9163558793170562
105046500.0 -1.5617837825275784 1.4522414724551505
120046000.0 1.7471276075328162 0.3811525491527056
135045500.0 -34.08597614841516 -36.03905386461545
150045000.0 -3.1966248968959126 1.0014123692524317
165044500.0 6.6293943852106345 -3.6062410776826996
180044000.0 3.347825846262982 0.21325459686702425
195043500.0 -0.04327223814554561 -1.3126850769379297
210043000.0 -0.9566615550250572 1.0846314833675286
225042500.0 -3.845354318979773 -3.399192451290732
240042000.0 0.4066944761485939 -1.418965151660815
255041500.0 -0.19896940557364864 0.6107260207972793
270041000.0 0.34459435828028967 5.079676852160277
285040500.0 1.2183424338362911 1.3125829872739199
300040000.0 -0.44226696503389745 -0.056027552361708526
315039500.0 0.8225487946771489 1.6531356803011894
330039000.0 0.22121596302398142 -0.2839007019036404
345038500.0 0.8248391017714797 0.559101247680524
360038000.0 2.5116787282521913 1.4995513258275583
375037500.0 -0.4322075365152957 0.20869314305189196
390037000.0 -1.4731133746218543 -2.3524461388970934
405036500.0 2.1355335152300534 2.9072855420320245
420036000.0 -2.651397304277328 0.856279253615586
435035500.0 -3.453826298073622 -0.9154264260766192
450035000.0 -1.0173144366142177 0.7747138265983203
465034500.0 1.5319673301941714 1.490095144120985
480034000.0 2.345491565931943 -1.832806111116525
495033500.0 -1.5758090437889034 0.5656119272579092
510033000.0 -2.768826757554985 -2.241133070020599
525032500.0 -1.4379485925502917 -0.9053155530757363
540032000.0 3.3943822016097784 -2.4763021474235485
555031500.0 0.41600622457881603 0.4436986258037549
570031000.0 -1.1684928757128508 -0.6792628584993902
585030500.0 0.14720152087192 -1.3431565859504002
600030000.0 0.008668825519027697 0.31125286880150754
615029500.0 -2.382746815332278 1.0523641253048928
630029000.0 2.6526356130736257 -1.982428118404487
645028500.0 -0.2353073080218859 -0.9721243875038197
660028000.0 1.1055579984861348 -0.10367950580496331
675027500.0 -0.5912537677688223 -1.484485330525036
690027000.0 0.14917242504673026 -0.20325378521404405
705026500.0 -0.08793503287312616 0.9152536268143242
720026000.0 0.3831685966690061 -0.16196724130925447
735025500.0 -0.4186724024325436 -1.3700781958175152
750025000.0 -1.023521729445086 1.1516304331972624
765024500.0 -1.215608449026013 -4.393107008191542
780024000.0 0.9247506503490243 0.023580956168209682
795023500.0 1.1448952099782175 -0.9161036131515944
810023000.0 -1.6191540104274165 0.2706155619498724
825022500.0 2.6430275582510965 -12.899343264314888
840022000.0 -1.957673267435874 -0.5056409716733994
855021500.0 2.926002056721855 -0.5941253306854702
870021000.0 0.7625582102104804 2.0147442725084805
885020500.0 4.634854070693691 2.655657570491866
900020000.0 3.287936855322253 2.6201689344001076
915019500.0 -1.6079093613693494 0.35765556392474807
930019000.0 0.19600936450447126 -0.018242376270373353
945018500.0 -0.003222934661596869 0.437981179283147
960018000.0 -0.8169704885560015 0.6044059602744134
975017500.0 -3.2107426905267333 -2.9965448382790676
990017000.0 -0.8075143210614835 0.5271296643131252
1005016500.0 0.16415607502363125 2.950971107840121
1020016000.0 0.6558495496963559 -0.17231481720201747
1035015500.0 -0.5771789154036797 2.433517097014188
1050015000.0 -0.07922552543477245 0.5003442614419953
1065014500.0 0.3294715655608091 -1.7528009120396764
1080014000.0 -1.701825439112721 -0.6813969371141715
1095013500.0 -9.80761505997583 24.09888155530654
1110013000.0 -0.239184133578474 1.3744460528060842
1125012500.0 -0.2712216690123167 0.04920484497411856
1140012000.0 0.8602866526959976 -0.4270277151751707
1155011500.0 0.4458488670404694 2.256363540854305
1170011000.0 0.5422558569973338 -0.89947185816549
1185010500.0 2.195157413644532 0.8410958605611104
1200010000.0 0.25398175451871935 -0.6226426706006362
1215009500.0 -0.9549731350180726 0.10268095465440563
1230009000.0 -1.2182376960633186 -0.055527165156069286
1245008500.0 -1.6827945299911433 0.5684719177130594
1260008000.0 7.5834737218837915 -1.1377976443593367
1275007500.0 -1.3439968348412321 3.2860921207427936
1290007000.0 2.1424373918268427 -4.4027042034076835
1305006500.0 -16.638504457114326 -2.207487718438203
1320006000.0 -3.26741846386399 0.2113616410268662
1335005500.0 0.1437887040922119 -0.8647693590998053
1350005000.0 0.32549576991586404 -0.7350782924502656
1365004500.0 0.3436393552051375 0.052498075614253785
1380004000.0 -0.38075743025441844 1.1318898550661853
1395003500.0 0.040864767928916336 -0.1727349252863465
1410003000.0 0.5019085655634119 0.2295480014584321
1425002500.0 0.7685654348133327 -0.7214029076309093
1440002000.0 0.21129064494799008 -0.09964507871282931
1455001500.0 -3.689707750783736 -2.5793811581223047
1470001000.0 -4.972069594637295 2.49456952412048
1485000500.0 -3.0153947908676 -5.9050407631738855
1500000000.0 4.439926170152289 -0.3210532012765023
