! Created with skrf 1.8.0 (http://scikit-rf.org).
# Hz S RI R 50.0 
!freq ReS11 ImS11
50000.0 -0.000482790371600423 0.0001224012145834315
15049500.0 -0.0002508148131939257 -0.0008536913323371209
30049000.0 0.00030561153524917193 0.00028983044244167106
45048500.0 -0.00021082557195082976 0.00017632887992205567
60048000.0 0.00037550767775434133 -2.021999154788698e-05
75047500.0 0.00010427975175366893 0.0001958774595219451
90047000.0 -0.0001961007265629668 0.0001352096053050078
105046500.0 -0.0003201725251653661 -0.0007539610817164066
120046000.0 5.469252863832852e-05 0.00032271279261834293
135045500.0 0.026921462475624373 0.10449254654588218
150045000.0 -0.0018509775339466 -1.7059645377611748e-05
165044500.0 -0.0034997196089115164 0.0010950949185830824
180044000.0 -0.0011608735568310693 -0.0011266891123263864
195043500.0 -0.0005441209048688123 0.0008188856470720285
210043000.0 9.087381982882807e-05 0.0007250492254602091
225042500.0 4.4463544098113885e-05 -0.00165033437651074
240042000.0 0.00012666536269537952 0.0009122682443541788
255041500.0 0.00020041198217568378 0.00034397417481609285
270041000.0 0.00340275620407718 0.003307218764213216
285040500.0 0.002131996600291431 0.0006061404445465389
300040000.0 -0.00030327676539387176 -0.00032211714051119417
315039500.0 -0.0014646940328282181 -0.005781379172783426
330039000.0 -0.000616487919664471 0.0028395496254530242
345038500.0 -0.0012244218600499538 -0.0002387988378448034
360038000.0 -0.00903728819986825 0.0023730527602564074
375037500.0 -0.0024573606843337516 3.854344837128888e-05
390037000.0 0.05422930422608115 0.03895561391727985
405036500.0 0.0032837061485086 -0.011339044835185535
420036000.0 0.007993684071408038 -0.0016896714674825375
435035500.0 0.015775721971265328 -0.01658239974435879
450035000.0 -0.0005531717357066646 -0.0152158845722733
465034500.0 -0.002238568528344696 -0.007262233401367787
480034000.0 -0.003188828248779368 -0.006148940049258676
495033500.0 0.000969679483094537 -0.002369134207149144
510033000.0 0.0005221990746790814 0.008498092674300909
525032500.0 0.001858631151164269 -0.0015275948669925274
540032000.0 -0.005271116921370455 0.00593177742555333
555031500.0 -0.001284412661600023 -0.0018099097719745992
570031000.0 0.001900516719338898 -0.002979740537705882
585030500.0 0.012789316355224881 0.0019590227510455495
600030000.0 -0.0025210561883699306 -0.002779826330886075
615029500.0 -0.011532849324140526 -0.0002613200893958321
630029000.0 0.003826979694926116 0.012504517679534406
645028500.0 0.0026382333418105064 -0.002826132114580033
660028000.0 -0.0006387591054056455 -9.508543070930896e-05
675027500.0 -0.008549363305259409 0.0035353906322974256
690027000.0 -0.0012413685651690046 -0.004431350706572917
705026500.0 -0.004752385170598309 -0.001392118158498344
720026000.0 -0.00538040778209038 0.00052971319853358
735025500.0 -0.009516380033192561 0.005688155258217048
750025000.0 0.0006362416248125958 0.00964080760466078
765024500.0 -0.015055186406166984 -0.00010471968106119404
780024000.0 -0.0004023420032968788 -0.0034598670500225973
795023500.0 -0.0015302770722158219 0.0047465692035692396
810023000.0 0.001830918438536252 0.004158701261486153
825022500.0 -0.055518988628104886 -0.012194257197094821
840022000.0 -0.00758560286397851 -0.0005746166477064311
855021500.0 -0.0031024051556524045 -0.006634754247603338
870021000.0 0.014846109677081032 0.009164908250280402
885020500.0 -0.0077292841823997285 0.022675144849625635
900020000.0 0.04138192143552123 -0.0035259344695334534
915019500.0 -0.003498904930605662 0.005821654864754059
930019000.0 0.0009032064810008382 -0.00377475146191163
945018500.0 0.00445541756587795 -0.0019556692876253057
960018000.0 -0.0006906927590532029 -0.0002208610528270126
975017500.0 0.03832207344361931 0.03448198357248623
990017000.0 0.002945732091592931 0.005864381908596568
1005016500.0 0.009785899072203978 -0.005718860209987947
1020016000.0 0.004881502953365177 0.004430013020524459
1035015500.0 -0.024039584120103156 -0.007959105125546496
1050015000.0 -0.011934600572472734 0.024008398866033148
1065014500.0 0.007878968731927801 0.0021014022703683428
1080014000.0 -0.01147831143013964 -0.006572381159582165
1095013500.0 -0.20195836879203907 -0.06017866333216277
1110013000.0 0.009094066223197113 0.00942301446024906
1125012500.0 -0.00435784872561409 -0.0015085078259329007
1140012000.0 0.001604582779528292 -0.0024797972124048556
1155011500.0 -0.05407174382058193 0.09129385336337287
1170011000.0 -0.029774351964714337 -0.02230602942969018
1185010500.0 -0.011031702160833715 0.01094923299150718
1200010000.0 -0.0024267349319779287 -0.006599462947665782
1215009500.0 -0.0008250083267652354 -0.0005019322374641474
1230009000.0 0.0016221131637045635 0.0017755369172092364
1245008500.0 -0.004384621534158383 0.0002790858462514082
1260008000.0 -0.009339199442102653 0.09257998942587435
1275007500.0 0.022133338803723413 0.030401075378402417
1290007000.0 0.07244806664256784 0.03626321068846639
1305006500.0 0.001600394497950534 -0.13460022195043891
1320006000.0 -0.016309061281894972 0.055318047943254504
1335005500.0 0.010665482206184497 -0.008289202964778947
1350005000.0 0.0011986925609908453 -0.01474578698289315
1365004500.0 -0.024976723189839452 0.00801738126960004
1380004000.0 0.010831691805747697 0.02111410909238649
1395003500.0 0.0034942130290116454 -0.012277153662656212
1410003000.0 0.002649115631364537 0.001526765585727081
1425002500.0 0.022653829432079102 -0.0017606494979165892
1440002000.0 -0.009721618056056468 -0.008484372093386804
1455001500.0 -0.003097125063110045 -0.034955373802774276
1470001000.0 -0.022786425322747182 -0.0003815697038391311
1485000500.0 -0.19080548560491162 -0.10561497808589618
1500000000.0 -0.0812296793910021 -0.10998593780186057
