! Created with skrf 1.8.0 (http://scikit-rf.org).
# Hz S RI R 50.0 
!freq ReS11 ImS11 ReS21 ImS21 ReS12 ImS12 ReS22 ImS22
50000.0 0.0 0.0 -6.7215e-05 6.8816e-05 0.0 0.0 0.0 0.0
15049500.0 0.0 0.0 -2.8772e-05 -1.669e-05 0.0 0.0 0.0 0.0
30049000.0 0.0 0.0 -4.575e-05 -1.2016e-05 0.0 0.0 0.0 0.0
45048500.0 0.0 0.0 -4.5655e-05 1.651e-06 0.0 0.0 0.0 0.0
60048000.0 0.0 0.0 -2.611e-05 9.25e-06 0.0 0.0 0.0 0.0
75047500.0 0.0 0.0 -2.2997e-05 1.2768e-05 0.0 0.0 0.0 0.0
90047000.0 0.0 0.0 -6.5673e-05 1.7519e-05 0.0 0.0 0.0 0.0
105046500.0 0.0 0.0 -6.8344e-05 -1.4892e-05 0.0 0.0 0.0 0.0
120046000.0 0.0 0.0 -3.3521e-05 2.0043e-05 0.0 0.0 0.0 0.0
135045500.0 0.0 0.0 -6.2001e-05 2.9871e-05 0.0 0.0 0.0 0.0
150045000.0 0.0 0.0 -6.4305e-05 5.3602e-05 0.0 0.0 0.0 0.0
165044500.0 0.0 0.0 3.0824e-05 1.265e-05 0.0 0.0 0.0 0.0
180044000.0 0.0 0.0 -1.3729e-05 9.127e-06 0.0 0.0 0.0 0.0
195043500.0 0.0 0.0 -2.0794e-05 8.176e-06 0.0 0.0 0.0 0.0
210043000.0 0.0 0.0 -1.4269e-05 2.6379e-05 0.0 0.0 0.0 0.0
225042500.0 0.0 0.0 2.0017e-05 3.3598e-05 0.0 0.0 0.0 0.0
240042000.0 0.0 0.0 -8.886e-06 4.6131e-05 0.0 0.0 0.0 0.0
255041500.0 0.0 0.0 2.7907e-05 3.996e-06 0.0 0.0 0.0 0.0
270041000.0 0.0 0.0 4.5401e-05 1.3591e-05 0.0 0.0 0.0 0.0
285040500.0 0.0 0.0 -1.0475e-05 -1.3582e-05 0.0 0.0 0.0 0.0
300040000.0 0.0 0.0 0.000354039 -0.000266571 0.0 0.0 0.0 0.0
315039500.0 0.0 0.0 0.000113953 6.2881e-05 0.0 0.0 0.0 0.0
330039000.0 0.0 0.0 -0.000130389 -6.334e-05 0.0 0.0 0.0 0.0
345038500.0 0.0 0.0 -0.000438323 -7.8785e-05 0.0 0.0 0.0 0.0
360038000.0 0.0 0.0 -0.00019231 -5.1062e-05 0.0 0.0 0.0 0.0
375037500.0 0.0 0.0 0.000303387 -9.0869e-05 0.0 0.0 0.0 0.0
390037000.0 0.0 0.0 0.000329676 -7.8447e-05 0.0 0.0 0.0 0.0
405036500.0 0.0 0.0 0.000327974 0.000384258 0.0 0.0 0.0 0.0
420036000.0 0.0 0.0 0.000200805 0.000271794 0.0 0.0 0.0 0.0
435035500.0 0.0 0.0 0.000383937 0.000374655 0.0 0.0 0.0 0.0
450035000.0 0.0 0.0 0.000336427 0.000286256 0.0 0.0 0.0 0.0
465034500.0 0.0 0.0 -6.5744e-05 -0.000147432 0.0 0.0 0.0 0.0
480034000.0 0.0 0.0 0.000174192 -0.000212895 0.0 0.0 0.0 0.0
495033500.0 0.0 0.0 -3.6663e-05 1.3354e-05 0.0 0.0 0.0 0.0
510033000.0 0.0 0.0 0.000395145 0.000171894 0.0 0.0 0.0 0.0
525032500.0 0.0 0.0 6.6497e-05 -0.000786396 0.0 0.0 0.0 0.0
540032000.0 0.0 0.0 0.000183487 -9.7858e-05 0.0 0.0 0.0 0.0
555031500.0 0.0 0.0 -4.724e-05 -0.000383963 0.0 0.0 0.0 0.0
570031000.0 0.0 0.0 0.000173732 -0.000930563 0.0 0.0 0.0 0.0
585030500.0 0.0 0.0 -4.0916e-05 -0.000396335 0.0 0.0 0.0 0.0
600030000.0 0.0 0.0 -0.0002873 -0.000690047 0.0 0.0 0.0 0.0
615029500.0 0.0 0.0 -0.000151604 -0.000690536 0.0 0.0 0.0 0.0
630029000.0 0.0 0.0 -4.534e-05 -0.000125775 0.0 0.0 0.0 0.0
645028500.0 0.0 0.0 -0.000416055 -0.000674378 0.0 0.0 0.0 0.0
660028000.0 0.0 0.0 0.000128922 -0.000676538 0.0 0.0 0.0 0.0
675027500.0 0.0 0.0 0.000394662 -0.000329626 0.0 0.0 0.0 0.0
690027000.0 0.0 0.0 3.4952e-05 -0.000842622 0.0 0.0 0.0 0.0
705026500.0 0.0 0.0 3.2469e-05 -0.000354249 0.0 0.0 0.0 0.0
720026000.0 0.0 0.0 -9.3985e-05 -0.000332598 0.0 0.0 0.0 0.0
735025500.0 0.0 0.0 -0.000186295 -0.000319054 0.0 0.0 0.0 0.0
750025000.0 0.0 0.0 2.3125e-05 -0.000757447 0.0 0.0 0.0 0.0
765024500.0 0.0 0.0 -0.000350863 -0.001016418 0.0 0.0 0.0 0.0
780024000.0 0.0 0.0 0.000123952 -0.000729234 0.0 0.0 0.0 0.0
795023500.0 0.0 0.0 -0.000121295 -0.000756168 0.0 0.0 0.0 0.0
810023000.0 0.0 0.0 -0.00035885 -0.000940612 0.0 0.0 0.0 0.0
825022500.0 0.0 0.0 -0.00028436 -0.000546864 0.0 0.0 0.0 0.0
840022000.0 0.0 0.0 0.000313413 -0.000207202 0.0 0.0 0.0 0.0
855021500.0 0.0 0.0 0.000207873 -0.000715291 0.0 0.0 0.0 0.0
870021000.0 0.0 0.0 -0.000153936 -0.00046846 0.0 0.0 0.0 0.0
885020500.0 0.0 0.0 0.000152113 -0.000234597 0.0 0.0 0.0 0.0
900020000.0 0.0 0.0 -0.000310193 -0.000872881 0.0 0.0 0.0 0.0
915019500.0 0.0 0.0 -8.1553e-05 0.001421168 0.0 0.0 0.0 0.0
930019000.0 0.0 0.0 0.000896784 0.000465865 0.0 0.0 0.0 0.0
945018500.0 0.0 0.0 0.000306274 -2.075e-06 0.0 0.0 0.0 0.0
960018000.0 0.0 0.0 -0.001395018 -0.000595058 0.0 0.0 0.0 0.0
975017500.0 0.0 0.0 0.00235509 -0.001514765 0.0 0.0 0.0 0.0
990017000.0 0.0 0.0 8.5021e-05 -0.000363711 0.0 0.0 0.0 0.0
1005016500.0 0.0 0.0 0.00225203 0.000437111 0.0 0.0 0.0 0.0
1020016000.0 0.0 0.0 0.001702278 -0.001388916 0.0 0.0 0.0 0.0
1035015500.0 0.0 0.0 -0.001205179 -0.001217409 0.0 0.0 0.0 0.0
1050015000.0 0.0 0.0 0.001394403 -0.000754975 0.0 0.0 0.0 0.0
1065014500.0 0.0 0.0 0.00217199 -0.003413579 0.0 0.0 0.0 0.0
1080014000.0 0.0 0.0 -0.000266294 -0.001099536 0.0 0.0 0.0 0.0
1095013500.0 0.0 0.0 -0.001074304 -0.002095166 0.0 0.0 0.0 0.0
1110013000.0 0.0 0.0 -0.001026248 -0.000399693 0.0 0.0 0.0 0.0
1125012500.0 0.0 0.0 -0.001647734 -0.001492942 0.0 0.0 0.0 0.0
1140012000.0 0.0 0.0 -0.001509477 -0.003212649 0.0 0.0 0.0 0.0
1155011500.0 0.0 0.0 0.000344092 -0.003142541 0.0 0.0 0.0 0.0
1170011000.0 0.0 0.0 0.002142051 0.001427517 0.0 0.0 0.0 0.0
1185010500.0 0.0 0.0 -8.99e-05 0.00523088 0.0 0.0 0.0 0.0
1200010000.0 0.0 0.0 -0.00154779 -0.002444773 0.0 0.0 0.0 0.0
1215009500.0 0.0 0.0 -0.001365792 0.002614023 0.0 0.0 0.0 0.0
1230009000.0 0.0 0.0 -0.004930252 -0.001469422 0.0 0.0 0.0 0.0
1245008500.0 0.0 0.0 -0.000888932 0.001273402 0.0 0.0 0.0 0.0
1260008000.0 0.0 0.0 -0.001339217 0.003384125 0.0 0.0 0.0 0.0
1275007500.0 0.0 0.0 -0.002003951 0.0072343 0.0 0.0 0.0 0.0
1290007000.0 0.0 0.0 -0.000622091 0.003500628 0.0 0.0 0.0 0.0
1305006500.0 0.0 0.0 0.001921458 0.002133333 0.0 0.0 0.0 0.0
1320006000.0 0.0 0.0 0.002702784 0.006783174 0.0 0.0 0.0 0.0
1335005500.0 0.0 0.0 -0.003936438 0.004383872 0.0 0.0 0.0 0.0
1350005000.0 0.0 0.0 0.000228545 -0.002732729 0.0 0.0 0.0 0.0
1365004500.0 0.0 0.0 0.00462891 0.001106822 0.0 0.0 0.0 0.0
1380004000.0 0.0 0.0 -0.003817158 0.002537098 0.0 0.0 0.0 0.0
1395003500.0 0.0 0.0 0.008450164 0.003439637 0.0 0.0 0.0 0.0
1410003000.0 0.0 0.0 0.00322259 0.018811482 0.0 0.0 0.0 0.0
1425002500.0 0.0 0.0 0.017631436 0.0067326 0.0 0.0 0.0 0.0
1440002000.0 0.0 0.0 -0.002627649 0.007760984 0.0 0.0 0.0 0.0
1455001500.0 0.0 0.0 0.016853006 -0.006746087 0.0 0.0 0.0 0.0
1470001000.0 0.0 0.0 0.002070079 -0.01044018 0.0 0.0 0.0 0.0
1485000500.0 0.0 0.0 0.01786555 2.754e-06 0.0 0.0 0.0 0.0
1500000000.0 0.0 0.0 0.006221166 0.004777156 0.0 0.0 0.0 0.0
