! Created with skrf 1.8.0 (http://scikit-rf.org).
# Hz S RI R 50.0 
!freq ReS11 ImS11
50000.0 -3.5863531322963627 -1.9564433289473042
15049500.0 -0.9341290782121 -2.9497218828939613
30049000.0 0.15451114661998472 -0.019039245453136962
45048500.0 1.7139787795398098 -0.818689305986203
60048000.0 5.69436974261236 1.74786528294063
75047500.0 -0.8452218065998 -0.8847754449175238
90047000.0 -3.076028274037516 0.11330964070592925
105046500.0 -3.4972057473641867 -0.8362492007092899
120046000.0 -2.4121286987214257 0.6595656505577867
135045500.0 2.1670008799822758 1.5051134263811186
150045000.0 -0.8872147043746457 -1.2400561215783312
165044500.0 1.049028944147052 1.4807685746567096
180044000.0 3.2936663124659544 0.2391129059685341
195043500.0 0.270289075819289 0.9376503309196565
210043000.0 -2.0099049557708355 0.7852801753907893
225042500.0 -2.853625162076899 -0.878004019310638
240042000.0 4.681449964937365 1.7745712591292677
255041500.0 1.3553657042617264 0.8553647421774245
270041000.0 -20.101269887291817 9.419507121369769
285040500.0 0.5691291829049139 1.1569561772113852
300040000.0 2.0798243778109007 -2.5021787267693365
315039500.0 -0.5610575520503829 0.7170435930153558
330039000.0 -1.485997574672976 1.4750016287892942
345038500.0 0.15160978023429453 2.3289334230583965
360038000.0 1.7183636843456676 1.4513364894767393
375037500.0 -1.8262493347113073 -3.1603321558587574
390037000.0 -2.7281517435026004 4.3238191171735725
405036500.0 -1.161339612692748 -0.33052791355710087
420036000.0 1.7889454146732648 3.5294190378264294
435035500.0 0.93619373017469 0.36346007000792174
450035000.0 1.9491717619946398 -2.7120204573725455
465034500.0 0.4355320376201109 -0.6964727877855292
480034000.0 -1.0872709652450847 -3.3571069928126507
495033500.0 0.45795973766875997 0.4156414943550766
510033000.0 -1.098537272632609 -0.46005787395254305
525032500.0 -7.7187507609182 -7.885507138060505
540032000.0 -0.2950115804033016 0.03640772399133665
555031500.0 -0.18870548012375937 0.649557655352623
570031000.0 1.2377268145135094 -4.917108417468656
585030500.0 -0.8263560813577429 3.197269019047268
600030000.0 -1.161780714409693 0.3843482216838217
615029500.0 1.7622268091445137 -0.7796208414557745
630029000.0 -0.8650894920799194 -1.5423855293696553
645028500.0 0.9796677435658526 2.1614096550583652
660028000.0 -1.1971998644491153 -0.786860064363043
675027500.0 -1.7946357621793372 1.462463229338092
690027000.0 -0.5926153667022271 0.16437255890532396
705026500.0 -1.8041385041631808 1.603400791438982
720026000.0 -2.00442806726563 -1.2593753627960107
735025500.0 0.4677974727347565 -1.9126505986928786
750025000.0 3.5600952868932625 -4.323591543210407
765024500.0 1.7035058060976498 -0.7097021457005015
780024000.0 0.4491575417380889 0.2567393749116602
795023500.0 -0.45786501002083635 -1.4664219517535362
810023000.0 -0.6805687407463258 0.9174062053352597
825022500.0 -0.4871795102797785 0.8238567130931417
840022000.0 1.80663005113563 -0.17324354937558822
855021500.0 1.7447015036631972 0.8525353515823638
870021000.0 -0.774731930800103 3.1755994568577455
885020500.0 1.9385792072161456 0.5811346465486023
900020000.0 1.3465048461601854 0.3685817410570843
915019500.0 -2.0575638995140757 -3.114020068751031
930019000.0 -2.9080714724663626 3.4269553116819744
945018500.0 -0.5438921788208179 -0.2703279104532313
960018000.0 1.130700315315961 -0.2109168697114356
975017500.0 -1.8926206717845575 -0.9332669401076343
990017000.0 -0.5013560802392081 1.545442133297315
1005016500.0 0.8682286771934457 -0.6194053321352949
1020016000.0 -4.602951747453354 4.09681388728904
1035015500.0 -1.1219466830649718 -0.4784526650447772
1050015000.0 -1.6422132310639848 -1.3436754961216637
1065014500.0 -0.3584126454217865 0.03436008608290917
1080014000.0 -1.1730165909344452 -2.615293119633655
1095013500.0 0.9094984975695732 0.4005932554790941
1110013000.0 3.2131686676106015 6.096880039188909
1125012500.0 -1.108548503492912 -0.9108104666954563
1140012000.0 -0.12309927755744172 2.344575378605567
1155011500.0 -2.268431982425343 2.4471006268564004
1170011000.0 2.14296119493328 1.0199090253172016
1185010500.0 -0.914936974609755 -0.7209074747260986
1200010000.0 -0.5950593703292781 0.26654182555813444
1215009500.0 3.079325022144666 4.030905232024967
1230009000.0 0.6406911579558783 0.7228531978811886
1245008500.0 3.1515616421008454 -2.4770935035209156
1260008000.0 -1.3465765070067532 -0.0982259094603895
1275007500.0 0.23584020307525994 -1.7167737406491956
1290007000.0 1.4902951457302824 -3.3734803302080967
1305006500.0 1.5801582202808757 -1.2237633055209698
1320006000.0 1.6813367498825416 -1.25587161139588
1335005500.0 -0.7360720723669358 4.513319149237285
1350005000.0 -0.22117214121711457 -0.3063411912046909
1365004500.0 1.0640883096217182 3.181676893441243
1380004000.0 -0.9308150849971595 0.9998396710424947
1395003500.0 -0.470012930311198 0.48013154066951647
1410003000.0 -3.0414188126320316 -2.4694823087162643
1425002500.0 -0.7723128827186125 -1.8792964116635542
1440002000.0 0.28506282456262005 -0.4026797941025558
1455001500.0 0.4195873670968739 1.0727197565985296
1470001000.0 3.6156702792449282 -2.7162055431289978
1485000500.0 0.682784625125509 -0.8292288912394801
1500000000.0 -0.24680224408690235 1.474943596826873
