! Created with skrf 1.8.0 (http://scikit-rf.org).
# Hz S RI R 50.0 
!freq ReS11 ImS11
50000.0 -0.0004640053643364356 -0.00010585514536618982
15049500.0 -0.0001643565770110912 0.00022711889942441437
30049000.0 -2.801101810096951e-05 2.5025065036944487e-05
45048500.0 -5.327358172837554e-05 4.819357826492345e-05
60048000.0 0.0005964911720035251 0.0004284266306928752
75047500.0 -9.013915439240919e-05 -0.0001308295713698171
90047000.0 -8.843651534068579e-05 -0.0004962659530064646
105046500.0 -0.0003397227399137798 -0.0002715284157435511
120046000.0 -1.5500659042657138e-05 0.00022173082351258517
135045500.0 -0.0001540504107113608 -0.00010887512258912475
150045000.0 -3.2917212315134275e-05 -0.000172618997225139
165044500.0 6.840233001746386e-05 7.177767959464284e-05
180044000.0 0.0002940346283557188 -1.955822670943907e-06
195043500.0 -3.858623707100664e-05 -0.00010913296732881519
210043000.0 0.0001080939668155258 5.475913177071697e-05
225042500.0 -0.0001593139036929554 0.00011637952643184634
240042000.0 -0.00022750768331013485 -0.0007016924862879907
255041500.0 -2.5616923883078485e-06 5.475703892528822e-05
270041000.0 -0.0027412770160570106 -0.0009162660701593665
285040500.0 -0.00010674010411776893 -4.5321942968548326e-05
300040000.0 0.0011743643548939064 -0.0020944650057311055
315039500.0 0.0008601921725980579 1.823762526278405e-05
330039000.0 -0.000668819518147402 0.0019957329161860425
345038500.0 -0.002085799343522585 0.0006601023842040121
360038000.0 0.00019109267279855305 0.00201687532943137
375037500.0 -0.0022808447629782415 0.001267976831682111
390037000.0 0.007746851250123115 0.008288179179460326
405036500.0 -0.0003277293822801285 -0.0002543378264886154
420036000.0 0.001338823547545367 -0.002924177031442076
435035500.0 0.00036984248691427995 -0.00018452584641066134
450035000.0 -0.0010828858441861158 0.0022382524080971134
465034500.0 -0.00039660751317754 0.0010220633932187726
480034000.0 -0.0038008110929759103 -0.0006466534548810503
495033500.0 0.0004043752315561884 0.0003020717653845642
510033000.0 -0.00013733042059286158 -0.0004787480024153459
525032500.0 -0.0202191981858503 0.0003540011496860394
540032000.0 0.0006050735032710857 0.0004005612257658444
555031500.0 0.0003981074141992015 -0.00043770391106357805
570031000.0 -0.005096135896935062 -0.01091435061188931
585030500.0 0.006542845021385299 -0.002975401989505182
600030000.0 -0.00013711713398171867 0.0004918461547623973
615029500.0 -0.0016529354773589537 0.0007839751882854527
630029000.0 0.0017821645203660475 0.0011315891975462841
645028500.0 0.0014803369191311872 -0.0003873282111306997
660028000.0 0.000887945901933512 -0.0011625809659980618
675027500.0 -0.0012403504391870158 0.0046538429661110835
690027000.0 0.0004619828986684773 -4.721088827829619e-05
705026500.0 -0.0008241618083956045 -0.0007081413663065082
720026000.0 0.0027084658689095014 -0.002227781745150299
735025500.0 -0.0003618616542721927 -0.0029829000611792003
750025000.0 -0.011936657745168859 0.00045571894614710384
765024500.0 0.001285751423089915 -0.0008016054321364252
780024000.0 -0.0017462346787078188 0.0031474864611534255
795023500.0 0.000542584823501949 -0.0024851536555843302
810023000.0 -0.0011856035590576213 0.0011458187694954722
825022500.0 0.0010407849169872447 0.0005466015034482377
840022000.0 -0.0005118492586531535 0.0013291300500391959
855021500.0 -0.001346466621266752 -0.0014014522992894338
870021000.0 -0.0024862765151216853 0.0008813254880937527
885020500.0 0.0029623644113732934 0.0025684179089252007
900020000.0 0.002272375266647702 -0.0009995289068817186
915019500.0 -0.014807291400454874 -0.019909085715799375
930019000.0 -0.015542492774628767 -0.009305508515313532
945018500.0 -0.0007377298748592007 -0.005336272957249236
960018000.0 0.0020865913708697378 -0.00015711587326822787
975017500.0 0.008199924953348307 0.002295363652651205
990017000.0 -0.01616032134411046 0.011073881146060496
1005016500.0 -0.003233762943982266 -0.0036829973756120843
1020016000.0 -0.006090632902000994 0.037581269359058415
1035015500.0 -0.0051804859474577185 -0.00014379303963027557
1050015000.0 0.005754912019710868 -0.007018426127199147
1065014500.0 0.004060277345284115 0.0024326196228201618
1080014000.0 0.004037411095181785 0.011003042101335805
1095013500.0 0.0024129879904345648 0.0036455574913755824
1110013000.0 0.027062993876705282 0.017338479686068307
1125012500.0 -0.0037617478792442306 0.008015032409667564
1140012000.0 0.0009070444648414406 -0.018652085310556933
1155011500.0 -0.005936687813181075 0.020944005806392257
1170011000.0 -0.005118922543627221 0.015839693395533226
1185010500.0 0.008842333039191139 0.012354997173688816
1200010000.0 2.6588404869387148e-05 -0.006244156309318803
1215009500.0 0.014460066421745448 0.06834601498602318
1230009000.0 -0.009215594161087418 -0.010034124425703266
1245008500.0 -0.06263913903393246 -0.05647869653785547
1260008000.0 0.005918582422668877 -0.0029597196299661253
1275007500.0 0.020316867856289316 -0.02744363446675178
1290007000.0 -0.03693527258192697 0.004297260527817524
1305006500.0 0.007022599425129323 -0.010996818327822936
1320006000.0 0.04428239518792768 0.0178766812991982
1335005500.0 0.1826431812045272 -0.013256855127124934
1350005000.0 0.004793619666875417 -0.006287826632974758
1365004500.0 -0.1139164438100238 0.03488750170352938
1380004000.0 0.0269679427165615 0.0072220148241750794
1395003500.0 0.008709369695813195 0.01572463081435735
1410003000.0 -0.04823564095208934 -0.1432624375522967
1425002500.0 -0.02521566761509345 0.03987775902553011
1440002000.0 0.02774299347322615 0.00730750747325744
1455001500.0 -0.010017130021569667 -0.03960849706073431
1470001000.0 -0.024069304148150734 0.04100277794312901
1485000500.0 0.015927175933924894 -0.0026790454845029505
1500000000.0 -0.04250660940994316 -0.015503232507972635
