! Created with skrf 1.8.0 (http://scikit-rf.org).
# Hz S RI R 50.0 
!freq ReS11 ImS11
50000.0 -0.006270981 -0.004414124
15049500.0 -0.004161219 0.003509281
30049000.0 -0.007443949 0.004823676
45048500.0 -0.01306019 0.004487337
60048000.0 -0.019574878 0.001795619
75047500.0 -0.026262834 -0.003172172
90047000.0 -0.032298408 -0.00976155
105046500.0 -0.036422016 -0.01754044
120046000.0 -0.03800132 -0.025302272
135045500.0 -0.036442592 -0.031903594
150045000.0 -0.033550836 -0.03716972
165044500.0 -0.028520236 -0.03969026
180044000.0 -0.023551584 -0.037073568
195043500.0 -0.019139714 -0.0329599
210043000.0 -0.016305206 -0.026281174
225042500.0 -0.016304064 -0.017941656
240042000.0 -0.019620998 -0.009688374
255041500.0 -0.025863618 -0.003292891
270041000.0 -0.033974716 -0.001043878
285040500.0 -0.04267624 -0.003173412
300040000.0 -0.047032948 -0.010316356
315039500.0 -0.052339292 -0.020965794
330039000.0 -0.049163932 -0.035677456
345038500.0 -0.038740028 -0.051979624
360038000.0 -0.01989253 -0.066236616
375037500.0 0.005741577 -0.076499528
390037000.0 0.038938172 -0.079012944
405036500.0 0.076629472 -0.072194
420036000.0 0.114306448 -0.056299576
435035500.0 0.148921584 -0.02892339
450035000.0 0.174903024 0.006962213
465034500.0 0.193015136 0.051248436
480034000.0 0.196757904 0.096930208
495033500.0 0.18705512 0.140978016
510033000.0 0.164270912 0.178060528
525032500.0 0.129571096 0.202901248
540032000.0 0.085685232 0.21125928
555031500.0 0.05069898 0.20310016
570031000.0 0.020537168 0.178300992
585030500.0 -0.000952455 0.143149584
600030000.0 -0.010433562 0.104436488
615029500.0 -0.003742722 0.055724488
630029000.0 0.01898566 0.010130432
645028500.0 0.054747964 -0.025246822
660028000.0 0.101075272 -0.046169468
675027500.0 0.148627632 -0.056203392
690027000.0 0.194852448 -0.0502779
705026500.0 0.231098288 -0.024603332
720026000.0 0.25907728 0.015851516
735025500.0 0.270465344 0.067471576
750025000.0 0.25957256 0.126406136
765024500.0 0.221650208 0.18423712
780024000.0 0.155027776 0.229627424
795023500.0 0.066765672 0.230051904
810023000.0 -0.01497534 0.195379488
825022500.0 -0.082057832 0.141696208
840022000.0 -0.124895488 0.066924648
855021500.0 -0.14830064 -0.014694478
870021000.0 -0.163092528 -0.102439432
885020500.0 -0.166166656 -0.20815272
900020000.0 -0.157095648 -0.331659552
915019500.0 -0.1959296 -0.349130592
930019000.0 -0.249758272 -0.357088384
945018500.0 -0.295599136 -0.326401632
960018000.0 -0.345381888 -0.28177632
975017500.0 -0.369496384 -0.225337296
990017000.0 -0.370522048 -0.159054496
1005016500.0 -0.34686944 -0.09754364
1020016000.0 -0.303737376 -0.046130152
1035015500.0 -0.264477664 -0.010679342
1050015000.0 -0.209045744 0.009715336
1065014500.0 -0.144062064 0.004725264
1080014000.0 -0.0996194 -0.01244365
1095013500.0 -0.0652116 -0.031802032
1110013000.0 -0.030146304 -0.07565348
1125012500.0 -0.0255052 -0.117522072
1140012000.0 -0.037142204 -0.150056416
1155011500.0 -0.059464972 -0.184222736
1170011000.0 -0.0889048 -0.191148208
1185010500.0 -0.119418592 -0.176421568
1200010000.0 -0.13644528 -0.161436112
1215009500.0 -0.152096128 -0.116498224
1230009000.0 -0.1377752 -0.093786472
1245008500.0 -0.119001432 -0.050603932
1260008000.0 -0.072561304 -0.049769228
1275007500.0 -0.049846684 -0.033009618
1290007000.0 -0.011329998 -0.052251744
1305006500.0 0.01490583 -0.054712828
1320006000.0 0.040104788 -0.104593872
1335005500.0 0.021144736 -0.14195272
1350005000.0 -0.02882505 -0.16881888
1365004500.0 -0.02705831 -0.174769024
1380004000.0 -0.066297548 -0.144294032
1395003500.0 -0.115612296 -0.132401336
1410003000.0 -0.130153608 -0.053797268
1425002500.0 -0.125319984 -0.033926832
1440002000.0 -0.086925184 0.050324724
1455001500.0 -0.079889448 0.11754192
1470001000.0 -0.000489949 0.128957616
1485000500.0 0.059399444 0.130297752
1500000000.0 0.142531008 0.13536432
