! Created with skrf 1.8.0 (http://scikit-rf.org).
# Hz S RI R 50.0 
!freq ReS11 ImS11
50000.0 -0.9040756716280097 0.2438197598932666
15049500.0 -3.497723609931369 -1.240032650171223
30049000.0 2.135846122593313 -0.1352691985312383
45048500.0 -3.12390324209475 0.14976295123904362
60048000.0 4.195590114448536 -2.8597500702063083
75047500.0 2.5663750899457596 -1.2787196339667084
90047000.0 1.8625175178059152 0.4559820613727846
105046500.0 -6.802232504275746 -0.13257756692156036
120046000.0 1.5706642665654285 -1.3210395441186802
135045500.0 -1.7053845699894978 0.571737123393897
150045000.0 -1.4144682868703569 -6.900677539372006
165044500.0 -0.7442807075245643 -2.1805194663275045
180044000.0 -0.07115200834823387 1.136212142010768
195043500.0 2.7295959737595283 0.7500073068467763
210043000.0 -4.378499402300517 3.55663967758781
225042500.0 -1.8702552516341957 -0.7004518624986087
240042000.0 -8.290054546595737 2.7024935721616323
255041500.0 -1.0581743230879568 -1.1397253759721802
270041000.0 1.77197179642347 -0.5792659664328521
285040500.0 1.5867616406305614 0.6113894681286912
300040000.0 -0.7470162399008239 -1.9367134891247968
315039500.0 0.32217396278834215 0.07606077586110442
330039000.0 1.8090355459280656 0.09878742951937208
345038500.0 -1.3547146881689485 1.5504912485491975
360038000.0 -0.6470602255682592 -0.559600130506987
375037500.0 -0.7458550600168784 -2.1648222720646904
390037000.0 -1.9806451638567035 0.4314907840592855
405036500.0 -0.3821165374679288 -1.0307222419586246
420036000.0 -1.4870709143253618 0.33245812593954854
435035500.0 1.9059743251399648 -4.387871824018495
450035000.0 0.7812195539094122 -0.4595809134014607
465034500.0 0.26686317336736126 -0.28475771996208565
480034000.0 2.1389415396254257 0.7959273659281861
495033500.0 -0.9248785264286067 -1.6104430321281866
510033000.0 0.12324250995968929 -0.6812993113263381
525032500.0 0.26481878015695876 3.8035928946089075
540032000.0 0.6207605806830969 -1.44970805873943
555031500.0 0.7829091414094693 1.9917351263308536
570031000.0 -6.9298108972581725 -0.6634914367820303
585030500.0 0.2518808641964768 -1.1134139361825464
600030000.0 -0.7342252560769443 -1.9712190052948444
615029500.0 -4.619200096701778 12.330259174975266
630029000.0 0.2809065458591932 0.12229318299981691
645028500.0 -0.49583262997779487 0.8397465211580998
660028000.0 -3.2558570975510115 -1.2003705730374836
675027500.0 7.175388588825235 1.3343323631366453
690027000.0 -0.07212168476853727 0.3397219934215184
705026500.0 -5.723678812131122 0.2215224476137777
720026000.0 13.323261663826353 3.245119092791505
735025500.0 0.268287324840317 0.840233109875541
750025000.0 0.48268329071929467 -2.1549027970739494
765024500.0 -1.531158255345667 -0.7238890734493002
780024000.0 0.5981355995750386 -1.5265401265027851
795023500.0 -0.9619615233248312 2.2965058440787676
810023000.0 1.5422585248104828 -3.4502051863608116
825022500.0 0.5309714399033095 -0.28327674175131884
840022000.0 -2.083200448231199 -1.0655889427094982
855021500.0 0.12607089854375403 -1.2793785940676226
870021000.0 -0.6697820457252467 0.12727109132520914
885020500.0 -0.2511918307045048 1.76370764767537
900020000.0 -2.214617978716516 0.12886868169792662
915019500.0 -0.7963205986386149 -5.005850494265784
930019000.0 -20.518307922459858 15.320367530314268
945018500.0 -0.25237169120769226 0.9110321811626367
960018000.0 14.974015569091481 4.384777465195342
975017500.0 -1.1015632826493822 1.3720942748914577
990017000.0 -0.8588363835557979 -0.45901391170556893
1005016500.0 1.196825024323601 0.09429615516111067
1020016000.0 -1.9718468168819614 1.1077364310186293
1035015500.0 1.0081711093467696 -0.315451862297544
1050015000.0 -0.0011488239087523735 1.8489456516507052
1065014500.0 -2.093351433846876 -0.294930135262518
1080014000.0 -0.7891465989406142 -2.853974662613076
1095013500.0 -1.5227362973995178 0.18781306986063817
1110013000.0 0.6158020048654499 2.2752721979299704
1125012500.0 -0.5907455890822766 -0.4322171280438266
1140012000.0 -0.7430591616928829 8.292762033215267
1155011500.0 -0.8657646401260787 1.86274147914861
1170011000.0 -0.13212877758032696 -5.1890258976223045
1185010500.0 -0.1375654040177188 2.7258761757796806
1200010000.0 -0.5300144043291196 -2.0356622670407596
1215009500.0 1.3319575681694966 -0.47039480379879894
1230009000.0 0.28250777663450155 -0.4888309389825359
1245008500.0 0.5553623148742012 0.8921088591091266
1260008000.0 -1.6080273236017029 -0.6224005249573984
1275007500.0 2.6688287809235614 2.0189103738176577
1290007000.0 -0.1753275410623798 -0.07299104738931757
1305006500.0 1.0301245630948836 2.819629317447403
1320006000.0 1.1921964863593497 -1.8176682557863981
1335005500.0 -2.065854765398232 -0.20809641872256035
1350005000.0 1.312535962226241 0.9689045481291492
1365004500.0 0.08991286914401904 1.3105325758550836
1380004000.0 -1.3884145313196579 0.6425548492225571
1395003500.0 -1.8417370738533567 -1.4634314432621358
1410003000.0 -1.2999592937934592 5.124591084860263
1425002500.0 0.8149524843196961 0.2554114996533849
1440002000.0 -0.1636962082032628 -1.4650605438327944
1455001500.0 0.5006872678108634 -0.9988032147211457
1470001000.0 0.8060728129324399 -1.4367270303391555
1485000500.0 1.2604285098871657 -0.14037905888031507
1500000000.0 -0.3561606209074592 -0.4389640061174858
