! Created with skrf 1.8.0 (http://scikit-rf.org).
# Hz S RI R 50.0 
!freq ReS11 ImS11
50000.0 -6.763511817189058e-05 5.005291447829585e-05
15049500.0 -2.7965579552873907e-05 -0.00019657569817952835
30049000.0 4.88928104493335e-05 7.083763351392232e-05
45048500.0 0.00017316832596468587 -0.0002246772614794728
60048000.0 0.00045077622993519313 0.00046106609775651403
75047500.0 0.00011102270454962855 -0.0002958766104679635
90047000.0 6.360299499042223e-05 4.393866927434884e-05
105046500.0 0.0007585127434753975 -0.00016044877233927635
120046000.0 -0.0002121179984180146 0.0001146530807911301
135045500.0 -0.00016964684976799942 0.0001363238022678518
150045000.0 7.469264563472244e-05 -0.0006349902005141447
165044500.0 0.0003195379117783733 -7.27589711873723e-06
180044000.0 0.00018543400840032276 -2.4730442494070392e-05
195043500.0 -0.0003231978822898467 0.00010214358787693749
210043000.0 0.00039058500363209006 0.0006245139032502074
225042500.0 3.558242438290198e-05 0.0001129781169761889
240042000.0 0.0008589156821897532 -0.0003714598764143836
255041500.0 6.118721968206717e-05 0.00012484038422434256
270041000.0 -3.64806739211507e-05 4.039851040845326e-05
285040500.0 -0.00010475228495495707 -3.9925258273944476e-05
300040000.0 0.0002396937380825725 -0.0010242998455869696
315039500.0 -0.000363301000172722 0.0002397540772106042
330039000.0 0.0002192020743376135 0.00036386256673814427
345038500.0 0.0016987391008548651 0.0007849623998226611
360038000.0 -2.74226927024132e-05 -0.001009724841866915
375037500.0 0.0009526051925678838 0.0010893453341009835
390037000.0 -0.000761805234628561 -0.000498826672403471
405036500.0 0.0006928109205811467 -0.00012087589452766602
420036000.0 5.862242331655138e-05 0.0003497650736631888
435035500.0 -0.00014297744342193892 0.0025418828419172686
450035000.0 -7.191495426432511e-05 -0.0004026605405489505
465034500.0 -0.0004901519675021496 -5.015381094158399e-05
480034000.0 -0.0018000556231672574 0.0005137250233595768
495033500.0 0.002668578361527603 -0.001253624563726066
510033000.0 0.0003757196142810498 0.0007663232366725761
525032500.0 -0.00472305847422087 -0.0011583547129781972
540032000.0 0.0006753102349980267 0.0019951688473836627
555031500.0 -0.002599152806990173 6.331113452663021e-05
570031000.0 -0.001373914281475234 0.011538125305176863
585030500.0 0.0006023108569004555 0.0016944344194279662
600030000.0 0.002614926693300871 0.00228666473591945
615029500.0 -0.018133868666024504 -0.01446599683663886
630029000.0 0.0005104186004754315 -0.0007521342619217515
645028500.0 0.0017058570033220808 -0.0001089965999606683
660028000.0 -6.564000609653723e-05 -0.00435708294312623
675027500.0 0.0052512185135827685 0.0009146459814560719
690027000.0 0.0007106959898451679 -0.0003261431952963743
705026500.0 -0.0018583552236959805 -0.0057779904663288265
720026000.0 0.01686780648386314 0.000740622266256359
735025500.0 -0.000532411409002116 -0.0012769259934500982
750025000.0 0.002217697058214525 0.0014211372180304386
765024500.0 6.999581395524973e-05 0.0005515325977222862
780024000.0 0.012508022662193006 -0.008385555565169634
795023500.0 0.002816125292699357 0.0027749451405365503
810023000.0 0.0005972346444525199 -0.00643098324080185
825022500.0 -0.0005005444844948886 -0.0004430244932265979
840022000.0 -0.0008111632432672526 -0.0017783033325001263
855021500.0 0.0004672003470689475 -0.0005775651862802876
870021000.0 0.0001070506839880397 0.0006951541767523306
885020500.0 -0.0020579916912765103 0.0037787004562849624
900020000.0 -0.001475820585852295 -0.008050365376562995
915019500.0 0.025222631720094788 -0.023057240549344264
930019000.0 0.03599618011043326 0.11605604834432097
945018500.0 -0.0007954939496323404 0.016133318745759188
960018000.0 0.06289470200322379 0.0849517302514724
975017500.0 0.016144699927312187 -0.005191481329999613
990017000.0 -0.004047721435633114 0.00010981656522255316
1005016500.0 0.002000786887965251 -0.0006382584522393824
1020016000.0 0.00382383133916938 0.015688981282344982
1035015500.0 -0.00019170583921916995 0.0036251546181266074
1050015000.0 -0.009160420352180365 -0.0071113775881761826
1065014500.0 -0.005534834189208741 0.008625277483386594
1080014000.0 -0.024129852823808414 0.009572137367035494
1095013500.0 0.0005530071480345887 -0.002996264928797895
1110013000.0 0.010320417697580101 0.0074296080220549576
1125012500.0 0.0009573753837827448 -0.00347022960368722
1140012000.0 -0.055451667917491114 -0.06363883759320807
1155011500.0 0.009884031280346197 -0.02360970134237465
1170011000.0 -0.03878802236470494 -0.04037162694249712
1185010500.0 -0.035773056736335164 0.008929058703361793
1200010000.0 -0.03737689152540185 -0.0026347897835317393
1215009500.0 0.005581785928409693 0.00566708826154189
1230009000.0 -0.0037787295591305784 -0.0036532319119018638
1245008500.0 -0.011915882210099508 -0.006849489520859361
1260008000.0 -0.017860283304235784 -0.010206560232070148
1275007500.0 -0.03308518225046812 0.007107579532306647
1290007000.0 0.007250465851957196 0.007064581027312012
1305006500.0 -0.06586372160017545 0.008280967410892778
1320006000.0 0.013931230915126802 -0.025149816870590404
1335005500.0 0.0014984318233496855 0.024627262557398
1350005000.0 -0.003398026432889454 -0.029460827500878847
1365004500.0 -0.02080439023629605 0.0016942548380496812
1380004000.0 -0.012311023483347266 -0.011518357553241914
1395003500.0 0.007151904854117214 0.028878171696445437
1410003000.0 -0.24287207294339608 0.060061572663532965
1425002500.0 0.01028121627401881 0.008442859818545681
1440002000.0 0.02050357877148495 -0.030389107762927994
1455001500.0 0.0360512562796597 0.003168667915080909
1470001000.0 -0.020538772748945645 -0.03748153153224316
1485000500.0 0.00023861752459805735 -0.008596440251800551
1500000000.0 -0.007690184075859605 -0.009114841164509785
