! Created with skrf 1.8.0 (http://scikit-rf.org).
# Hz S RI R 50.0 
!freq ReS11 ImS11
50000.0 0.997053504 -8.3531e-05
15049500.0 0.992455552 0.164557936
30049000.0 0.952705024 0.323017312
45048500.0 0.886283648 0.465340544
60048000.0 0.802762176 0.615540608
75047500.0 0.69256736 0.737315392
90047000.0 0.568003968 0.828087744
105046500.0 0.436093696 0.917711104
120046000.0 0.284641344 0.978527936
135045500.0 0.125606464 1.008648992
150045000.0 -0.038049744 1.029104948
165044500.0 -0.206028016 1.013157488
180044000.0 -0.358724896 0.968562304
195043500.0 -0.515508704 0.905195264
210043000.0 -0.657562752 0.815251776
225042500.0 -0.779092224 0.70146656
240042000.0 -0.893281856 0.584155648
255041500.0 -0.993889856 0.448939072
270041000.0 -1.081516624 0.280971232
285040500.0 -1.15351832 0.089824472
300040000.0 -1.131823184 -0.145307504
315039500.0 -1.151169776 -0.349781952
330039000.0 -1.106735352 -0.560123136
345038500.0 -1.020111918 -0.75802016
360038000.0 -0.912407744 -0.929036928
375037500.0 -0.775960896 -1.1036948
390037000.0 -0.604349504 -1.246469856
405036500.0 -0.4001264 -1.343809472
420036000.0 -0.19193384 -1.40475072
435035500.0 0.006714531 -1.41289152
450035000.0 0.177686032 -1.378096704
465034500.0 0.344337504 -1.336594464
480034000.0 0.48858432 -1.26673496
495033500.0 0.62331776 -1.16035008
510033000.0 0.752893824 -1.052728056
525032500.0 0.860676352 -0.911996224
540032000.0 0.91784288 -0.77557408
555031500.0 0.9873056 -0.647494144
570031000.0 1.042420744 -0.511683808
585030500.0 1.07950592 -0.371446368
600030000.0 1.124450328 -0.212261088
615029500.0 1.135663504 -0.057653304
630029000.0 1.115937472 0.095584456
645028500.0 1.091390256 0.236960624
660028000.0 1.05451548 0.363008544
675027500.0 1.022558332 0.472733152
690027000.0 0.99112032 0.593774528
705026500.0 0.954551296 0.723345664
720026000.0 0.897590912 0.870072
735025500.0 0.815134912 1.039327504
750025000.0 0.674097472 1.202874176
765024500.0 0.462800736 1.321434848
780024000.0 0.185153984 1.396561856
795023500.0 -0.082583328 1.32876432
810023000.0 -0.298005248 1.16890096
825022500.0 -0.43693824 1.00417316
840022000.0 -0.5161072 0.850599872
855021500.0 -0.564573376 0.730523072
870021000.0 -0.621359616 0.658831104
885020500.0 -0.689151808 0.62588416
900020000.0 -0.802459264 0.625272256
915019500.0 -0.610000768 0.672676224
930019000.0 -0.424055264 0.681107072
945018500.0 -0.261569536 0.677260096
960018000.0 -0.110664384 0.644612096
975017500.0 0.024428182 0.608722624
990017000.0 0.15198464 0.551678848
1005016500.0 0.278261984 0.486505824
1020016000.0 0.386658464 0.401777536
1035015500.0 0.491316448 0.308593952
1050015000.0 0.601460608 0.197472768
1065014500.0 0.674835712 0.066531232
1080014000.0 0.75074144 -0.086121336
1095013500.0 0.799912384 -0.246409984
1110013000.0 0.82832928 -0.450498304
1125012500.0 0.807843584 -0.641540672
1140012000.0 0.74841824 -0.885961024
1155011500.0 0.6234128 -1.094345208
1170011000.0 0.346077408 -1.377644192
1185010500.0 0.00990997 -1.495257152
1200010000.0 -0.358882336 -1.514451616
1215009500.0 -0.817881792 -1.384875168
1230009000.0 -1.082481024 -1.034978032
1245008500.0 -1.260452992 -0.65320544
1260008000.0 -1.317344896 -0.237343984
1275007500.0 -1.219138976 0.14807616
1290007000.0 -0.990497664 0.38870208
1305006500.0 -0.782992 0.601695744
1320006000.0 -0.549869504 0.683958656
1335005500.0 -0.307382496 0.7402096
1350005000.0 -0.12820724 0.769638784
1365004500.0 0.065369428 0.785875008
1380004000.0 0.228498064 0.747217984
1395003500.0 0.368311904 0.711232064
1410003000.0 0.517407968 0.632835072
1425002500.0 0.643380352 0.57348256
1440002000.0 0.726647936 0.510027872
1455001500.0 0.803000896 0.39420096
1470001000.0 0.90506656 0.310087968
1485000500.0 0.95369632 0.216317408
1500000000.0 0.981682304 0.067730008
