! Created with skrf 1.8.0 (http://scikit-rf.org).
# Hz S RI R 50.0 
!freq ReS11 ImS11
50000.0 -0.006309241 -0.004392736
15049500.0 -0.004178196 0.003470256
30049000.0 -0.007479069 0.004757128
45048500.0 -0.013016278 0.00443445
60048000.0 -0.01958151 0.001645402
75047500.0 -0.026397902 -0.003093543
90047000.0 -0.03237709 -0.009770896
105046500.0 -0.036325176 -0.01756265
120046000.0 -0.037869724 -0.02519855
135045500.0 -0.036512812 -0.031868044
150045000.0 -0.033629444 -0.037208048
165044500.0 -0.028450788 -0.039781248
180044000.0 -0.0234586 -0.036998024
195043500.0 -0.019003982 -0.033077814
210043000.0 -0.016308102 -0.026166976
225042500.0 -0.016283298 -0.017907362
240042000.0 -0.019525032 -0.009700442
255041500.0 -0.02581516 -0.003259069
270041000.0 -0.03391936 -0.001054672
285040500.0 -0.042556652 -0.003229976
300040000.0 -0.047263 -0.010647638
315039500.0 -0.052907804 -0.020675878
330039000.0 -0.049485004 -0.036088
345038500.0 -0.038389912 -0.051415728
360038000.0 -0.020094188 -0.066781148
375037500.0 0.006261503 -0.076520264
390037000.0 0.038711564 -0.079213104
405036500.0 0.07690968 -0.072490424
420036000.0 0.114311136 -0.056158316
435035500.0 0.149483648 -0.029006856
450035000.0 0.174128016 0.006749755
465034500.0 0.19241112 0.051414632
480034000.0 0.197608 0.09588508
495033500.0 0.187550112 0.139912608
510033000.0 0.164961584 0.178397872
525032500.0 0.129633304 0.201647488
540032000.0 0.087087392 0.211160256
555031500.0 0.050527 0.201813936
570031000.0 0.02048601 0.179760304
585030500.0 0.000346446 0.143481376
600030000.0 -0.009121786 0.104264
615029500.0 -0.003326234 0.054064004
630029000.0 0.019848396 0.009231206
645028500.0 0.055646192 -0.024815432
660028000.0 0.100793504 -0.04711378
675027500.0 0.14778464 -0.056169356
690027000.0 0.195542448 -0.050363464
705026500.0 0.23085048 -0.025470846
720026000.0 0.257782464 0.016132384
735025500.0 0.271015808 0.06635856
750025000.0 0.260429712 0.125582768
765024500.0 0.221733376 0.184431232
780024000.0 0.151907824 0.220612384
795023500.0 0.066672772 0.231357536
810023000.0 -0.0168209 0.195496448
825022500.0 -0.083257792 0.141476384
840022000.0 -0.125308576 0.066490644
855021500.0 -0.148438368 -0.015153736
870021000.0 -0.163060336 -0.102020664
885020500.0 -0.168142528 -0.207917872
900020000.0 -0.157453776 -0.334178208
915019500.0 -0.198408384 -0.35505872
930019000.0 -0.251196384 -0.352718912
945018500.0 -0.30214272 -0.31827952
960018000.0 -0.351215872 -0.286024992
975017500.0 -0.362979328 -0.223552656
990017000.0 -0.372560704 -0.158492
1005016500.0 -0.353873568 -0.090945288
1020016000.0 -0.304335392 -0.041073856
1035015500.0 -0.252977696 -0.010369506
1050015000.0 -0.208146016 0.004273758
1065014500.0 -0.14557176 0.007657531
1080014000.0 -0.101016624 -0.004864741
1095013500.0 -0.064905664 -0.03296696
1110013000.0 -0.03257646 -0.070707224
1125012500.0 -0.025496718 -0.119705888
1140012000.0 -0.0311389 -0.158005008
1155011500.0 -0.050484812 -0.187911296
1170011000.0 -0.097888248 -0.185633184
1185010500.0 -0.126872776 -0.186434288
1200010000.0 -0.146090928 -0.150324784
1215009500.0 -0.14964384 -0.130094976
1230009000.0 -0.143741392 -0.094813344
1245008500.0 -0.118183928 -0.064368368
1260008000.0 -0.07992412 -0.051925624
1275007500.0 -0.0438907 -0.044474052
1290007000.0 -0.00481296 -0.046645736
1305006500.0 0.012218802 -0.078100536
1320006000.0 0.025620016 -0.110726624
1335005500.0 0.02217397 -0.133989824
1350005000.0 -0.000259659 -0.163111728
1365004500.0 -0.035367904 -0.184873264
1380004000.0 -0.06989428 -0.150084256
1395003500.0 -0.109486776 -0.125393688
1410003000.0 -0.15761328 -0.088866592
1425002500.0 -0.127872216 0.008175816
1440002000.0 -0.0928276 0.031641402
1455001500.0 -0.062915056 0.089933152
1470001000.0 -0.028006348 0.139539024
1485000500.0 0.044902548 0.155492304
1500000000.0 0.13542904 0.130942032
