! Created with skrf 1.8.0 (http://scikit-rf.org).
# Hz S RI R 50.0 
!freq ReS11 ImS11
50000.0 -0.004311050684738026 0.0005196013804167931
10049500.0 -0.0036205368535181704 -0.00016741795348941627
20049000.0 -0.0032325130837159034 9.619894640511415e-05
30048500.0 -0.0027722647871165156 6.781495381459532e-05
40048000.0 -0.0018735324610870885 -0.000494804991886969
50047500.0 -0.0007343017319396996 -0.0017430747258826455
60047000.0 0.0009828975632925133 -0.0026291401235057766
70046500.0 0.003202164449077066 -0.0038510523031659947
80046000.0 0.0054402896109381855 -0.004746369369128271
90045500.0 0.007926155864702371 -0.006278950541576944
100045000.0 0.010454859620777933 -0.00725016930034438
110044500.0 0.011802381496515673 -0.008246051381220596
120044000.0 0.012701547401669296 -0.009556632236668165
130043500.0 0.01361250436143925 -0.01003580934723378
140043000.0 0.014442723289825482 -0.011665535606223142
150042500.0 0.015157660477809469 -0.011834274221641534
160042000.0 0.015217586876963644 -0.01128496961265319
170041500.0 0.014647046907175552 -0.009955783628629167
180041000.0 0.015159654764007165 -0.0013914138494952298
190040500.0 0.013222933383927628 0.0025080811207492896
200040000.0 0.012130012663267976 0.006821435563806129
210039500.0 0.010784550892204845 0.011622811946714058
220039000.0 0.009186681663529789 0.017369130099584868
230038500.0 0.007510027435109153 0.023789318781844485
240038000.0 0.007082808931274523 0.030320774813828125
250037500.0 0.007330648427992167 0.03765174651978707
260037000.0 0.007500433033374387 0.04405227938605222
270036500.0 0.007936736713870924 0.04887398073949934
280036000.0 0.011122291154473142 0.055369935555079915
290035500.0 0.012586622090830875 0.061455471809650275
300035000.0 0.007918076774762892 0.06976132189348133
310034500.0 0.011820928615052838 0.07946636910749526
320034000.0 0.014320471488814308 0.08510024057212473
330033500.0 0.018472157026956693 0.0910912219051631
340033000.0 0.023991423157445322 0.09652945789134539
350032500.0 0.029506475987780743 0.10154012361024563
360032000.0 0.04032513356315484 0.10365622837834695
370031500.0 0.047676969406696475 0.10263862378301558
380031000.0 0.05540372636784021 0.10173926868729286
390030500.0 0.05854157883152417 0.10082029068355276
400030000.0 0.06435834588106387 0.09672940345018184
410029500.0 0.06518346850522506 0.09330857809572349
420029000.0 0.064221710607822 0.08580046867356107
430028500.0 0.061162159954973094 0.07697730453064482
440028000.0 0.05612712170635556 0.06551128872662004
450027500.0 0.05073242398325444 0.05105518538889863
460027000.0 0.04559044774584476 0.0371802516878812
470026500.0 0.03539485370323665 0.025307741396762746
480026000.0 0.025936735242910344 0.007754974375139187
490025500.0 0.013538845229422045 -0.0023521909367453585
500025000.0 0.0009411959839972513 -0.013969155372539465
510024500.0 -0.009222827602285428 -0.019190724776386173
520024000.0 -0.019650089736568767 -0.024079620065965507
530023500.0 -0.032562472055200076 -0.02147537786270273
540023000.0 -0.043739437232333124 -0.0493491502686889
550022500.0 -0.05042049662406648 -0.04308312400839604
560022000.0 -0.056513846023366794 -0.030076419214579063
570021500.0 -0.06462268166772166 -0.018578230695227207
580021000.0 -0.06994363165452436 -0.004322223580775313
590020500.0 -0.06985682095033448 0.006994347641124248
600020000.0 -0.08007802901022343 0.021728747364305082
610019500.0 -0.08182707453814105 0.038780159402887524
620019000.0 -0.0839507567721597 0.05470069634379855
630018500.0 -0.08864967744719812 0.06736337142370531
640018000.0 -0.09237970851019218 0.0713248771647319
650017500.0 -0.08162157596901563 -0.07005324438106428
660017000.0 -0.08744955590950332 0.07254466476433309
670016500.0 -0.08367574564618528 0.06865736085308564
680016000.0 -0.07166394169844433 0.06360338347035796
690015500.0 -0.06050239565970274 0.047519038612510216
700015000.0 -0.042084146113109365 0.03639529155683331
710014500.0 -0.028603959509692252 0.02386367622602046
720014000.0 -0.0067903725387369 0.00993737049104939
730013500.0 0.013628991479354093 -0.002072627645838195
740013000.0 0.03464286760551985 -0.016162590233912207
750012500.0 0.04970366419785124 -0.029247743381862312
760012000.0 0.05504425082521838 -0.04187152377614635
770011500.0 0.059819438240933394 -0.05217896443043082
780011000.0 0.06477583728053539 -0.05613859621882903
790010500.0 0.049057045877548666 -0.06983719215378577
800010000.0 0.028992520514507236 -0.08138416402483169
810009500.0 0.006984364981342115 -0.09446041362204446
820009000.0 -0.01123486743709499 -0.1216873080825264
830008500.0 -0.03384892391078445 -0.1400699940932718
840008000.0 -0.05274003754673328 -0.16394200338351408
850007500.0 -0.0615479511496366 -0.18381137406785653
860007000.0 -0.06909366384106283 -0.2053138884124187
870006500.0 -0.0734029286648058 -0.23374907934184305
880006000.0 -0.06315218252395463 -0.2576961254084672
890005500.0 -0.04736215023273939 -0.3001599334687251
900005000.0 -0.02017025077286747 -0.3272522284453201
910004500.0 -0.1777275064897086 -0.24238173909467386
920004000.0 -0.12645825469953983 -0.2947687521739609
930003500.0 -0.1658915622664043 -0.27168026695266106
940003000.0 -0.19990990949966767 -0.24316193146557338
950002500.0 -0.23550794734972808 -0.2143346859447716
960002000.0 -0.261875363002856 -0.17538874284231434
970001500.0 -0.2792053650902256 -0.12638234659457212
980001000.0 -0.300813838649626 -0.08290698708394052
990000500.0 -0.3138337508590733 -0.03615052780887706
1000000000.0 -0.30113862893622523 0.010051681655637985
