! Created with skrf 1.8.0 (http://scikit-rf.org).
# Hz S RI R 50.0 
!freq ReS11 ImS11
50000.0 0.25780543494222363 0.5513779824434958
15049500.0 -0.02146348678072259 0.31559138930468006
30049000.0 0.8148322261073813 0.6755983876987189
45048500.0 0.5522832088703995 1.8080520927009454
60048000.0 0.8281708707230563 -0.32396690454765664
75047500.0 5.509853422285861 -4.416110667454002
90047000.0 0.801442720697464 0.1240224217663157
105046500.0 -0.40352361860991764 -2.864733977072035
120046000.0 -0.46175310769228717 -0.3331679618721473
135045500.0 0.3526991515374119 -0.6742832081334419
150045000.0 -0.8507965277974697 0.17039926485484674
165044500.0 -1.955329354160048 0.2633883577520602
180044000.0 -3.574256213768485 -1.6037257943793308
195043500.0 -2.808497720472659 0.08650056849985398
210043000.0 2.520388289672685 0.12883706281139023
225042500.0 0.47529007423173353 -0.4632488082361339
240042000.0 2.047013351133161 -0.7365169657736649
255041500.0 -1.2727818184463837 -1.065853037379772
270041000.0 -0.5905947988714745 0.1004115641319284
285040500.0 1.0349717540481438 0.779220518360517
300040000.0 -1.89834704042953 1.0068174930039722
315039500.0 0.5880192983860281 2.270698214406874
330039000.0 0.5543149308549452 2.0701673172735444
345038500.0 -0.08842896270322892 -1.2978634851008093
360038000.0 -0.6257302757356525 -1.7430772818348992
375037500.0 1.2943913038839512 10.408293723311294
390037000.0 0.43990413050806354 -0.8412419225016805
405036500.0 0.5923778192920771 0.9904304800698487
420036000.0 -0.46403863490565517 -11.540320342249382
435035500.0 -1.305703543325621 -6.191699009858066
450035000.0 -0.7348449939739523 -0.06603323550348232
465034500.0 0.46875846016121436 -0.8934942439414278
480034000.0 2.6121195496748233 -0.7148369258123692
495033500.0 2.116382588087725 2.192524841305961
510033000.0 1.4427172575794227 0.8029363395085236
525032500.0 -0.16862193392311228 -2.1697724904744256
540032000.0 -2.3063141430535463 0.040761565646840824
555031500.0 -0.2261295804351946 -1.6969319701734327
570031000.0 -1.6611271871026514 0.23302133222294283
585030500.0 -0.6563097180127991 -3.137222363769245
600030000.0 0.2243193261433181 -2.5212744596483363
615029500.0 -2.1559288291526655 0.2667452432655994
630029000.0 2.7579752257698127 -0.4508365197218709
645028500.0 0.18916029114590804 0.12251479038680242
660028000.0 2.4777213349538822 3.0304962101877266
675027500.0 2.3990245579872345 -0.383249528703014
690027000.0 -0.17824086853096302 -0.5422177193389697
705026500.0 -0.023693646619396897 1.0601980792764707
720026000.0 0.638198719819936 0.18154872400179461
735025500.0 0.0884477947728886 -2.7418223804566177
750025000.0 -0.02796542819516615 -1.9237234804030579
765024500.0 1.9756242869024139 -3.237984966627602
780024000.0 -2.5356435281899006 -1.7427272300949772
795023500.0 2.454007645029835 -1.8043358929031164
810023000.0 -0.04774785199537056 0.6951782341655095
825022500.0 -1.1852906521847033 -1.735182885164013
840022000.0 1.3669456292151605 6.716993000712902
855021500.0 1.354823819857822 0.8716838777835701
870021000.0 -5.026983696781542 -4.469374890298857
885020500.0 1.3515690340072402 -2.3067840112757407
900020000.0 -2.14743061679971 -1.3814130629908217
915019500.0 -0.00024034696027850863 0.5090177034123636
930019000.0 -0.2841443054210064 1.4417221675419434
945018500.0 1.2995879298938309 0.13232010737147276
960018000.0 -0.8303651350730052 -0.4292771632100151
975017500.0 -1.1609542498147272 0.2783449516089008
990017000.0 -1.8841122831043264 0.7786326259039063
1005016500.0 -3.465074302561838 2.1758250322580217
1020016000.0 -1.7313602823658736 2.256881941685646
1035015500.0 4.863343068341889 0.4967766026682069
1050015000.0 0.38003356511098335 -1.0912050800166937
1065014500.0 -0.5188839738836718 -0.4552361541443465
1080014000.0 0.14599505681373587 -0.6613682329419772
1095013500.0 -0.7143365135991113 2.5737540424779257
1110013000.0 0.929659652904291 -1.0076130902016798
1125012500.0 0.17547213176492119 -1.0405379623627555
1140012000.0 0.09461945863789183 -1.4038624642543045
1155011500.0 -0.12348105211285475 -0.9160226932814794
1170011000.0 -1.4100000251102718 0.10900710396801948
1185010500.0 1.5945109926939207 -0.6669390663340412
1200010000.0 1.8888679506619144 -2.2474737156677267
1215009500.0 -0.5309734031340093 -1.0094019661460576
1230009000.0 0.8542925669913012 -0.7923375276753859
1245008500.0 -2.056421596338988 5.091319412216252
1260008000.0 0.4739450113606967 -0.11755870996626339
1275007500.0 1.5879014100774478 -1.4248821269031968
1290007000.0 7.763702919085228 0.5359056548081554
1305006500.0 -1.0529740801881133 0.05638017020809238
1320006000.0 0.43012723429516225 -1.4515615253361864
1335005500.0 -0.6416735395094 0.13688072560952366
1350005000.0 -1.7027977761749733 -1.1866977431159431
1365004500.0 -0.16274737900417358 0.9104597124984978
1380004000.0 1.277408797665284 3.551513134874548
1395003500.0 -2.0277593342349713 2.606030621702371
1410003000.0 0.7100735591035997 0.3464122095132044
1425002500.0 -3.596215388330719 3.0280252841443476
1440002000.0 4.968015379493922 -0.06664935781482442
1455001500.0 -0.5553254253675849 -5.527029178545979
1470001000.0 3.143559042347958 1.019215611478176
1485000500.0 -0.3958666848351448 -0.9173718271116842
1500000000.0 -1.3396823748209163 0.35875985253648196
