! Created with skrf 1.8.0 (http://scikit-rf.org).
# Hz S RI R 50.0 
!freq ReS11 ImS11
50000.0 -0.00021203043112089797 -0.0008119079386655063
15049500.0 0.00015354677832450273 -4.819176411231008e-05
30049000.0 8.757765873131803e-05 -0.000332593481640013
45048500.0 0.0006792935004587523 -4.449889955998186e-05
60048000.0 -2.2085936061006555e-05 8.102650826021365e-05
75047500.0 0.0018873251255289829 -0.0008660177929361232
90047000.0 1.4637914555567635e-05 -6.791631939485154e-05
105046500.0 0.0011099605202589866 -0.001413423533480999
120046000.0 -0.00015574330384576017 7.472404725483535e-05
135045500.0 0.0002519463109973599 -0.00029087219120079203
150045000.0 -6.443904060683275e-05 7.735568774726569e-05
165044500.0 -0.0005926548591298303 -0.0006261334056479475
180044000.0 0.0004274696846433653 -0.0007705942147800298
195043500.0 -0.0007125839705919793 -6.429238976093612e-05
210043000.0 0.0003262543324291282 -0.0006048684302910757
225042500.0 -0.0002132206126534181 1.1042906265199118e-05
240042000.0 -0.0011574708784106774 0.0003664703059103288
255041500.0 -0.00030528694214335497 0.001035797436209476
270041000.0 0.00050958396174324 -0.00018159105928577664
285040500.0 0.0007395218025884374 0.0014283989741358486
300040000.0 0.003309755224067825 -0.0023989210972689633
315039500.0 0.0013447090005355242 -0.003410115966076776
330039000.0 0.003727930544844515 0.0029331608237288006
345038500.0 -0.0006418250113048297 0.0028905275754772595
360038000.0 0.0016307279784791527 0.00014638788791108815
375037500.0 -0.009765435634526117 0.00701284524186157
390037000.0 -0.004553530982202619 0.0039070795238585546
405036500.0 0.001065079956832652 -0.0022460654679517375
420036000.0 0.01211666929752828 0.0005412634203572123
435035500.0 -0.00723209728113933 0.0065160590931967214
450035000.0 -0.0005501232716116 0.0020946906942430218
465034500.0 -0.002818124642079347 -0.002490609285786917
480034000.0 -0.008784022264576495 -0.01648365162015918
495033500.0 -0.007739939992113197 -0.0058519763518864966
510033000.0 0.0019945555380305505 -0.0021992514627003005
525032500.0 -0.008301121885896897 -0.007283680047797729
540032000.0 -0.006705820058443176 0.0036978427454300634
555031500.0 0.0036815352495955427 0.004031566506569503
570031000.0 -9.761551744347631e-05 -0.0015127603100382784
585030500.0 -0.004219720313386579 0.010676220432371646
600030000.0 -0.0019104818630974552 0.0015155631670952304
615029500.0 -0.0007707653773267372 0.0013574253867381456
630029000.0 -0.002002298206716226 -0.0025081625270906033
645028500.0 -0.0014103247082240017 -0.0003722547715862069
660028000.0 -0.0006680456402865738 -0.007509850072611255
675027500.0 0.0007166924542839834 -0.0005547913473454637
690027000.0 -0.002105845895680716 -0.00026494360733349265
705026500.0 0.0034891388167635384 -0.00290922405651579
720026000.0 0.0017607919361647877 0.0006258199425097918
735025500.0 -0.005409402780370999 0.006098862706696897
750025000.0 0.009908656516253294 -0.0013507860848999693
765024500.0 -0.01583400409389622 -0.004019169162207605
780024000.0 0.004924239685113808 0.01603296883520577
795023500.0 -0.004621967985757786 -0.002357047141703461
810023000.0 0.0003364096718987784 0.0037276609247661346
825022500.0 -0.004769274086087706 0.0035994902645451183
840022000.0 -0.016677118093400032 -0.007416780813524154
855021500.0 0.0027908160506931014 0.004019873638936204
870021000.0 0.028739071916438597 -0.01060168807512159
885020500.0 -0.0072932426601602035 -0.010136518085713947
900020000.0 -0.011464140827725013 -0.00513661687862855
915019500.0 -0.0001410248458772629 -0.004739034340268397
930019000.0 0.002900549719712617 0.0038974607222091243
945018500.0 -0.0006708063603990455 0.0021334932716948365
960018000.0 -0.0016586754915913784 4.7497970836671704e-05
975017500.0 -0.0016838439841155755 -0.0028298174890154402
990017000.0 0.006332896553100381 -0.001735258200868062
1005016500.0 -0.02083719260641727 0.003389670077115344
1020016000.0 0.011365349955930032 -0.001452776225591213
1035015500.0 0.00040909606763958763 0.014460168976794216
1050015000.0 0.011477460348993503 -0.021175145630650108
1065014500.0 0.0013800211876607337 0.003656519810628711
1080014000.0 0.00035251116753568353 0.006813435534800806
1095013500.0 0.00439713581803238 -0.0182005022033032
1110013000.0 -0.005623415904262381 0.0009611327784618909
1125012500.0 -0.0021766751772602216 -0.016210456832403755
1140012000.0 0.008178491244440226 -0.008790497798071431
1155011500.0 0.09396882892822338 0.01775378844288597
1170011000.0 0.017193709563967204 0.008853978859723877
1185010500.0 -0.04396929671531487 0.029110869084201643
1200010000.0 0.13147512517407522 -0.0228954323068074
1215009500.0 -0.005556665458480249 0.05857338260399423
1230009000.0 0.005578050896108475 -0.020138656774613822
1245008500.0 0.019326217327161405 0.3350795375471617
1260008000.0 -0.006234975667415502 0.012300799352806464
1275007500.0 0.05408162551988185 0.0934831945125544
1290007000.0 0.07760020816530847 0.15195435953478448
1305006500.0 -0.0013208942974252094 -0.003215721423083798
1320006000.0 -0.005873300127864388 0.027616840803296037
1335005500.0 0.005044624295365388 0.005256798543256196
1350005000.0 -0.026200855512498254 0.028549695256048235
1365004500.0 -0.016816984513970297 0.03184572012387398
1380004000.0 0.04191806555023515 -0.04951765085619601
1395003500.0 0.017842150169636306 -0.06665359643937026
1410003000.0 0.003170630801700993 0.010254131120458901
1425002500.0 -0.011209594074728471 0.08137828855400155
1440002000.0 -0.026949942994889974 0.08286410169358793
1455001500.0 -0.044137025992378606 0.04579363984851457
1470001000.0 0.044624197866892576 0.04198604187563521
1485000500.0 0.03128748651858105 -0.039764616984778095
1500000000.0 0.00470345011578449 0.02016319676170467
