! Created with skrf 1.8.0 (http://scikit-rf.org).
# Hz S RI R 50.0 
!freq ReS11 ImS11
50000.0 1.0020642247082376 0.0008920741292918387
10049500.0 1.0021150981164573 0.110705993036607
20049000.0 0.9876147367723167 0.219529530351536
30048500.0 0.9612867342562312 0.3249531615146539
40048000.0 0.9238948599641791 0.42541739391132494
50047500.0 0.8767014251173169 0.5258633739467043
60047000.0 0.8120012272602605 0.6224743620651144
70046500.0 0.7385920402036696 0.706339529180225
80046000.0 0.6566586213828763 0.7807801713833962
90045500.0 0.5742594519591743 0.840144903638191
100045000.0 0.4862711582607678 0.9022567591546677
110044500.0 0.3886418048963385 0.9547155556010802
120044000.0 0.28515141380081155 0.9963714301026001
130043500.0 0.1676899569630698 0.9970998366546217
140043000.0 0.06641923948778658 1.0435851783933845
150042500.0 -0.04681584634536468 1.0486370393174933
160042000.0 -0.16152531832607192 1.040043848423201
170041500.0 -0.2734932159881548 1.0184343175545352
180041000.0 -0.3641270095070038 0.9895456932596077
190040500.0 -0.46813602850855346 0.9500624201163783
200040000.0 -0.566659041932887 0.9006624304642548
210039500.0 -0.6588218590013439 0.8419716157713361
220039000.0 -0.742128659604952 0.7749417707093447
230038500.0 -0.8171934219881373 0.7019626548167939
240038000.0 -0.8837629524451943 0.624430404150869
250037500.0 -0.9446916371302796 0.5424652658450507
260037000.0 -1.0042219214125845 0.450915332687383
270036500.0 -1.060623780832809 0.3461200789691453
280036000.0 -1.107598237889681 0.23143855727727897
290035500.0 -1.1404307893543932 0.1125372426504844
300035000.0 -1.1173627768853527 -0.04095113271664783
310034500.0 -1.1594131273860186 -0.15332225648268322
320034000.0 -1.1453040539780377 -0.2767961192984177
330033500.0 -1.116650922229414 -0.39555440587222657
340033000.0 -1.0752808121709512 -0.5140084460410859
350032500.0 -1.020616186770188 -0.6250357170495096
360032000.0 -0.9635197936042137 -0.7173834842773655
370031500.0 -0.8974721933100889 -0.8228514294809269
380031000.0 -0.8163937330370385 -0.9216664042623959
390030500.0 -0.7219293167015484 -1.013916061995123
400030000.0 -0.6192958248849686 -1.0919391066525943
410029500.0 -0.5042809544692637 -1.1596838582435134
420029000.0 -0.38666929356167623 -1.2090514369287126
430028500.0 -0.2663242828485638 -1.243892061733961
440028000.0 -0.1453257685678051 -1.2656015029859822
450027500.0 -0.027034469136054576 -1.275713506116508
460027000.0 0.09098590314119112 -1.2838191539105142
470026500.0 0.20906298441663784 -1.280238840240004
480026000.0 0.3287167086693054 -1.267246412105658
490025500.0 0.4501414281016805 -1.2401097220397959
500025000.0 0.5714521033578774 -1.1966850327453513
510024500.0 0.6870066651901228 -1.138245119511642
520024000.0 0.7963693379071878 -1.0700462220987697
530023500.0 0.8912730769432745 -0.9796366609204575
540023000.0 0.9830225660942432 -0.876985409906413
550022500.0 1.055391451502721 -0.7900338779295826
560022000.0 1.1216770236774078 -0.6951282244046965
570021500.0 1.175203280143086 -0.5952210864180034
580021000.0 1.2214095486296837 -0.49262880162353306
590020500.0 1.2420160104858433 -0.352351197539389
600020000.0 1.2949174205444436 -0.24422024377546395
610019500.0 1.307261512272508 -0.12057966621619381
620019000.0 1.3008868083816796 0.005074254734766683
630018500.0 1.277847681725975 0.13383106976717093
640018000.0 1.249823274884466 0.25636275806830255
650017500.0 0.8453891764243623 0.6102548610562042
660017000.0 1.1441993190611377 0.47241086351946693
670016500.0 1.0873680603693596 0.5640185629905187
680016000.0 1.0218177764108378 0.643543188366521
690015500.0 0.9505946160334542 0.7211695719308077
700015000.0 0.8790354827524887 0.787535373539814
710014500.0 0.8044877633508996 0.8544559159579177
720014000.0 0.7213359423036289 0.9148293197368014
730013500.0 0.6357901601963253 0.9773925039396893
740013000.0 0.542724222654611 1.0363053275840803
750012500.0 0.43073949795045513 1.0857149080725752
760012000.0 0.3043541560453276 1.1263765294905788
770011500.0 0.16521355488580233 1.1486302699133608
780011000.0 0.01866933267493725 1.1291327831700886
790010500.0 -0.1192321957257355 1.1128396693344287
800010000.0 -0.23932575035743409 1.046660526221576
810009500.0 -0.33437901622119176 0.9686374063136738
820009000.0 -0.4072115139880459 0.8950483362202338
830008500.0 -0.4588271696376775 0.8244564467208811
840008000.0 -0.5001984532125394 0.7673515992647744
850007500.0 -0.5397087094650804 0.724999309489551
860007000.0 -0.5789723246909738 0.6948885085539946
870006500.0 -0.6245703454124694 0.6840698030913411
880006000.0 -0.6911281387943952 0.6829790995009691
890005500.0 -0.7840391423996571 0.695644995004614
900005000.0 -0.9277427342319942 0.7138855420511488
910004500.0 -0.8422710268554181 0.653406373670212
920004000.0 -0.6722598840030211 0.93744959524308
930003500.0 -0.52245079297731 1.0307987636237896
940003000.0 -0.36166055390736074 1.090732770947403
950002500.0 -0.20182462307317087 1.1322264858725015
960002000.0 -0.021872505176876205 1.1400049515551314
970001500.0 0.14636350248569543 1.1228744999892706
980001000.0 0.31748199645490366 1.083493158967377
990000500.0 0.4745075447765887 1.0125636809326595
1000000000.0 0.6137238175551334 0.9239895346562074
