! Created with skrf 1.8.0 (http://scikit-rf.org).
# Hz S RI R 50.0 
!freq ReS11 ImS11 ReS21 ImS21 ReS12 ImS12 ReS22 ImS22
50000.0 0.0 0.0 -6.1492e-05 7.359e-05 0.0 0.0 0.0 0.0
15049500.0 0.0 0.0 -2.0861e-05 -7.098e-06 0.0 0.0 0.0 0.0
30049000.0 0.0 0.0 -4.0769e-05 -3.628e-06 0.0 0.0 0.0 0.0
45048500.0 0.0 0.0 -7.3466e-05 4.9121e-05 0.0 0.0 0.0 0.0
60048000.0 0.0 0.0 8.846e-06 1.0871e-05 0.0 0.0 0.0 0.0
75047500.0 0.0 0.0 -2.4562e-05 1.2541e-05 0.0 0.0 0.0 0.0
90047000.0 0.0 0.0 -3.8553e-05 6.429e-05 0.0 0.0 0.0 0.0
105046500.0 0.0 0.0 -4.6808e-05 1.4012e-05 0.0 0.0 0.0 0.0
120046000.0 0.0 0.0 2.5671e-05 4.6534e-05 0.0 0.0 0.0 0.0
135045500.0 0.0 0.0 2.125e-05 3.8556e-05 0.0 0.0 0.0 0.0
150045000.0 0.0 0.0 -3.127e-05 -4.7942e-05 0.0 0.0 0.0 0.0
165044500.0 0.0 0.0 -3.9738e-05 5.0548e-05 0.0 0.0 0.0 0.0
180044000.0 0.0 0.0 -4.2373e-05 7.9599e-05 0.0 0.0 0.0 0.0
195043500.0 0.0 0.0 -7.87e-06 6.9084e-05 0.0 0.0 0.0 0.0
210043000.0 0.0 0.0 4.3264e-05 7.4998e-05 0.0 0.0 0.0 0.0
225042500.0 0.0 0.0 3.032e-05 0.000110192 0.0 0.0 0.0 0.0
240042000.0 0.0 0.0 2.3785e-05 5.8445e-05 0.0 0.0 0.0 0.0
255041500.0 0.0 0.0 6.442e-05 2.0664e-05 0.0 0.0 0.0 0.0
270041000.0 0.0 0.0 -8.2233e-05 2.7616e-05 0.0 0.0 0.0 0.0
285040500.0 0.0 0.0 -6.0233e-05 6.7181e-05 0.0 0.0 0.0 0.0
300040000.0 0.0 0.0 0.000540613 0.000325479 0.0 0.0 0.0 0.0
315039500.0 0.0 0.0 0.00012791 0.00032664 0.0 0.0 0.0 0.0
330039000.0 0.0 0.0 -3.0766e-05 0.000464099 0.0 0.0 0.0 0.0
345038500.0 0.0 0.0 0.000164281 -4.2906e-05 0.0 0.0 0.0 0.0
360038000.0 0.0 0.0 0.000174253 -4.69e-06 0.0 0.0 0.0 0.0
375037500.0 0.0 0.0 7.1174e-05 -3.2909e-05 0.0 0.0 0.0 0.0
390037000.0 0.0 0.0 0.000315722 0.000178019 0.0 0.0 0.0 0.0
405036500.0 0.0 0.0 0.000166638 0.000187058 0.0 0.0 0.0 0.0
420036000.0 0.0 0.0 0.000263326 0.000152923 0.0 0.0 0.0 0.0
435035500.0 0.0 0.0 0.000401658 -6.1207e-05 0.0 0.0 0.0 0.0
450035000.0 0.0 0.0 0.000739655 8.8735e-05 0.0 0.0 0.0 0.0
465034500.0 0.0 0.0 0.000424568 -0.000208295 0.0 0.0 0.0 0.0
480034000.0 0.0 0.0 0.000556856 -0.000122659 0.0 0.0 0.0 0.0
495033500.0 0.0 0.0 0.000438526 -0.000107751 0.0 0.0 0.0 0.0
510033000.0 0.0 0.0 7.2909e-05 -0.000356803 0.0 0.0 0.0 0.0
525032500.0 0.0 0.0 0.000329138 -0.00060395 0.0 0.0 0.0 0.0
540032000.0 0.0 0.0 0.000351557 -0.000392833 0.0 0.0 0.0 0.0
555031500.0 0.0 0.0 0.000632791 -0.000849857 0.0 0.0 0.0 0.0
570031000.0 0.0 0.0 -7.5343e-05 -0.000583751 0.0 0.0 0.0 0.0
585030500.0 0.0 0.0 1.7589e-05 -0.000436553 0.0 0.0 0.0 0.0
600030000.0 0.0 0.0 0.000477693 0.000619535 0.0 0.0 0.0 0.0
615029500.0 0.0 0.0 -0.000367556 -6.0696e-05 0.0 0.0 0.0 0.0
630029000.0 0.0 0.0 -0.000167187 2.6225e-05 0.0 0.0 0.0 0.0
645028500.0 0.0 0.0 -0.000543786 -0.000251319 0.0 0.0 0.0 0.0
660028000.0 0.0 0.0 -6.1643e-05 -0.000263466 0.0 0.0 0.0 0.0
675027500.0 0.0 0.0 0.000107265 -0.000108202 0.0 0.0 0.0 0.0
690027000.0 0.0 0.0 -6.233e-06 -0.000110412 0.0 0.0 0.0 0.0
705026500.0 0.0 0.0 8.108e-06 -0.000339568 0.0 0.0 0.0 0.0
720026000.0 0.0 0.0 0.000420799 2.6749e-05 0.0 0.0 0.0 0.0
735025500.0 0.0 0.0 8.0906e-05 2.4935e-05 0.0 0.0 0.0 0.0
750025000.0 0.0 0.0 -0.000545139 -0.000231294 0.0 0.0 0.0 0.0
765024500.0 0.0 0.0 4.8268e-05 -0.000441262 0.0 0.0 0.0 0.0
780024000.0 0.0 0.0 -0.000142395 -0.000468687 0.0 0.0 0.0 0.0
795023500.0 0.0 0.0 0.000562973 -0.000234658 0.0 0.0 0.0 0.0
810023000.0 0.0 0.0 -0.000177988 -0.000392022 0.0 0.0 0.0 0.0
825022500.0 0.0 0.0 -0.000368267 -0.000204572 0.0 0.0 0.0 0.0
840022000.0 0.0 0.0 -0.00051849 -0.000588048 0.0 0.0 0.0 0.0
855021500.0 0.0 0.0 -6.8818e-05 -0.000978867 0.0 0.0 0.0 0.0
870021000.0 0.0 0.0 -0.00015911 -0.000935043 0.0 0.0 0.0 0.0
885020500.0 0.0 0.0 -0.001027435 0.000495807 0.0 0.0 0.0 0.0
900020000.0 0.0 0.0 0.001768926 0.001484694 0.0 0.0 0.0 0.0
915019500.0 0.0 0.0 0.000452547 -3.756e-06 0.0 0.0 0.0 0.0
930019000.0 0.0 0.0 0.001090696 -0.00090072 0.0 0.0 0.0 0.0
945018500.0 0.0 0.0 -4.8229e-05 -0.000709851 0.0 0.0 0.0 0.0
960018000.0 0.0 0.0 0.000145558 -0.000279503 0.0 0.0 0.0 0.0
975017500.0 0.0 0.0 0.001344264 -0.000301962 0.0 0.0 0.0 0.0
990017000.0 0.0 0.0 0.00205036 0.000762863 0.0 0.0 0.0 0.0
1005016500.0 0.0 0.0 -0.000412237 0.000586391 0.0 0.0 0.0 0.0
1020016000.0 0.0 0.0 -0.000109384 0.001273011 0.0 0.0 0.0 0.0
1035015500.0 0.0 0.0 0.001234401 0.000420282 0.0 0.0 0.0 0.0
1050015000.0 0.0 0.0 -0.002877802 0.000923573 0.0 0.0 0.0 0.0
1065014500.0 0.0 0.0 0.002408887 0.000115046 0.0 0.0 0.0 0.0
1080014000.0 0.0 0.0 -0.000841586 0.00021441 0.0 0.0 0.0 0.0
1095013500.0 0.0 0.0 0.001077955 0.001173968 0.0 0.0 0.0 0.0
1110013000.0 0.0 0.0 0.002711493 0.001348618 0.0 0.0 0.0 0.0
1125012500.0 0.0 0.0 0.00196034 -0.002611902 0.0 0.0 0.0 0.0
1140012000.0 0.0 0.0 0.002396618 -0.0005239 0.0 0.0 0.0 0.0
1155011500.0 0.0 0.0 -0.000196523 -0.000263127 0.0 0.0 0.0 0.0
1170011000.0 0.0 0.0 0.004099555 -0.000758417 0.0 0.0 0.0 0.0
1185010500.0 0.0 0.0 -0.00309193 -0.000547236 0.0 0.0 0.0 0.0
1200010000.0 0.0 0.0 0.001279374 -0.001293236 0.0 0.0 0.0 0.0
1215009500.0 0.0 0.0 0.000353139 -4.9134e-05 0.0 0.0 0.0 0.0
1230009000.0 0.0 0.0 0.002534418 -0.001661827 0.0 0.0 0.0 0.0
1245008500.0 0.0 0.0 0.001539463 0.000671383 0.0 0.0 0.0 0.0
1260008000.0 0.0 0.0 0.001227043 0.001719263 0.0 0.0 0.0 0.0
1275007500.0 0.0 0.0 0.001024906 -0.002173627 0.0 0.0 0.0 0.0
1290007000.0 0.0 0.0 -0.001044152 0.001245061 0.0 0.0 0.0 0.0
1305006500.0 0.0 0.0 -0.001621345 0.001783771 0.0 0.0 0.0 0.0
1320006000.0 0.0 0.0 -0.001733326 -0.001991884 0.0 0.0 0.0 0.0
1335005500.0 0.0 0.0 -0.004272369 -0.000628977 0.0 0.0 0.0 0.0
1350005000.0 0.0 0.0 0.000115635 0.009119924 0.0 0.0 0.0 0.0
1365004500.0 0.0 0.0 -0.000715141 0.005017015 0.0 0.0 0.0 0.0
1380004000.0 0.0 0.0 -0.017416244 0.000202929 0.0 0.0 0.0 0.0
1395003500.0 0.0 0.0 -0.001236847 0.002685534 0.0 0.0 0.0 0.0
1410003000.0 0.0 0.0 -0.001526828 -0.008533988 0.0 0.0 0.0 0.0
1425002500.0 0.0 0.0 0.001449804 0.008482528 0.0 0.0 0.0 0.0
1440002000.0 0.0 0.0 0.008535678 0.000440922 0.0 0.0 0.0 0.0
1455001500.0 0.0 0.0 -0.009380754 -0.01049084 0.0 0.0 0.0 0.0
1470001000.0 0.0 0.0 0.007303224 0.014022916 0.0 0.0 0.0 0.0
1485000500.0 0.0 0.0 0.007526547 0.009278162 0.0 0.0 0.0 0.0
1500000000.0 0.0 0.0 -0.000890321 0.000301304 0.0 0.0 0.0 0.0
