! Created with skrf 1.8.0 (http://scikit-rf.org).
# Hz S RI R 50.0 
!freq ReS11 ImS11 ReS21 ImS21 ReS12 ImS12 ReS22 ImS22
50000.0 0.0 0.0 -0.818970048 -0.0134015 0.0 0.0 0.0 0.0
10049500.0 0.0 0.0 -0.800153024 0.138834864 0.0 0.0 0.0 0.0
20049000.0 0.0 0.0 -0.767326208 0.260456384 0.0 0.0 0.0 0.0
30048500.0 0.0 0.0 -0.716072128 0.375509056 0.0 0.0 0.0 0.0
40048000.0 0.0 0.0 -0.648499648 0.479964672 0.0 0.0 0.0 0.0
50047500.0 0.0 0.0 -0.564722688 0.57398016 0.0 0.0 0.0 0.0
60047000.0 0.0 0.0 -0.469544672 0.651742848 0.0 0.0 0.0 0.0
70046500.0 0.0 0.0 -0.36498784 0.713322048 0.0 0.0 0.0 0.0
80046000.0 0.0 0.0 -0.252598048 0.756913472 0.0 0.0 0.0 0.0
90045500.0 0.0 0.0 -0.127960432 0.783462016 0.0 0.0 0.0 0.0
100045000.0 0.0 0.0 -0.00684235 0.793623936 0.0 0.0 0.0 0.0
110044500.0 0.0 0.0 0.111273712 0.78481216 0.0 0.0 0.0 0.0
120044000.0 0.0 0.0 0.226255744 0.758387136 0.0 0.0 0.0 0.0
130043500.0 0.0 0.0 0.336537728 0.715281536 0.0 0.0 0.0 0.0
140043000.0 0.0 0.0 0.437658272 0.656276992 0.0 0.0 0.0 0.0
150042500.0 0.0 0.0 0.530096128 0.58348192 0.0 0.0 0.0 0.0
160042000.0 0.0 0.0 0.610288896 0.498355968 0.0 0.0 0.0 0.0
170041500.0 0.0 0.0 0.676480064 0.402339296 0.0 0.0 0.0 0.0
180041000.0 0.0 0.0 0.72841504 0.297963616 0.0 0.0 0.0 0.0
190040500.0 0.0 0.0 0.7646992 0.187114768 0.0 0.0 0.0 0.0
200040000.0 0.0 0.0 0.783533632 0.071397272 0.0 0.0 0.0 0.0
210039500.0 0.0 0.0 0.785014976 -0.046026732 0.0 0.0 0.0 0.0
220039000.0 0.0 0.0 0.768454208 -0.162593648 0.0 0.0 0.0 0.0
230038500.0 0.0 0.0 0.734407872 -0.27516912 0.0 0.0 0.0 0.0
240038000.0 0.0 0.0 0.682845696 -0.381582528 0.0 0.0 0.0 0.0
250037500.0 0.0 0.0 0.61617824 -0.479065536 0.0 0.0 0.0 0.0
260037000.0 0.0 0.0 0.535568288 -0.564148992 0.0 0.0 0.0 0.0
270036500.0 0.0 0.0 0.4427728 -0.637180864 0.0 0.0 0.0 0.0
280036000.0 0.0 0.0 0.34151648 -0.693409408 0.0 0.0 0.0 0.0
290035500.0 0.0 0.0 0.231757888 -0.734049024 0.0 0.0 0.0 0.0
300035000.0 0.0 0.0 0.134902352 -0.758267136 0.0 0.0 0.0 0.0
310034500.0 0.0 0.0 0.018557436 -0.767916032 0.0 0.0 0.0 0.0
320034000.0 0.0 0.0 -0.09321644 -0.759618496 0.0 0.0 0.0 0.0
330033500.0 0.0 0.0 -0.206216128 -0.737629504 0.0 0.0 0.0 0.0
340033000.0 0.0 0.0 -0.311734848 -0.69797088 0.0 0.0 0.0 0.0
350032500.0 0.0 0.0 -0.409994176 -0.643088192 0.0 0.0 0.0 0.0
360032000.0 0.0 0.0 -0.499800768 -0.575802176 0.0 0.0 0.0 0.0
370031500.0 0.0 0.0 -0.579530688 -0.494835904 0.0 0.0 0.0 0.0
380031000.0 0.0 0.0 -0.643912128 -0.403081088 0.0 0.0 0.0 0.0
390030500.0 0.0 0.0 -0.692380096 -0.305867456 0.0 0.0 0.0 0.0
400030000.0 0.0 0.0 -0.730907456 -0.200687616 0.0 0.0 0.0 0.0
410029500.0 0.0 0.0 -0.748915968 -0.090133096 0.0 0.0 0.0 0.0
420029000.0 0.0 0.0 -0.749203264 0.01952893 0.0 0.0 0.0 0.0
430028500.0 0.0 0.0 -0.731516992 0.130295976 0.0 0.0 0.0 0.0
440028000.0 0.0 0.0 -0.695437312 0.238130176 0.0 0.0 0.0 0.0
450027500.0 0.0 0.0 -0.64258752 0.337203808 0.0 0.0 0.0 0.0
460027000.0 0.0 0.0 -0.579311424 0.429070592 0.0 0.0 0.0 0.0
470026500.0 0.0 0.0 -0.500900448 0.505043328 0.0 0.0 0.0 0.0
480026000.0 0.0 0.0 -0.413919456 0.569453248 0.0 0.0 0.0 0.0
490025500.0 0.0 0.0 -0.320503936 0.620344768 0.0 0.0 0.0 0.0
500025000.0 0.0 0.0 -0.224833072 0.654111424 0.0 0.0 0.0 0.0
510024500.0 0.0 0.0 -0.12294164 0.675425984 0.0 0.0 0.0 0.0
520024000.0 0.0 0.0 -0.021947558 0.682728768 0.0 0.0 0.0 0.0
530023500.0 0.0 0.0 0.073818536 0.676732736 0.0 0.0 0.0 0.0
540023000.0 0.0 0.0 0.1719508 0.653855936 0.0 0.0 0.0 0.0
550022500.0 0.0 0.0 0.264290816 0.620949888 0.0 0.0 0.0 0.0
560022000.0 0.0 0.0 0.348899488 0.574782784 0.0 0.0 0.0 0.0
570021500.0 0.0 0.0 0.428271616 0.517346144 0.0 0.0 0.0 0.0
580021000.0 0.0 0.0 0.498968448 0.450495296 0.0 0.0 0.0 0.0
590020500.0 0.0 0.0 0.559592256 0.382535712 0.0 0.0 0.0 0.0
600020000.0 0.0 0.0 0.608512384 0.296380352 0.0 0.0 0.0 0.0
610019500.0 0.0 0.0 0.646323136 0.201510352 0.0 0.0 0.0 0.0
620019000.0 0.0 0.0 0.667969344 0.103426472 0.0 0.0 0.0 0.0
630018500.0 0.0 0.0 0.6741184 0.00278323 0.0 0.0 0.0 0.0
640018000.0 0.0 0.0 0.666484864 -0.099508208 0.0 0.0 0.0 0.0
650017500.0 0.0 0.0 0.539928832 -0.192572576 0.0 0.0 0.0 0.0
660017000.0 0.0 0.0 0.602619328 -0.291784928 0.0 0.0 0.0 0.0
670016500.0 0.0 0.0 0.548467008 -0.376667712 0.0 0.0 0.0 0.0
680016000.0 0.0 0.0 0.48298016 -0.451378368 0.0 0.0 0.0 0.0
690015500.0 0.0 0.0 0.407240608 -0.51683664 0.0 0.0 0.0 0.0
700015000.0 0.0 0.0 0.324882432 -0.56479488 0.0 0.0 0.0 0.0
710014500.0 0.0 0.0 0.236260016 -0.602645952 0.0 0.0 0.0 0.0
720014000.0 0.0 0.0 0.14549992 -0.623613632 0.0 0.0 0.0 0.0
730013500.0 0.0 0.0 0.052583808 -0.6335088 0.0 0.0 0.0 0.0
740013000.0 0.0 0.0 -0.038446644 -0.63302848 0.0 0.0 0.0 0.0
750012500.0 0.0 0.0 -0.128628808 -0.616208512 0.0 0.0 0.0 0.0
760012000.0 0.0 0.0 -0.213402176 -0.58941664 0.0 0.0 0.0 0.0
770011500.0 0.0 0.0 -0.294551264 -0.551906944 0.0 0.0 0.0 0.0
780011000.0 0.0 0.0 -0.377424128 -0.53008176 0.0 0.0 0.0 0.0
790010500.0 0.0 0.0 -0.437468416 -0.440400128 0.0 0.0 0.0 0.0
800010000.0 0.0 0.0 -0.49513264 -0.371952608 0.0 0.0 0.0 0.0
810009500.0 0.0 0.0 -0.543491712 -0.294896576 0.0 0.0 0.0 0.0
820009000.0 0.0 0.0 -0.581839616 -0.210473552 0.0 0.0 0.0 0.0
830008500.0 0.0 0.0 -0.606285568 -0.120362296 0.0 0.0 0.0 0.0
840008000.0 0.0 0.0 -0.61640256 -0.028113542 0.0 0.0 0.0 0.0
850007500.0 0.0 0.0 -0.61313632 0.064112588 0.0 0.0 0.0 0.0
860007000.0 0.0 0.0 -0.595987456 0.156212256 0.0 0.0 0.0 0.0
870006500.0 0.0 0.0 -0.566766336 0.24467296 0.0 0.0 0.0 0.0
880006000.0 0.0 0.0 -0.5219584 0.324642656 0.0 0.0 0.0 0.0
890005500.0 0.0 0.0 -0.466634048 0.398070432 0.0 0.0 0.0 0.0
900005000.0 0.0 0.0 -0.377094816 0.4728944 0.0 0.0 0.0 0.0
910004500.0 0.0 0.0 -0.319631776 0.715891072 0.0 0.0 0.0 0.0
920004000.0 0.0 0.0 -0.226699392 0.559578048 0.0 0.0 0.0 0.0
930003500.0 0.0 0.0 -0.14619152 0.581167616 0.0 0.0 0.0 0.0
940003000.0 0.0 0.0 -0.058194176 0.597689088 0.0 0.0 0.0 0.0
950002500.0 0.0 0.0 0.024984012 0.601679296 0.0 0.0 0.0 0.0
960002000.0 0.0 0.0 0.106550536 0.591476224 0.0 0.0 0.0 0.0
970001500.0 0.0 0.0 0.187974208 0.575640384 0.0 0.0 0.0 0.0
980001000.0 0.0 0.0 0.2699872 0.549968896 0.0 0.0 0.0 0.0
990000500.0 0.0 0.0 0.344344448 0.506727936 0.0 0.0 0.0 0.0
1000000000.0 0.0 0.0 0.421641472 0.45840064 0.0 0.0 0.0 0.0
