! Created with skrf 1.8.0 (http://scikit-rf.org).
# Hz S RI R 50.0 
!freq ReS11 ImS11 ReS21 ImS21 ReS12 ImS12 ReS22 ImS22
50000.0 0.0 0.0 -0.817793792 -0.012484558 0.0 0.0 0.0 0.0
15049500.0 0.0 0.0 -0.784934848 0.200842272 0.0 0.0 0.0 0.0
30049000.0 0.0 0.0 -0.71501248 0.376152352 0.0 0.0 0.0 0.0
45048500.0 0.0 0.0 -0.606243968 0.529493152 0.0 0.0 0.0 0.0
60048000.0 0.0 0.0 -0.467847072 0.651986368 0.0 0.0 0.0 0.0
75047500.0 0.0 0.0 -0.307475264 0.737597888 0.0 0.0 0.0 0.0
90047000.0 0.0 0.0 -0.1254174 0.783034624 0.0 0.0 0.0 0.0
105046500.0 0.0 0.0 0.054997264 0.790030528 0.0 0.0 0.0 0.0
120046000.0 0.0 0.0 0.228239184 0.756613056 0.0 0.0 0.0 0.0
135045500.0 0.0 0.0 0.388875104 0.684575872 0.0 0.0 0.0 0.0
150045000.0 0.0 0.0 0.530324384 0.5805568 0.0 0.0 0.0 0.0
165044500.0 0.0 0.0 0.645253824 0.448906816 0.0 0.0 0.0 0.0
180044000.0 0.0 0.0 0.727783168 0.29542832 0.0 0.0 0.0 0.0
195043500.0 0.0 0.0 0.77548352 0.127404768 0.0 0.0 0.0 0.0
210043000.0 0.0 0.0 0.784006912 -0.047761452 0.0 0.0 0.0 0.0
225042500.0 0.0 0.0 0.752734464 -0.22090832 0.0 0.0 0.0 0.0
240042000.0 0.0 0.0 0.682471488 -0.383095744 0.0 0.0 0.0 0.0
255041500.0 0.0 0.0 0.576560832 -0.525059584 0.0 0.0 0.0 0.0
270041000.0 0.0 0.0 0.441587392 -0.638262912 0.0 0.0 0.0 0.0
285040500.0 0.0 0.0 0.285512384 -0.71742816 0.0 0.0 0.0 0.0
300040000.0 0.0 0.0 0.131381528 -0.759658048 0.0 0.0 0.0 0.0
315039500.0 0.0 0.0 -0.04146498 -0.766157184 0.0 0.0 0.0 0.0
330039000.0 0.0 0.0 -0.208663616 -0.73500064 0.0 0.0 0.0 0.0
345038500.0 0.0 0.0 -0.366264 -0.669125952 0.0 0.0 0.0 0.0
360038000.0 0.0 0.0 -0.503455168 -0.571949824 0.0 0.0 0.0 0.0
375037500.0 0.0 0.0 -0.61619264 -0.447213536 0.0 0.0 0.0 0.0
390037000.0 0.0 0.0 -0.69548896 -0.302468224 0.0 0.0 0.0 0.0
405036500.0 0.0 0.0 -0.74227456 -0.14162816 0.0 0.0 0.0 0.0
420036000.0 0.0 0.0 -0.748300544 0.024093016 0.0 0.0 0.0 0.0
435035500.0 0.0 0.0 -0.714226816 0.188690112 0.0 0.0 0.0 0.0
450035000.0 0.0 0.0 -0.642121472 0.34001616 0.0 0.0 0.0 0.0
465034500.0 0.0 0.0 -0.535970816 0.470797504 0.0 0.0 0.0 0.0
480034000.0 0.0 0.0 -0.4102 0.572415872 0.0 0.0 0.0 0.0
495033500.0 0.0 0.0 -0.268646336 0.639763328 0.0 0.0 0.0 0.0
510033000.0 0.0 0.0 -0.120573008 0.675612672 0.0 0.0 0.0 0.0
525032500.0 0.0 0.0 0.030172898 0.677507264 0.0 0.0 0.0 0.0
540032000.0 0.0 0.0 0.174710192 0.651398464 0.0 0.0 0.0 0.0
555031500.0 0.0 0.0 0.310904128 0.59551232 0.0 0.0 0.0 0.0
570031000.0 0.0 0.0 0.430779968 0.513911232 0.0 0.0 0.0 0.0
585030500.0 0.0 0.0 0.53038688 0.408860576 0.0 0.0 0.0 0.0
600030000.0 0.0 0.0 0.60834176 0.290097856 0.0 0.0 0.0 0.0
615029500.0 0.0 0.0 0.658646208 0.149313088 0.0 0.0 0.0 0.0
630029000.0 0.0 0.0 0.67407808 -0.001084932 0.0 0.0 0.0 0.0
645028500.0 0.0 0.0 0.653693824 -0.152931856 0.0 0.0 0.0 0.0
660028000.0 0.0 0.0 0.600551808 -0.295542496 0.0 0.0 0.0 0.0
675027500.0 0.0 0.0 0.514101152 -0.419306816 0.0 0.0 0.0 0.0
690027000.0 0.0 0.0 0.402056064 -0.519225184 0.0 0.0 0.0 0.0
705026500.0 0.0 0.0 0.274750912 -0.586811648 0.0 0.0 0.0 0.0
720026000.0 0.0 0.0 0.142072688 -0.627893696 0.0 0.0 0.0 0.0
735025500.0 0.0 0.0 0.001999922 -0.633926272 0.0 0.0 0.0 0.0
750025000.0 0.0 0.0 -0.132348088 -0.6129808 0.0 0.0 0.0 0.0
765024500.0 0.0 0.0 -0.261910672 -0.567968768 0.0 0.0 0.0 0.0
780024000.0 0.0 0.0 -0.377437376 -0.503503552 0.0 0.0 0.0 0.0
795023500.0 0.0 0.0 -0.47057808 -0.400801376 0.0 0.0 0.0 0.0
810023000.0 0.0 0.0 -0.546629504 -0.28503952 0.0 0.0 0.0 0.0
825022500.0 0.0 0.0 -0.594985984 -0.157532944 0.0 0.0 0.0 0.0
840022000.0 0.0 0.0 -0.613019136 -0.020874346 0.0 0.0 0.0 0.0
855021500.0 0.0 0.0 -0.601195968 0.119213408 0.0 0.0 0.0 0.0
870021000.0 0.0 0.0 -0.558832064 0.249468384 0.0 0.0 0.0 0.0
885020500.0 0.0 0.0 -0.488338432 0.366429184 0.0 0.0 0.0 0.0
900020000.0 0.0 0.0 -0.3733808 0.470527392 0.0 0.0 0.0 0.0
915019500.0 0.0 0.0 -0.258283552 0.541961472 0.0 0.0 0.0 0.0
930019000.0 0.0 0.0 -0.136322752 0.581397504 0.0 0.0 0.0 0.0
945018500.0 0.0 0.0 -0.015424942 0.600200512 0.0 0.0 0.0 0.0
960018000.0 0.0 0.0 0.11060556 0.586190208 0.0 0.0 0.0 0.0
975017500.0 0.0 0.0 0.23177296 0.56098432 0.0 0.0 0.0 0.0
990017000.0 0.0 0.0 0.348916352 0.499137088 0.0 0.0 0.0 0.0
1005016500.0 0.0 0.0 0.451682176 0.42525696 0.0 0.0 0.0 0.0
1020016000.0 0.0 0.0 0.540610432 0.320326752 0.0 0.0 0.0 0.0
1035015500.0 0.0 0.0 0.609028864 0.198312416 0.0 0.0 0.0 0.0
1050015000.0 0.0 0.0 0.64609088 0.051316772 0.0 0.0 0.0 0.0
1065014500.0 0.0 0.0 0.660695104 -0.1008422 0.0 0.0 0.0 0.0
1080014000.0 0.0 0.0 0.631112896 -0.253678832 0.0 0.0 0.0 0.0
1095013500.0 0.0 0.0 0.566846784 -0.399947968 0.0 0.0 0.0 0.0
1110013000.0 0.0 0.0 0.45734496 -0.52959168 0.0 0.0 0.0 0.0
1125012500.0 0.0 0.0 0.332659808 -0.623915136 0.0 0.0 0.0 0.0
1140012000.0 0.0 0.0 0.175611584 -0.693182912 0.0 0.0 0.0 0.0
1155011500.0 0.0 0.0 0.009733204 -0.739063104 0.0 0.0 0.0 0.0
1170011000.0 0.0 0.0 -0.142072624 -0.717135232 0.0 0.0 0.0 0.0
1185010500.0 0.0 0.0 -0.309249408 -0.679448192 0.0 0.0 0.0 0.0
1200010000.0 0.0 0.0 -0.465420928 -0.603009024 0.0 0.0 0.0 0.0
1215009500.0 0.0 0.0 -0.59563168 -0.505705664 0.0 0.0 0.0 0.0
1230009000.0 0.0 0.0 -0.710911424 -0.378417408 0.0 0.0 0.0 0.0
1245008500.0 0.0 0.0 -0.806394304 -0.211784352 0.0 0.0 0.0 0.0
1260008000.0 0.0 0.0 -0.851812096 -0.039744628 0.0 0.0 0.0 0.0
1275007500.0 0.0 0.0 -0.8687712 0.162572896 0.0 0.0 0.0 0.0
1290007000.0 0.0 0.0 -0.819047616 0.359045568 0.0 0.0 0.0 0.0
1305006500.0 0.0 0.0 -0.718887616 0.542147712 0.0 0.0 0.0 0.0
1320006000.0 0.0 0.0 -0.585978624 0.697647104 0.0 0.0 0.0 0.0
1335005500.0 0.0 0.0 -0.421961248 0.807145088 0.0 0.0 0.0 0.0
1350005000.0 0.0 0.0 -0.26158976 0.890149184 0.0 0.0 0.0 0.0
1365004500.0 0.0 0.0 -0.022765284 0.900271808 0.0 0.0 0.0 0.0
1380004000.0 0.0 0.0 0.139769664 0.913160576 0.0 0.0 0.0 0.0
1395003500.0 0.0 0.0 0.309728768 0.899814976 0.0 0.0 0.0 0.0
1410003000.0 0.0 0.0 0.495992032 0.828387776 0.0 0.0 0.0 0.0
1425002500.0 0.0 0.0 0.640768384 0.7247104 0.0 0.0 0.0 0.0
1440002000.0 0.0 0.0 0.808478144 0.595393536 0.0 0.0 0.0 0.0
1455001500.0 0.0 0.0 0.916740288 0.447563296 0.0 0.0 0.0 0.0
1470001000.0 0.0 0.0 0.987147648 0.288468256 0.0 0.0 0.0 0.0
1485000500.0 0.0 0.0 1.043176292 0.066198348 0.0 0.0 0.0 0.0
1500000000.0 0.0 0.0 1.04460442 -0.108549416 0.0 0.0 0.0 0.0
