! Created with skrf 1.8.0 (http://scikit-rf.org).
# Hz S RI R 50.0 
!freq ReS11 ImS11
50000.0 0.996175552 0.001432344
15049500.0 0.9396944 0.36101696
30049000.0 0.749641472 0.672581312
45048500.0 0.461565024 0.892363584
60048000.0 0.103053456 1.013300062
75047500.0 -0.273549632 0.988110272
90047000.0 -0.61926464 0.819760192
105046500.0 -0.8911104 0.54592064
120046000.0 -1.0418607 0.184954432
135045500.0 -1.044886948 -0.209760832
150045000.0 -0.914114432 -0.586338496
165044500.0 -0.648075136 -0.884507328
180044000.0 -0.314206944 -1.043976784
195043500.0 0.06449812 -1.10110712
210043000.0 0.435292128 -1.022563934
225042500.0 0.75212704 -0.820330816
240042000.0 0.99500288 -0.539423104
255041500.0 1.136262768 -0.187187424
270041000.0 1.1513536 0.223091152
285040500.0 1.022551178 0.632426624
300040000.0 0.687583808 0.957593792
315039500.0 0.316037312 1.191035152
330039000.0 -0.139916528 1.254058832
345038500.0 -0.595874944 1.14078784
360038000.0 -0.967585536 0.87045408
375037500.0 -1.25532424 0.474186688
390037000.0 -1.382293696 -0.011277314
405036500.0 -1.289408096 -0.519993952
420036000.0 -1.032364488 -0.96674528
435035500.0 -0.631445504 -1.271074784
450035000.0 -0.149170736 -1.39374448
465034500.0 0.305270528 -1.380069152
480034000.0 0.72915168 -1.21129752
495033500.0 1.075526472 -0.91424864
510033000.0 1.32006656 -0.52458192
525032500.0 1.405818336 -0.070761536
540032000.0 1.358650432 0.384255712
555031500.0 1.153271552 0.800441792
570031000.0 0.817038976 1.115187768
585030500.0 0.39609248 1.285980448
600030000.0 -0.054560596 1.346644768
615029500.0 -0.49670016 1.228017568
630029000.0 -0.874512064 0.9645024
645028500.0 -1.169833664 0.580936256
660028000.0 -1.310987488 0.10657964
675027500.0 -1.260984176 -0.389406112
690027000.0 -1.01779902 -0.85987168
705026500.0 -0.607102784 -1.165033344
720026000.0 -0.137529488 -1.264701968
735025500.0 0.315049856 -1.211821072
750025000.0 0.709409152 -1.000377178
765024500.0 1.001877904 -0.656207936
780024000.0 1.146470304 -0.215037264
795023500.0 1.101918696 0.212905696
810023000.0 0.865963264 0.551842496
825022500.0 0.555665344 0.734999168
840022000.0 0.27986464 0.78087936
855021500.0 0.0565742 0.76050624
870021000.0 -0.128025312 0.733848384
885020500.0 -0.295769664 0.715464064
900020000.0 -0.5278408 0.735497984
915019500.0 -0.505293312 0.740410368
930019000.0 -0.489718304 0.74247488
945018500.0 -0.472331296 0.747738624
960018000.0 -0.454741504 0.753156032
975017500.0 -0.430412384 0.760721792
990017000.0 -0.417936896 0.76019136
1005016500.0 -0.392337696 0.765128448
1020016000.0 -0.378038656 0.766888768
1035015500.0 -0.348712736 0.773050112
1050015000.0 -0.342306528 0.788266048
1065014500.0 -0.309401504 0.7886288
1080014000.0 -0.280023168 0.80001344
1095013500.0 -0.24729672 0.793685888
1110013000.0 -0.226400784 0.794737472
1125012500.0 -0.225350832 0.779915328
1140012000.0 -0.179394208 0.802459072
1155011500.0 -0.162270496 0.782695936
1170011000.0 -0.155122352 0.807631488
1185010500.0 -0.107448336 0.807022144
1200010000.0 -0.077388664 0.808448768
1215009500.0 -0.050358304 0.813947136
1230009000.0 -0.006483151 0.816003456
1245008500.0 0.023634428 0.814038464
1260008000.0 0.051522296 0.802068864
1275007500.0 0.082711232 0.81493952
1290007000.0 0.11714804 0.804976576
1305006500.0 0.155569168 0.79839328
1320006000.0 0.18503912 0.794792
1335005500.0 0.214368336 0.787861568
1350005000.0 0.247534528 0.761912256
1365004500.0 0.249382176 0.755484352
1380004000.0 0.284633344 0.743700736
1395003500.0 0.32689984 0.732471424
1410003000.0 0.36418672 0.712278336
1425002500.0 0.380913088 0.713864
1440002000.0 0.410530432 0.67695616
1455001500.0 0.41290624 0.666923328
1470001000.0 0.439009792 0.643182912
1485000500.0 0.451408512 0.638518656
1500000000.0 0.490380928 0.640230336
