! Created with skrf 1.8.0 (http://scikit-rf.org).
# Hz S RI R 50.0 
!freq ReS11 ImS11
50000.0 -7.86736368347277 -0.73732885642587
15049500.0 -1.9087785852537658 0.9951825319675136
30049000.0 -4.398031874928947 3.5957111015918755
45048500.0 -1.3776524488471213 -1.329749073236099
60048000.0 -7.988964272314615 -1.5832079024861132
75047500.0 -0.0344099903280443 -0.29692116334857793
90047000.0 0.10133914974511081 2.1254026216925337
105046500.0 0.45104371908443197 1.6905813922359652
120046000.0 3.541440757968548 0.0004941971792222157
135045500.0 -0.24861750096967355 -0.8458457782914989
150045000.0 -0.34250885083907984 -2.0809301634279116
165044500.0 1.325423418959268 -0.6716959650340449
180044000.0 -0.8003764405044089 1.6134776292306139
195043500.0 2.3071743219977794 -0.2209771129075178
210043000.0 -1.2910400440002114 0.9123599049597753
225042500.0 1.1286642781312264 -0.6096003269022499
240042000.0 -0.2407110916559525 0.6425558222632428
255041500.0 -0.3190225671849454 0.015082762711355724
270041000.0 -1.1053113325707515 -0.10257240286925422
285040500.0 -0.005818259616744804 -0.19545464551334496
300040000.0 -0.5309610753270912 -0.4596368575058869
315039500.0 -1.2154684476819335 1.3356741089821316
330039000.0 0.1518736946553196 0.13248978282082255
345038500.0 0.8658459457200511 0.056689001153976015
360038000.0 0.38474790742448894 -0.3152739737862344
375037500.0 -0.030503717180302106 0.2999623735338521
390037000.0 -0.8971284710102954 -0.9707785030805995
405036500.0 1.7457616993852767 -1.0340371945578528
420036000.0 -1.182501956962501 -2.5079525484627023
435035500.0 -1.0497164565862307 3.555458392964956
450035000.0 -5.058242339746966 12.03110225778846
465034500.0 -0.027958795689775977 1.4217024065675772
480034000.0 1.3876558312021074 3.4752185293553888
495033500.0 3.308461618935294 1.6027568094567954
510033000.0 -0.5672692770567803 1.8780708998402236
525032500.0 -4.763529658504464 3.865564025912378
540032000.0 -0.7554117571313275 0.05071009440913558
555031500.0 0.09670987395945133 0.31785288169722153
570031000.0 0.22993361732012785 2.3123766440903855
585030500.0 0.1572898636940164 0.6498874635639179
600030000.0 0.17598892060066185 -1.729421753115706
615029500.0 3.873143950791378 0.787240162949605
630029000.0 -0.5127276735643127 -0.45294378312918
645028500.0 1.253008869911106 -0.9852255048684794
660028000.0 0.2276960778104025 -0.4627924512589658
675027500.0 5.214810734882218 -1.6134117438682294
690027000.0 2.0483928813014525 0.4795986649278714
705026500.0 -0.5308765547247648 0.7490475501300627
720026000.0 1.4801149214169005 -0.35988017922215565
735025500.0 1.8981806037810962 -0.2960318791375572
750025000.0 0.34167702226419855 3.0985377831668255
765024500.0 -0.7534021873240854 -1.5545719819691644
780024000.0 -0.16213777547059954 2.428565124898156
795023500.0 1.1735100577708266 -0.773007035826075
810023000.0 -0.9346500140007329 -0.17429415958942557
825022500.0 -0.1715928684839148 1.301739805530898
840022000.0 -1.0946694993001045 0.6709314851147876
855021500.0 -2.038487250833305 1.749798690746383
870021000.0 0.3289730111167359 1.0576774262097126
885020500.0 -0.05617638075879383 0.6254172528147797
900020000.0 2.3386064123780246 -1.9253268968021817
915019500.0 2.5156146676460573 -1.255262316443259
930019000.0 2.79273114412786 0.26197146272913324
945018500.0 -0.8053206692582411 -0.5010984713108746
960018000.0 0.39140932339821655 0.4547680993527361
975017500.0 0.12685488915654802 -1.3964951720921799
990017000.0 -1.3156587205578176 -0.7070694699824405
1005016500.0 -3.8150470831702408 -2.4845731676239766
1020016000.0 0.4897387925189944 -0.3313855491587186
1035015500.0 -15.909526392669536 -1.0255952347535708
1050015000.0 -0.16007627271523145 0.1318213833383901
1065014500.0 2.503834216479524 -0.590995061731853
1080014000.0 -1.0600839522366639 0.016417039188880742
1095013500.0 1.9476074489636 -1.5965948692927951
1110013000.0 -2.0303935469745467 -3.094115053035567
1125012500.0 1.0582500566008721 -0.19994532605053872
1140012000.0 0.18859046363637083 -0.9770946547309175
1155011500.0 7.557939096664986 5.890269732571623
1170011000.0 -1.2706297887965723 -0.9230740273325492
1185010500.0 -1.9523113697882328 0.6665044422656078
1200010000.0 -0.5678272801741938 0.4126115067213997
1215009500.0 1.1556879653008745 0.5154449941102185
1230009000.0 1.354614692234121 2.1138281484391235
1245008500.0 -0.05630565255882289 1.4510827037378056
1260008000.0 -1.9619489873146716 -0.27625710262696307
1275007500.0 0.3519590081689019 1.6699685851892605
1290007000.0 0.7710864322720127 -0.25854594135140974
1305006500.0 -12.528313858098143 -7.206565636558744
1320006000.0 0.2665757939712497 -1.3623982018275818
1335005500.0 0.7003532336583799 -0.5072857925514497
1350005000.0 2.7979841677160078 1.0761407260562537
1365004500.0 -0.875332025855107 0.4254797064871715
1380004000.0 0.44803502676807533 0.08729227900084748
1395003500.0 -0.37649037329471463 -0.41688962197231844
1410003000.0 0.25504393966516636 1.9216925984380342
1425002500.0 0.960994915186371 1.702502239234472
1440002000.0 0.8246059882847098 -1.1995585293473787
1455001500.0 0.732351881914292 -0.1835946864773027
1470001000.0 0.11085353660313393 0.2965169752692864
1485000500.0 -2.1763184613182545 2.701115714408545
1500000000.0 2.0402984237782436 2.5132142617212114
