! Created with skrf 1.8.0 (http://scikit-rf.org).
# Hz S RI R 50.0 
!freq ReS11 ImS11
50000.0 0.006318832345219036 -0.0032219299865417625
15049500.0 -0.0009084758027536741 -0.00017059303898737545
30049000.0 0.0014352309813115843 -0.0006981681163348181
45048500.0 0.00032758018989568403 -0.0004326723214027007
60048000.0 0.0009656754546376456 0.0021255906584963014
75047500.0 0.00019802746096345462 5.490785415114915e-05
90047000.0 -6.887017954407288e-05 0.00018942912210452432
105046500.0 -0.0003604089624753003 -0.0004783581356319548
120046000.0 -0.0002874288329331724 -0.000407743668168765
135045500.0 -0.0011996095193774023 -0.0005926245219848772
150045000.0 -0.0014215935813894436 -0.0013507203818982595
165044500.0 -0.00040188226642787965 0.00037101046956725434
180044000.0 -0.0003645205052347198 0.00019161782727610875
195043500.0 -0.00047287265096264007 -0.0005180652234633532
210043000.0 0.0006115719598035745 0.0009775379014804089
225042500.0 0.00039392883205206547 0.0004861039102183456
240042000.0 0.00046219019674132074 -0.0002217421069138772
255041500.0 -0.0006795815191509817 4.838098051375252e-05
270041000.0 -7.912767414554047e-05 -0.00018331581694869484
285040500.0 -5.484076943330209e-05 -0.000938887157385872
300040000.0 0.001325208662275104 0.00044977552394049453
315039500.0 0.003242963849728606 -0.0025111434588217913
330039000.0 0.003050912759557602 -0.0005919770877588358
345038500.0 -0.00021762660676139344 0.0004121714820057346
360038000.0 -0.0009741792395312975 0.001551922211310757
375037500.0 0.00078406032846408 -0.0010831338383235087
390037000.0 0.015752059559180357 0.0002855026869769228
405036500.0 -0.000681439203565024 -0.0027224413877535085
420036000.0 0.0036269823057706327 7.479469387347025e-05
435035500.0 0.00905006246834843 -0.0035823207944008597
450035000.0 -0.17666353095801754 0.21671477673244968
465034500.0 -0.002355603779978616 0.0015617620612933673
480034000.0 0.00022719893818064349 0.009060279601480915
495033500.0 0.002998096566511844 0.008638544197732134
510033000.0 -0.005107298842397363 0.004123388238325037
525032500.0 0.030992403209303555 0.007514961417152274
540032000.0 -0.00041691819495807844 -0.0009552221400852275
555031500.0 -0.0022572626985675978 -0.0012339021378974188
570031000.0 -0.004783551686814212 0.005969601318321462
585030500.0 0.004927553303180099 0.0029815934466132037
600030000.0 0.008757336914589183 0.006707947965099245
615029500.0 0.014266972122676634 0.021176789431973556
630029000.0 0.0033516196463279422 0.0032588061561227514
645028500.0 0.0009596706167773812 0.003024247706519827
660028000.0 0.0027345768825413554 0.002594102471250258
675027500.0 0.04422978052844748 0.002914259605122649
690027000.0 -0.007074714835461669 0.014412617986231698
705026500.0 0.0018705170611958489 -0.0026342276907500633
720026000.0 0.0009532209260930802 0.005315401066365456
735025500.0 0.0034470554646254628 -0.0019949155246147083
750025000.0 0.014231621494506842 0.004653355278448508
765024500.0 0.005606714411308126 0.0011439548017784362
780024000.0 -0.11080264439057907 -0.03823086610343789
795023500.0 0.00136908796507463 -0.0009104345084356693
810023000.0 -0.0005721604352857929 -0.001049128193168706
825022500.0 0.004844297180903755 -0.00512725261993415
840022000.0 -0.0017218324870942356 0.0032745137112856217
855021500.0 0.003319448054202412 0.009979057720744939
870021000.0 -0.005824555572952123 -0.0017619655719927046
885020500.0 0.0022962462928349863 0.005784369134020231
900020000.0 -0.018806917867911204 -0.0065112081420544915
915019500.0 -0.007209359281483445 -0.0033689253729608766
930019000.0 0.0020202529027841167 0.007046588842693495
945018500.0 0.0054983663518127866 0.0015173327913621155
960018000.0 -0.005708148785358923 -0.005038292803370599
975017500.0 0.019148857891264793 -0.01905958363167078
990017000.0 0.004548863325765036 -0.0031155084609743398
1005016500.0 -0.004055628026643541 -0.01861007361812964
1020016000.0 0.0019349757903738612 0.0079622945803104
1035015500.0 -0.13470769581075187 0.06515954444389734
1050015000.0 -0.009844364785373386 -0.011275363620217381
1065014500.0 -0.015826494405035977 -0.0098163449009838
1080014000.0 1.9921648615697635e-05 -0.00040389492813606087
1095013500.0 0.014396287408706267 -0.014714133873952194
1110013000.0 -0.03167592722890968 -0.015855750229462683
1125012500.0 -7.507738895845363e-05 0.0027439714524067275
1140012000.0 0.0038890285229307496 -0.007213555277027659
1155011500.0 0.20542488695875044 -0.4117827237473459
1170011000.0 0.02613975908132194 0.03735226207947381
1185010500.0 0.009952202820612934 -0.0038290462218817925
1200010000.0 0.004803374401431412 -0.0036287016240439947
1215009500.0 -0.005215410613458728 0.0006321025702041818
1230009000.0 -0.009851280881930886 0.036187290019542816
1245008500.0 -0.016083715199811263 0.009372828710541533
1260008000.0 -0.012622996742337073 0.013013981848628111
1275007500.0 -0.015447237597641888 0.007444285995321166
1290007000.0 0.0035039681906013924 0.004036663743647053
1305006500.0 -0.10025028033401127 0.009333120709466637
1320006000.0 0.0030826668594168103 -0.017905621737557578
1335005500.0 7.622982621119193e-05 0.005322115934413956
1350005000.0 0.05522054790060271 -0.04806183104193749
1365004500.0 -0.012647571089030505 -0.0153457344744805
1380004000.0 0.00412180292478742 -0.005166719241329746
1395003500.0 -0.006394519319595311 -0.008759402185913341
1410003000.0 0.029051990049369765 0.031042049374306154
1425002500.0 -0.04200115785929054 0.012864130845735173
1440002000.0 0.0028178930486230055 -0.043529903013840646
1455001500.0 -0.00020997389584596497 0.004241282407307264
1470001000.0 0.019173754952617857 0.0071699019955583435
1485000500.0 0.06360411837034877 -0.02467329114849549
1500000000.0 -0.0670105133972833 0.06325085720858553
