! Created with skrf 1.8.0 (http://scikit-rf.org).
# Hz S RI R 50.0 
!freq ReS11 ImS11 ReS21 ImS21 ReS12 ImS12 ReS22 ImS22
50000.0 0.0 0.0 -0.00010227669080273576 -5.4578938832832735e-05 0.0 0.0 0.0 0.0
15049500.0 0.0 0.0 -2.3272181416994908e-05 -1.6246173755344117e-05 0.0 0.0 0.0 0.0
30049000.0 0.0 0.0 -7.995583586219958e-07 -1.3069033216981623e-05 0.0 0.0 0.0 0.0
45048500.0 0.0 0.0 -5.4660949243459717e-05 -7.612919886050107e-05 0.0 0.0 0.0 0.0
60048000.0 0.0 0.0 -3.694142721595762e-05 -8.574001554623638e-05 0.0 0.0 0.0 0.0
75047500.0 0.0 0.0 -2.424928540346117e-05 -4.594320855181272e-05 0.0 0.0 0.0 0.0
90047000.0 0.0 0.0 3.2315952226011066e-05 -9.915256461851878e-06 0.0 0.0 0.0 0.0
105046500.0 0.0 0.0 -2.6224336899800746e-05 1.8858909574637724e-05 0.0 0.0 0.0 0.0
120046000.0 0.0 0.0 -3.084760337611901e-05 7.172347094699924e-05 0.0 0.0 0.0 0.0
135045500.0 0.0 0.0 -0.00017460142835868831 0.00016857539547927318 0.0 0.0 0.0 0.0
150045000.0 0.0 0.0 -5.059432018552365e-05 6.375597218062745e-05 0.0 0.0 0.0 0.0
165044500.0 0.0 0.0 0.00024477585742088736 -2.448161156602159e-05 0.0 0.0 0.0 0.0
180044000.0 0.0 0.0 -1.0412138332647955e-05 4.210097019475019e-05 0.0 0.0 0.0 0.0
195043500.0 0.0 0.0 1.4504334944318226e-05 1.3452858308962043e-05 0.0 0.0 0.0 0.0
210043000.0 0.0 0.0 -1.5330778856500477e-05 1.5994299216541436e-05 0.0 0.0 0.0 0.0
225042500.0 0.0 0.0 -4.169362731302613e-05 5.6536999140157276e-05 0.0 0.0 0.0 0.0
240042000.0 0.0 0.0 7.5660495285935695e-06 1.6461304501278664e-05 0.0 0.0 0.0 0.0
255041500.0 0.0 0.0 -2.5532361256120574e-05 2.7499873042978564e-05 0.0 0.0 0.0 0.0
270041000.0 0.0 0.0 -1.3593968348258126e-05 7.950023982862223e-07 0.0 0.0 0.0 0.0
285040500.0 0.0 0.0 -6.546030710976811e-06 6.254558920237595e-06 0.0 0.0 0.0 0.0
300040000.0 0.0 0.0 0.0003300752476392773 0.0001499300693276916 0.0 0.0 0.0 0.0
315039500.0 0.0 0.0 -8.99511391364613e-05 0.00025786326609891633 0.0 0.0 0.0 0.0
330039000.0 0.0 0.0 0.00014011246504617493 -0.0001715854436618498 0.0 0.0 0.0 0.0
345038500.0 0.0 0.0 -4.482244078859463e-05 0.00013792031693549882 0.0 0.0 0.0 0.0
360038000.0 0.0 0.0 -1.8913417104940783e-05 -6.555282009587927e-05 0.0 0.0 0.0 0.0
375037500.0 0.0 0.0 -5.9435153846046765e-05 -0.00027173136987564264 0.0 0.0 0.0 0.0
390037000.0 0.0 0.0 -8.454720278102445e-05 7.235213283335673e-05 0.0 0.0 0.0 0.0
405036500.0 0.0 0.0 0.00015734928332456497 4.2431343008757723e-05 0.0 0.0 0.0 0.0
420036000.0 0.0 0.0 9.693993524762701e-05 -3.692750871351086e-05 0.0 0.0 0.0 0.0
435035500.0 0.0 0.0 0.00026868887026447474 -0.0001348513459017551 0.0 0.0 0.0 0.0
450035000.0 0.0 0.0 0.00030432870838816565 -0.00034585540892911453 0.0 0.0 0.0 0.0
465034500.0 0.0 0.0 0.00016386678916556735 -0.00022905697056245584 0.0 0.0 0.0 0.0
480034000.0 0.0 0.0 0.00039634624214422346 0.0002790683129626515 0.0 0.0 0.0 0.0
495033500.0 0.0 0.0 0.0001755585297124144 1.0663969893978866e-05 0.0 0.0 0.0 0.0
510033000.0 0.0 0.0 0.0008759528801478464 0.00024847434239213157 0.0 0.0 0.0 0.0
525032500.0 0.0 0.0 0.0013042839594661056 -0.0017679886850379249 0.0 0.0 0.0 0.0
540032000.0 0.0 0.0 -0.00011652935807770548 -0.00019021097587641693 0.0 0.0 0.0 0.0
555031500.0 0.0 0.0 0.00020184056371357317 -0.00041857296388300854 0.0 0.0 0.0 0.0
570031000.0 0.0 0.0 -0.0003290353693205712 0.0002652743486757374 0.0 0.0 0.0 0.0
585030500.0 0.0 0.0 0.000379831703985997 -0.0006438942854286188 0.0 0.0 0.0 0.0
600030000.0 0.0 0.0 -0.0009139961884729448 0.002206100904501847 0.0 0.0 0.0 0.0
615029500.0 0.0 0.0 -0.0005523315099722141 -5.0266254175913284e-05 0.0 0.0 0.0 0.0
630029000.0 0.0 0.0 -0.00043216624253379643 -0.00021215226026608482 0.0 0.0 0.0 0.0
645028500.0 0.0 0.0 8.622254659863612e-05 0.0001088804332322082 0.0 0.0 0.0 0.0
660028000.0 0.0 0.0 -0.0003278704175227375 -0.0003644574454373118 0.0 0.0 0.0 0.0
675027500.0 0.0 0.0 -0.0011999167881863299 -0.00016321006481777303 0.0 0.0 0.0 0.0
690027000.0 0.0 0.0 0.0009590716095274564 -0.0015565966069365515 0.0 0.0 0.0 0.0
705026500.0 0.0 0.0 -0.0005142927383421195 -0.0003228164410751086 0.0 0.0 0.0 0.0
720026000.0 0.0 0.0 -2.144153195341067e-05 -0.00035165839304733787 0.0 0.0 0.0 0.0
735025500.0 0.0 0.0 -0.0002741192370873148 -0.0002708308619721923 0.0 0.0 0.0 0.0
750025000.0 0.0 0.0 -0.00036715791597416203 -4.986528136965305e-05 0.0 0.0 0.0 0.0
765024500.0 0.0 0.0 0.002864265499016495 0.004613385049990815 0.0 0.0 0.0 0.0
780024000.0 0.0 0.0 -0.00038389528985165546 0.011120235715785987 0.0 0.0 0.0 0.0
795023500.0 0.0 0.0 0.00020579237598176108 -0.00024477541432078447 0.0 0.0 0.0 0.0
810023000.0 0.0 0.0 -3.901471957157621e-06 5.690982174588054e-05 0.0 0.0 0.0 0.0
825022500.0 0.0 0.0 0.0005547292504871407 -0.0008686673389861234 0.0 0.0 0.0 0.0
840022000.0 0.0 0.0 1.658695247909308e-06 -0.0002059332701118115 0.0 0.0 0.0 0.0
855021500.0 0.0 0.0 0.00034264642626886856 -0.000598105878108623 0.0 0.0 0.0 0.0
870021000.0 0.0 0.0 7.959976047922446e-05 -0.0006787075017746593 0.0 0.0 0.0 0.0
885020500.0 0.0 0.0 -0.0006151593753350729 -0.00022767667451428864 0.0 0.0 0.0 0.0
900020000.0 0.0 0.0 -0.000990529150708282 0.0030692236125222793 0.0 0.0 0.0 0.0
915019500.0 0.0 0.0 3.0015536149881565e-05 -0.00042099009221317654 0.0 0.0 0.0 0.0
930019000.0 0.0 0.0 -0.0003187869475935479 0.0009055125624685118 0.0 0.0 0.0 0.0
945018500.0 0.0 0.0 -0.00021069891710101988 0.0013477221657848702 0.0 0.0 0.0 0.0
960018000.0 0.0 0.0 0.0020701364119273245 0.0003182633759526605 0.0 0.0 0.0 0.0
975017500.0 0.0 0.0 0.001463329091744061 -0.00022577926207000045 0.0 0.0 0.0 0.0
990017000.0 0.0 0.0 -1.3179230963723663e-05 0.0005668718341435626 0.0 0.0 0.0 0.0
1005016500.0 0.0 0.0 -0.0007097330838792594 -0.0009117312259910773 0.0 0.0 0.0 0.0
1020016000.0 0.0 0.0 0.0018391299497847102 0.0005951981027239672 0.0 0.0 0.0 0.0
1035015500.0 0.0 0.0 -0.0012741712652643354 0.0004706781926985053 0.0 0.0 0.0 0.0
1050015000.0 0.0 0.0 0.0013630789735452438 -0.0024767049484320956 0.0 0.0 0.0 0.0
1065014500.0 0.0 0.0 0.0009984730080223286 0.000786461618394045 0.0 0.0 0.0 0.0
1080014000.0 0.0 0.0 3.0675638622179546e-05 4.69469074493092e-05 0.0 0.0 0.0 0.0
1095013500.0 0.0 0.0 0.0016169691196542529 -0.0026586410745738087 0.0 0.0 0.0 0.0
1110013000.0 0.0 0.0 0.0023563886857350335 0.001727786786504016 0.0 0.0 0.0 0.0
1125012500.0 0.0 0.0 0.00040014473699733936 -0.0020492312005292606 0.0 0.0 0.0 0.0
1140012000.0 0.0 0.0 0.0006577102562243046 -0.0014797991485103958 0.0 0.0 0.0 0.0
1155011500.0 0.0 0.0 -0.000518859053801046 -0.0008460329996218736 0.0 0.0 0.0 0.0
1170011000.0 0.0 0.0 -0.0025404664517735907 -0.007586380213163398 0.0 0.0 0.0 0.0
1185010500.0 0.0 0.0 -0.0005302860401925308 0.0006952811588929938 0.0 0.0 0.0 0.0
1200010000.0 0.0 0.0 -0.0026062701538691717 0.0010232942436857065 0.0 0.0 0.0 0.0
1215009500.0 0.0 0.0 0.0005567870351310395 -0.0008614986461144934 0.0 0.0 0.0 0.0
1230009000.0 0.0 0.0 -0.0011496949194896478 0.001290270516398004 0.0 0.0 0.0 0.0
1245008500.0 0.0 0.0 0.0015643043806222359 0.00663753807141424 0.0 0.0 0.0 0.0
1260008000.0 0.0 0.0 -0.0008475066483930736 0.00656640299395662 0.0 0.0 0.0 0.0
1275007500.0 0.0 0.0 -0.00229822521523245 0.0008218576965317135 0.0 0.0 0.0 0.0
1290007000.0 0.0 0.0 0.0007897806162923595 -0.0010216127233471204 0.0 0.0 0.0 0.0
1305006500.0 0.0 0.0 0.0022077987158261644 0.00039500814632325735 0.0 0.0 0.0 0.0
1320006000.0 0.0 0.0 0.0014655905744947685 0.0018703110454771515 0.0 0.0 0.0 0.0
1335005500.0 0.0 0.0 -0.0006663192322074365 0.01613329087262551 0.0 0.0 0.0 0.0
1350005000.0 0.0 0.0 -0.003398667208383346 -0.0036039567274493544 0.0 0.0 0.0 0.0
1365004500.0 0.0 0.0 -0.0035142243400318567 0.0010862162580715386 0.0 0.0 0.0 0.0
1380004000.0 0.0 0.0 0.005714850471333304 -0.000550478307307508 0.0 0.0 0.0 0.0
1395003500.0 0.0 0.0 0.026863776824453452 0.01867203098186921 0.0 0.0 0.0 0.0
1410003000.0 0.0 0.0 0.004536422563715201 -0.005475728339052588 0.0 0.0 0.0 0.0
1425002500.0 0.0 0.0 0.009074154832626127 -0.0026162780718097353 0.0 0.0 0.0 0.0
1440002000.0 0.0 0.0 0.02606760442455905 0.013378212643926052 0.0 0.0 0.0 0.0
1455001500.0 0.0 0.0 -0.0016035050354583928 0.001128978147782508 0.0 0.0 0.0 0.0
1470001000.0 0.0 0.0 -0.008254079976606968 0.007859673983179374 0.0 0.0 0.0 0.0
1485000500.0 0.0 0.0 0.0031671057550234404 0.006360113192662479 0.0 0.0 0.0 0.0
1500000000.0 0.0 0.0 0.0012654587576775493 -0.009283347181157357 0.0 0.0 0.0 0.0
