! Created with skrf 1.8.0 (http://scikit-rf.org).
# Hz S RI R 50.0 
!freq ReS11 ImS11
50000.0 0.996197824 0.001380888
15049500.0 0.940137536 0.360471456
30049000.0 0.749857216 0.672900544
45048500.0 0.461744704 0.892013312
60048000.0 0.103584152 1.013655782
75047500.0 -0.273260064 0.9883856
90047000.0 -0.618987968 0.819855232
105046500.0 -0.891015232 0.546145152
120046000.0 -1.041692496 0.185475232
135045500.0 -1.045665264 -0.208519152
150045000.0 -0.91496192 -0.585702464
165044500.0 -0.64795648 -0.884377984
180044000.0 -0.314556064 -1.044008016
195043500.0 0.063587292 -1.101457832
210043000.0 0.434219904 -1.022263766
225042500.0 0.75177664 -0.82140768
240042000.0 0.994898944 -0.540142144
255041500.0 1.136004208 -0.187833808
270041000.0 1.151142832 0.221557792
285040500.0 1.020274878 0.632216832
300040000.0 0.686997504 0.956548032
315039500.0 0.318231488 1.19453848
330039000.0 -0.134218384 1.255782128
345038500.0 -0.596024256 1.140335552
360038000.0 -0.967508928 0.872342272
375037500.0 -1.253314144 0.476327104
390037000.0 -1.387865888 -0.020566138
405036500.0 -1.290282016 -0.516578144
420036000.0 -1.033267974 -0.966560448
435035500.0 -0.631113856 -1.271139616
450035000.0 -0.16975576 -1.396382912
465034500.0 0.303762816 -1.379283072
480034000.0 0.726814528 -1.215390208
495033500.0 1.072980048 -0.916344576
510033000.0 1.314972768 -0.526396576
525032500.0 1.407350784 -0.069399776
540032000.0 1.359336256 0.382945504
555031500.0 1.153774736 0.79832992
570031000.0 0.81016832 1.11271572
585030500.0 0.39783296 1.290424576
600030000.0 -0.04678038 1.342561472
615029500.0 -0.491959808 1.221601248
630029000.0 -0.875473344 0.961055808
645028500.0 -1.16525448 0.586032128
660028000.0 -1.311539904 0.109808824
675027500.0 -1.2667048 -0.39843072
690027000.0 -1.015792252 -0.863719552
705026500.0 -0.60693088 -1.167349216
720026000.0 -0.13532488 -1.26740288
735025500.0 0.317648544 -1.209470272
750025000.0 0.706774208 -0.998597056
765024500.0 0.997355072 -0.6615824
780024000.0 1.134405248 -0.254920368
795023500.0 1.102846624 0.211321376
810023000.0 0.8676816 0.547060544
825022500.0 0.557626176 0.735773376
840022000.0 0.278601184 0.780519616
855021500.0 0.055458476 0.758490496
870021000.0 -0.124309712 0.731726272
885020500.0 -0.300132672 0.722093504
900020000.0 -0.5250448 0.73540768
915019500.0 -0.507333824 0.741176576
930019000.0 -0.486254336 0.74234848
945018500.0 -0.471893664 0.74368768
960018000.0 -0.450369152 0.747334784
975017500.0 -0.42500912 0.764016768
990017000.0 -0.4205712 0.7621056
1005016500.0 -0.401565024 0.768405504
1020016000.0 -0.376678304 0.779164224
1035015500.0 -0.355141248 0.779589312
1050015000.0 -0.306285248 0.78582464
1065014500.0 -0.313424352 0.796217536
1080014000.0 -0.291871072 0.798162752
1095013500.0 -0.26285136 0.804638336
1110013000.0 -0.2364276 0.811862912
1125012500.0 -0.219435088 0.792708928
1140012000.0 -0.182459168 0.810745536
1155011500.0 -0.14811696 0.79767744
1170011000.0 -0.119455392 0.822488128
1185010500.0 -0.095547448 0.817556864
1200010000.0 -0.06611854 0.819637376
1215009500.0 -0.037371816 0.821940736
1230009000.0 -0.020680432 0.820939392
1245008500.0 0.023370956 0.825977792
1260008000.0 0.049314528 0.823656064
1275007500.0 0.082456784 0.818065024
1290007000.0 0.1111738 0.813012544
1305006500.0 0.150558192 0.796315456
1320006000.0 0.178255664 0.80296256
1335005500.0 0.225901728 0.789113344
1350005000.0 0.236153856 0.77560032
1365004500.0 0.32555088 0.787501632
1380004000.0 0.288300384 0.765495616
1395003500.0 0.311979008 0.75106464
1410003000.0 0.35029344 0.707308992
1425002500.0 0.361690144 0.706032576
1440002000.0 0.39863776 0.682236928
1455001500.0 0.40728224 0.657968768
1470001000.0 0.428039776 0.654209088
1485000500.0 0.467639968 0.6315536
1500000000.0 0.493946048 0.603810752
