! Created with skrf 1.8.0 (http://scikit-rf.org).
# Hz S RI R 50.0 
!freq ReS11 ImS11
50000.0 -2.3312195108198686 1.3532332057263248
15049500.0 0.2090934544025194 -5.34072229301631
30049000.0 1.1548873055215894 0.6677330310888004
45048500.0 -2.0223650804653155 0.31616605564735867
60048000.0 0.23993543670524795 5.516573862911397
75047500.0 1.894461142662516 -0.14836069176138328
90047000.0 1.8990302838170559 -0.16523175210168867
105046500.0 -0.18808914522992298 -1.1968419041869065
120046000.0 0.15665099715635433 -1.4121644312795805
135045500.0 0.35260370940582275 -2.236927455039586
150045000.0 -1.699285345704729 -6.1861070972664
165044500.0 -3.1597328019745845 3.238694866766848
180044000.0 -0.9700823012519249 -0.688884085355128
195043500.0 -0.55158423107959 4.067729353685652
210043000.0 -0.7046562884016946 -0.9529061975532007
225042500.0 0.8530314957467641 -1.1929162255925572
240042000.0 0.4097565058325784 -0.5702856658989134
255041500.0 -1.5999716694676114 3.2965650907033073
270041000.0 -0.48737273235910916 -0.5723927075347595
285040500.0 7.68047808050752 5.648006200899897
300040000.0 0.027543884454347224 -0.12243149523225799
315039500.0 -1.1571075856707485 -0.8492150068600628
330039000.0 2.729196377178781 3.1179761852462144
345038500.0 -2.8809985535921525 -2.9360571579201995
360038000.0 -0.6978003270489839 -0.13834083519203833
375037500.0 0.42091283536638413 -1.2015659117246595
390037000.0 -2.670399918751177 -4.283070025266627
405036500.0 -1.9627750869855085 0.7529456593276536
420036000.0 2.8784364416091583 1.9727407253685738
435035500.0 7.3965418405148 12.657723590030036
450035000.0 0.5904394810178637 0.37138416952680325
465034500.0 -2.239106453160516 2.3470720217997294
480034000.0 2.5601550552535763 0.39751194500287795
495033500.0 1.3952726394245558 -1.0112604973639143
510033000.0 -1.8779763818769706 -1.0382716107230296
525032500.0 1.8727549784920905 -0.8322144523530453
540032000.0 -0.6894957599636378 -1.0718060530765319
555031500.0 -2.3240454250000044 0.7954978656294786
570031000.0 -2.208429515115262 3.5634543127681484
585030500.0 -0.7666434523093443 0.45842118728902187
600030000.0 0.27181026384316237 -2.4499235295784434
615029500.0 0.2761339564075158 -1.3393542872168793
630029000.0 -1.5232406856438132 -0.785087579872661
645028500.0 -6.1118833226100895 1.8290799321426807
660028000.0 0.29469587048561263 1.147477123330827
675027500.0 -1.744260064910641 4.596255680687618
690027000.0 1.1970194783181012 1.2985541094596968
705026500.0 -2.312746264562283 -1.5708564884909206
720026000.0 0.16763830285090978 0.2558304410650439
735025500.0 0.04091070779392366 -1.5105053542770386
750025000.0 -0.3937146297236923 1.512911623902866
765024500.0 -2.4108163703084706 -12.540230950861213
780024000.0 0.652632590438536 -0.545603992851556
795023500.0 0.342916486585601 0.7238757328953603
810023000.0 0.041562874635185695 4.351836084520193
825022500.0 -0.95193706330423 0.5585403934866798
840022000.0 -1.1100610624847012 0.2982202058574575
855021500.0 -0.10736558037764223 -0.02087271478874706
870021000.0 -3.596428724260975 -3.346940960188276
885020500.0 2.3737314794152766 -0.3674960915919719
900020000.0 0.2923955259375706 0.07934480085330634
915019500.0 0.4696982076390761 -0.31923173810689975
930019000.0 -0.44121349154775763 1.660453921521214
945018500.0 -0.5592466813846122 0.11031696318611256
960018000.0 0.335526314663116 -0.10676408499949332
975017500.0 0.7229331467520692 -0.9784911242254332
990017000.0 -0.15629466993346067 -0.03105313579218752
1005016500.0 1.1570336077979526 -1.5884402174304462
1020016000.0 0.439567028556949 -0.617591266951701
1035015500.0 0.5188600145838173 0.17149507403044598
1050015000.0 0.38395617593264064 -0.7982929224430743
1065014500.0 0.4054598470525724 0.8769766527359659
1080014000.0 -0.5278896311978774 0.16101251865092342
1095013500.0 0.1918131218444925 -0.8715272109117971
1110013000.0 0.04246577727972732 0.8095616304749864
1125012500.0 -3.598880076889186 -1.0178661064369425
1140012000.0 1.0773156942664972 -1.7390278469368043
1155011500.0 -2.8511803897357675 1.0948188949449709
1170011000.0 -5.281391901803707 4.853284212507089
1185010500.0 -0.21553745781457956 0.9497513731477916
1200010000.0 -5.161134018668914 2.8851400793652595
1215009500.0 0.012407642015216236 0.020967239543088594
1230009000.0 1.7780632564913363 -11.485329396046913
1245008500.0 -9.098059873788719 8.084939187810383
1260008000.0 0.5322809286428477 -2.1581450155710837
1275007500.0 3.076663763946377 3.7995104353990334
1290007000.0 0.27994832559108523 2.6870297752756933
1305006500.0 7.368973493547817 -9.976042212493146
1320006000.0 3.317147351512632 -0.19238553474105718
1335005500.0 1.310256483294916 0.7070533020242505
1350005000.0 -0.3536183351977119 1.6789660694749293
1365004500.0 -0.1298010833326613 0.8504246248992066
1380004000.0 -1.263622466490315 0.34287834601631845
1395003500.0 1.4773516461926026 -0.9451309779227672
1410003000.0 -1.0675690084320366 1.597635083471262
1425002500.0 0.4357788724859153 0.13757114676485366
1440002000.0 1.1595612344547195 1.1109803146401038
1455001500.0 0.9721057889941574 0.051424173688359845
1470001000.0 -0.3666944891932292 -0.46640620045622444
1485000500.0 -0.4429022131980962 1.6786002157170294
1500000000.0 -0.31827326331548933 -1.258139729480413
