! Created with skrf 1.8.0 (http://scikit-rf.org).
# Hz S RI R 50.0 
!freq ReS11 ImS11
50000.0 0.0011176477580899025 -0.00116676563328731
15049500.0 0.0005554601231881947 -0.00362488129688709
30049000.0 -0.0001801241988586756 -1.3340366850958602e-05
45048500.0 6.065057412020867e-05 0.00040313310631903237
60048000.0 -0.0006643592147292932 0.00207882492132603
75047500.0 0.00023900358846130646 0.0004088043493305337
90047000.0 0.00016396067382685206 -0.00010502132195526428
105046500.0 0.0002253160661412835 -0.00011021696948019193
120046000.0 0.00013826124592059445 -8.758948282074057e-05
135045500.0 0.0019485724389919047 0.002502331665661741
150045000.0 -0.001462539235660505 0.0032118968258572763
165044500.0 -0.0016798292098580692 0.002031820292956566
180044000.0 -1.83327865002876e-05 -0.00044551722484755066
195043500.0 0.001862354672147051 -0.001275384291448246
210043000.0 -0.00023058075382306796 0.0005085433718698107
225042500.0 0.0009882771762255358 0.00035296421215404096
240042000.0 -0.0003170698667717911 -0.0005774723921803598
255041500.0 -0.0021564469066788156 -0.001819947612329509
270041000.0 0.0004242881922500003 -0.0003434128718821558
285040500.0 -0.014070682104269509 -0.015854365602090525
300040000.0 -0.0021724274348586315 0.0001652021977616284
315039500.0 0.003576893567026913 -3.766620078856061e-05
330039000.0 0.016159594744334472 0.008572685188419749
345038500.0 -0.005414103692607407 0.00782251886992644
360038000.0 0.00036879787172647516 0.001334742936799213
375037500.0 -0.0004970000797284509 -0.004818125150675513
390037000.0 -0.043899378295735716 0.09231855458747783
405036500.0 -0.00301789507323175 -0.0015732558627053527
420036000.0 0.006254630737675926 0.004782000523852073
435035500.0 0.03244313609801454 -0.01732862026044925
450035000.0 0.0008306966385544243 -0.008668413663050602
465034500.0 -0.004033044297024366 0.009728546525762674
480034000.0 -0.004525254331948513 -0.004617444956652071
495033500.0 0.003255266065251309 0.002259770952867661
510033000.0 0.002458560325518317 0.0014908422518000951
525032500.0 -0.002660815155189036 -4.523336502971496e-05
540032000.0 0.0005853961915570821 0.0031378957583061396
555031500.0 0.006370824408803572 0.005487331271540973
570031000.0 0.005251696307900579 -0.021915416934345292
585030500.0 -0.0026993239268895937 -0.00010158798695597815
600030000.0 0.003076572933497486 -0.021921080523165968
615029500.0 -0.005902199497174951 -0.010697393533365003
630029000.0 -0.0015110740863409167 0.0031783549886790817
645028500.0 -0.031397147299415014 -0.020514103356218116
660028000.0 -0.005347171252205731 -0.011083289071571106
675027500.0 0.026692112144222457 0.003908317825110969
690027000.0 -0.009192043149485374 -0.00032867145975887854
705026500.0 0.010679374356060933 0.00878273627181869
720026000.0 -0.006273211116463979 0.0011327109975999188
735025500.0 0.0012713424386981069 -0.006848382511672926
750025000.0 0.007416830187387797 -0.0021681760161399353
765024500.0 -0.051224676879060786 0.05344605947065995
780024000.0 -0.0178109297369275 0.01210513191851882
795023500.0 0.0006865449583758789 0.004115332700240539
810023000.0 0.01964006554742586 0.02042871477942271
825022500.0 0.0013695526729920725 -0.0012122701421784807
840022000.0 -0.0002234035027735544 0.0015818535568814455
855021500.0 0.0009094120868152086 0.0007417045059343864
870021000.0 -0.021430641818104477 5.29391977055716e-05
885020500.0 -0.005726271385043682 0.0090367949139898
900020000.0 0.0040319890685968866 0.0034220850294111437
915019500.0 0.004359124394503428 0.004430779958761245
930019000.0 0.00023674669448690085 0.009064637707584557
945018500.0 -0.00025432939322552356 -0.003694689935621175
960018000.0 0.0006138934466512272 0.004587828017645541
975017500.0 0.015277212971597391 -0.008809260414379941
990017000.0 0.0012935510980664267 -0.0026986762648150944
1005016500.0 0.0014463643658605306 0.011090084844298034
1020016000.0 0.008558004722428457 0.008822517266051587
1035015500.0 -0.0023694022464013334 0.00430845124252431
1050015000.0 -0.0032712791959170918 -0.04166208162389611
1065014500.0 -0.007801400591284261 -0.011163452987989663
1080014000.0 -0.00139983077376639 -0.003135193576130814
1095013500.0 -0.005407754639464458 0.005169024176661622
1110013000.0 -0.004344983401243984 -0.0029898489779248047
1125012500.0 -0.023676120965118095 0.004479123518889069
1140012000.0 -0.007090764887474897 0.005533774311568716
1155011500.0 0.069089634618183 0.05587640313320101
1170011000.0 -0.1521390193284872 -0.06672075691433219
1185010500.0 -0.003569173165658868 0.0035864537267665335
1200010000.0 -0.04726689768888081 -0.008929509054502191
1215009500.0 -0.0006526299878782186 -0.007791039806762597
1230009000.0 0.03748465546009416 0.19475296811096485
1245008500.0 -0.06008610957719345 0.0014801091097414415
1260008000.0 0.007931006969626316 0.037431245750987316
1275007500.0 -0.04655191444353474 -0.03446063790378699
1290007000.0 -0.001261690154206076 -0.030734051801905252
1305006500.0 -0.07531891155709146 -0.17570217102734387
1320006000.0 0.0012387347227967957 0.014859882923945297
1335005500.0 0.00540862188783618 0.013623946772686418
1350005000.0 0.016161210493968067 -0.017037222664592788
1365004500.0 0.033112668540806675 0.025155969393654942
1380004000.0 -0.004813561543761167 -0.006044904015819505
1395003500.0 -0.013976137979274031 0.035478886755662846
1410003000.0 0.03258850609829242 0.021167428986463153
1425002500.0 0.0005222068964309045 -0.00836710274273787
1440002000.0 -0.004522401957853172 -0.016290902012806616
1455001500.0 0.0015399410846997222 -0.0006329006954573474
1470001000.0 0.004637782561786669 0.02468355055393433
1485000500.0 0.012842166169929333 0.026090574632199964
1500000000.0 -0.03333129203303947 0.012272746221613043
