! Created with skrf 1.8.0 (http://scikit-rf.org).
# Hz S RI R 50.0 
!freq ReS11 ImS11
50000.0 -2.761117843909329e-05 2.8357148607574935e-05
15049500.0 2.9504641984852295e-06 1.88819872170581e-05
30049000.0 -4.497133857277588e-08 1.9837165948328785e-05
45048500.0 1.0915739100048678e-05 -3.773349710365977e-05
60048000.0 -8.204659084925916e-05 -3.463364804980585e-05
75047500.0 -4.5064055902338606e-05 -8.720050472496798e-05
90047000.0 1.0281046146441413e-05 -2.3555222881607112e-05
105046500.0 7.162386183126861e-05 1.4842759590187498e-05
120046000.0 -5.308363424210531e-05 -2.4112912144848557e-05
135045500.0 -5.691746855948569e-06 4.677471753850276e-05
150045000.0 -8.065112724488128e-05 2.304610360400976e-05
165044500.0 -6.618620128292021e-06 3.227430947867343e-05
180044000.0 -2.4929006475875972e-05 4.263072411226559e-05
195043500.0 -3.126244933505029e-05 2.7932778479142504e-05
210043000.0 4.4748369331217596e-08 1.209599876767637e-05
225042500.0 1.8842232502460088e-05 -1.3312224129858788e-06
240042000.0 3.149785648532698e-06 3.334931686914102e-05
255041500.0 2.0566145013248757e-05 5.3678016935550174e-05
270041000.0 2.6096616670201257e-05 -7.286279609908973e-05
285040500.0 3.173009954991021e-05 -1.645471184940794e-05
300040000.0 0.00012098553662233363 1.0661973166158752e-05
315039500.0 0.0025264749325482065 0.0010783042200191923
330039000.0 -6.140830708603208e-05 -0.0007023776817109015
345038500.0 0.00044221687275909546 -0.00025579953044402033
360038000.0 -3.424486978120529e-05 9.965375593472481e-05
375037500.0 0.00012158000901973663 -0.0005410139315352445
390037000.0 0.0002472900868932424 -4.6968322549526484e-05
405036500.0 -0.000537255815384234 -7.030433397382201e-05
420036000.0 0.00025074329359196676 0.0002221688782453432
435035500.0 0.0002476057561375388 7.140831021090796e-05
450035000.0 7.081996802538254e-05 -0.0002593253866960713
465034500.0 0.00015249875698859858 0.00037628521863506054
480034000.0 0.0005325908898581198 -0.0002902222008853181
495033500.0 0.00033128742566686123 -3.4269288228064856e-05
510033000.0 0.00022915268855232756 -0.00022358958624042622
525032500.0 0.00017527962786041714 -0.00016831770240496993
540032000.0 0.0003586185645794085 -4.462235746853626e-05
555031500.0 0.0001382769689989587 0.00023303920713587913
570031000.0 -3.896050389231298e-06 0.00028120807773732035
585030500.0 -0.0018237736546267238 0.003184957542763211
600030000.0 -0.0035682654176110423 -0.0025992724148576176
615029500.0 -0.00040272777874481643 -0.0019557297226675116
630029000.0 -0.0008323992833709476 0.000462241887288961
645028500.0 0.0009583772900030697 -0.0019024228904698623
660028000.0 -2.1855530870030193e-05 -0.0003489599598658545
675027500.0 -0.0002574373887630701 -0.0011006634579247122
690027000.0 0.00021640089046449457 -0.0007616657258519828
705026500.0 -8.501554886778834e-05 -0.00040915639045173234
720026000.0 3.3532166049182295e-05 -0.00032887282372499513
735025500.0 0.0005122212426161198 -0.0004175309409196094
750025000.0 0.0002929807299320732 -0.0010783769213349639
765024500.0 -0.0013600579550511096 0.00021910232693575637
780024000.0 0.00037988915084281237 -0.00014931657368222624
795023500.0 -3.218296806709076e-05 -0.000777887863357544
810023000.0 0.0006142866232375158 0.0007235768353827038
825022500.0 -3.98133863965366e-05 2.5751661947154935e-05
840022000.0 -0.00029736332700943486 -0.0014704961290429577
855021500.0 0.00017632281191466668 -0.0007947866987813954
870021000.0 -0.0017912701787072339 -0.0005219905127153012
885020500.0 -0.0005785867922102556 -0.000477509702756149
900020000.0 0.0015644548940587514 -0.0019325934780646194
915019500.0 -0.0005277188614055423 0.0010651510508988837
930019000.0 0.002848332959835311 -0.002102325144029047
945018500.0 0.0014564341548312285 -0.00018192095335109112
960018000.0 0.0017460604477738347 0.0005635098190403028
975017500.0 0.0002609359990987358 -0.0004610409646221359
990017000.0 -0.0009027010134955159 -0.00037520697322933566
1005016500.0 0.0011599425262335578 -0.006609859264695285
1020016000.0 -0.00039567600952469166 -0.0028577244406622617
1035015500.0 0.002868087860573972 -0.0010491369162859007
1050015000.0 0.0011140525961206573 9.467190634626943e-05
1065014500.0 -0.0022423335230510382 -0.0015939568943776116
1080014000.0 0.000960060800248103 -0.0005459899708843908
1095013500.0 0.0020978325170434684 0.00021630258319113303
1110013000.0 -0.00041021159085777157 -0.0018654110123157608
1125012500.0 0.0006121258145413605 -0.006911098789647693
1140012000.0 -3.7884609616989896e-05 -0.0017412486128357402
1155011500.0 0.0009091265318678675 0.0011077952586979018
1170011000.0 -0.0023366169375135717 0.003080116074848876
1185010500.0 -0.0026049599039098034 0.003625633327949665
1200010000.0 0.0009057476120576979 0.004245759926656352
1215009500.0 -0.0023002181832705473 0.0004565236350275209
1230009000.0 0.0037086657142117413 0.0003007885749613072
1245008500.0 0.0011320793621484703 -0.0018134662687319316
1260008000.0 0.008564619285153209 -0.0030437606757792307
1275007500.0 0.0007459403158727113 0.00030185876850313847
1290007000.0 -0.006435374315739766 0.018264305584097414
1305006500.0 0.006716216595923211 -0.0062738647284016616
1320006000.0 0.00015743217334362626 0.0007219845857262868
1335005500.0 0.0033616660059169697 0.0003835645525857281
1350005000.0 0.02074887215263601 -0.03863276926807378
1365004500.0 -0.00792187278979106 -0.0022442275506013537
1380004000.0 -0.0051807508433848294 -0.0006375177839584086
1395003500.0 -0.011090720530191616 -0.009132452326709757
1410003000.0 0.06220096230736121 0.011302594117508644
1425002500.0 0.010312528149560882 0.016996954866175574
1440002000.0 0.003846893945185352 0.00311628652512996
1455001500.0 0.00047160328117432386 1.0503216005521513e-05
1470001000.0 -0.0027773017470095417 0.012961787774832437
1485000500.0 -0.01692848982784983 -0.03425606107164246
1500000000.0 0.01128244023986217 -0.005577923824568138
