! Created with skrf 1.8.0 (http://scikit-rf.org).
# Hz S RI R 50.0 
!freq ReS11 ImS11 ReS21 ImS21 ReS12 ImS12 ReS22 ImS22
50000.0 0.0 0.0 -0.818918336 -0.013150174 0.0 0.0 0.0 0.0
15049500.0 0.0 0.0 -0.784683136 0.200704144 0.0 0.0 0.0 0.0
30049000.0 0.0 0.0 -0.714744832 0.3757992 0.0 0.0 0.0 0.0
45048500.0 0.0 0.0 -0.605950656 0.529309696 0.0 0.0 0.0 0.0
60048000.0 0.0 0.0 -0.467913568 0.651652224 0.0 0.0 0.0 0.0
75047500.0 0.0 0.0 -0.307680096 0.736958528 0.0 0.0 0.0 0.0
90047000.0 0.0 0.0 -0.126149384 0.782612224 0.0 0.0 0.0 0.0
105046500.0 0.0 0.0 0.05408168 0.789498112 0.0 0.0 0.0 0.0
120046000.0 0.0 0.0 0.227678896 0.756436416 0.0 0.0 0.0 0.0
135045500.0 0.0 0.0 0.388540576 0.68513312 0.0 0.0 0.0 0.0
150045000.0 0.0 0.0 0.530186944 0.581174464 0.0 0.0 0.0 0.0
165044500.0 0.0 0.0 0.64527392 0.449309152 0.0 0.0 0.0 0.0
180044000.0 0.0 0.0 0.727989696 0.295797152 0.0 0.0 0.0 0.0
195043500.0 0.0 0.0 0.775631232 0.127128888 0.0 0.0 0.0 0.0
210043000.0 0.0 0.0 0.78390656 -0.048671984 0.0 0.0 0.0 0.0
225042500.0 0.0 0.0 0.751934976 -0.222302256 0.0 0.0 0.0 0.0
240042000.0 0.0 0.0 0.680480384 -0.38441008 0.0 0.0 0.0 0.0
255041500.0 0.0 0.0 0.57417056 -0.526089728 0.0 0.0 0.0 0.0
270041000.0 0.0 0.0 0.438331136 -0.638526464 0.0 0.0 0.0 0.0
285040500.0 0.0 0.0 0.282526496 -0.717295488 0.0 0.0 0.0 0.0
300040000.0 0.0 0.0 0.12881748 -0.758160832 0.0 0.0 0.0 0.0
315039500.0 0.0 0.0 -0.042034356 -0.76427552 0.0 0.0 0.0 0.0
330039000.0 0.0 0.0 -0.208430592 -0.732999168 0.0 0.0 0.0 0.0
345038500.0 0.0 0.0 -0.365177824 -0.6694704 0.0 0.0 0.0 0.0
360038000.0 0.0 0.0 -0.504881984 -0.569558016 0.0 0.0 0.0 0.0
375037500.0 0.0 0.0 -0.616980864 -0.44513632 0.0 0.0 0.0 0.0
390037000.0 0.0 0.0 -0.699788608 -0.297559008 0.0 0.0 0.0 0.0
405036500.0 0.0 0.0 -0.74207168 -0.138583408 0.0 0.0 0.0 0.0
420036000.0 0.0 0.0 -0.746958912 0.026442768 0.0 0.0 0.0 0.0
435035500.0 0.0 0.0 -0.712614208 0.190961008 0.0 0.0 0.0 0.0
450035000.0 0.0 0.0 -0.638863808 0.341351968 0.0 0.0 0.0 0.0
465034500.0 0.0 0.0 -0.534735136 0.47338096 0.0 0.0 0.0 0.0
480034000.0 0.0 0.0 -0.407691424 0.572456832 0.0 0.0 0.0 0.0
495033500.0 0.0 0.0 -0.266816176 0.639949952 0.0 0.0 0.0 0.0
510033000.0 0.0 0.0 -0.117858752 0.674388992 0.0 0.0 0.0 0.0
525032500.0 0.0 0.0 0.03238058 0.677452352 0.0 0.0 0.0 0.0
540032000.0 0.0 0.0 0.176164304 0.649111232 0.0 0.0 0.0 0.0
555031500.0 0.0 0.0 0.312341728 0.594519104 0.0 0.0 0.0 0.0
570031000.0 0.0 0.0 0.433618528 0.511859648 0.0 0.0 0.0 0.0
585030500.0 0.0 0.0 0.536447584 0.406063552 0.0 0.0 0.0 0.0
600030000.0 0.0 0.0 0.611578752 0.290001024 0.0 0.0 0.0 0.0
615029500.0 0.0 0.0 0.66119648 0.145516976 0.0 0.0 0.0 0.0
630029000.0 0.0 0.0 0.674572224 -0.005259973 0.0 0.0 0.0 0.0
645028500.0 0.0 0.0 0.654753792 -0.156764768 0.0 0.0 0.0 0.0
660028000.0 0.0 0.0 0.59766752 -0.298518048 0.0 0.0 0.0 0.0
675027500.0 0.0 0.0 0.511062848 -0.421324544 0.0 0.0 0.0 0.0
690027000.0 0.0 0.0 0.399577216 -0.520078944 0.0 0.0 0.0 0.0
705026500.0 0.0 0.0 0.273942848 -0.588450112 0.0 0.0 0.0 0.0
720026000.0 0.0 0.0 0.136852832 -0.62498592 0.0 0.0 0.0 0.0
735025500.0 0.0 0.0 -0.004226302 -0.634009536 0.0 0.0 0.0 0.0
750025000.0 0.0 0.0 -0.13705544 -0.615854784 0.0 0.0 0.0 0.0
765024500.0 0.0 0.0 -0.262032512 -0.566624192 0.0 0.0 0.0 0.0
780024000.0 0.0 0.0 -0.365938336 -0.498541216 0.0 0.0 0.0 0.0
795023500.0 0.0 0.0 -0.472906528 -0.399956 0.0 0.0 0.0 0.0
810023000.0 0.0 0.0 -0.548290368 -0.28641392 0.0 0.0 0.0 0.0
825022500.0 0.0 0.0 -0.59688672 -0.155116432 0.0 0.0 0.0 0.0
840022000.0 0.0 0.0 -0.617068672 -0.01722633 0.0 0.0 0.0 0.0
855021500.0 0.0 0.0 -0.603268096 0.121860344 0.0 0.0 0.0 0.0
870021000.0 0.0 0.0 -0.557510912 0.254116304 0.0 0.0 0.0 0.0
885020500.0 0.0 0.0 -0.487187424 0.370542784 0.0 0.0 0.0 0.0
900020000.0 0.0 0.0 -0.37020544 0.476040288 0.0 0.0 0.0 0.0
915019500.0 0.0 0.0 -0.252680592 0.542728448 0.0 0.0 0.0 0.0
930019000.0 0.0 0.0 -0.132234248 0.582727552 0.0 0.0 0.0 0.0
945018500.0 0.0 0.0 -0.007332617 0.596739008 0.0 0.0 0.0 0.0
960018000.0 0.0 0.0 0.116805408 0.586838976 0.0 0.0 0.0 0.0
975017500.0 0.0 0.0 0.230621664 0.55881984 0.0 0.0 0.0 0.0
990017000.0 0.0 0.0 0.353518624 0.49997392 0.0 0.0 0.0 0.0
1005016500.0 0.0 0.0 0.456252448 0.42052032 0.0 0.0 0.0 0.0
1020016000.0 0.0 0.0 0.549890752 0.314469472 0.0 0.0 0.0 0.0
1035015500.0 0.0 0.0 0.616606976 0.194305936 0.0 0.0 0.0 0.0
1050015000.0 0.0 0.0 0.66410176 0.040297432 0.0 0.0 0.0 0.0
1065014500.0 0.0 0.0 0.664259776 -0.109344352 0.0 0.0 0.0 0.0
1080014000.0 0.0 0.0 0.636252992 -0.263308976 0.0 0.0 0.0 0.0
1095013500.0 0.0 0.0 0.564110528 -0.415823904 0.0 0.0 0.0 0.0
1110013000.0 0.0 0.0 0.457236416 -0.543021568 0.0 0.0 0.0 0.0
1125012500.0 0.0 0.0 0.320476288 -0.632644288 0.0 0.0 0.0 0.0
1140012000.0 0.0 0.0 0.162839888 -0.700975744 0.0 0.0 0.0 0.0
1155011500.0 0.0 0.0 -0.004745593 -0.710284416 0.0 0.0 0.0 0.0
1170011000.0 0.0 0.0 -0.163043808 -0.708112576 0.0 0.0 0.0 0.0
1185010500.0 0.0 0.0 -0.330476736 -0.674863424 0.0 0.0 0.0 0.0
1200010000.0 0.0 0.0 -0.479179008 -0.609271168 0.0 0.0 0.0 0.0
1215009500.0 0.0 0.0 -0.611592576 -0.511203872 0.0 0.0 0.0 0.0
1230009000.0 0.0 0.0 -0.734116224 -0.374609216 0.0 0.0 0.0 0.0
1245008500.0 0.0 0.0 -0.819246528 -0.208831728 0.0 0.0 0.0 0.0
1260008000.0 0.0 0.0 -0.86961568 -0.01156736 0.0 0.0 0.0 0.0
1275007500.0 0.0 0.0 -0.8857872 0.172844784 0.0 0.0 0.0 0.0
1290007000.0 0.0 0.0 -0.829363712 0.355878368 0.0 0.0 0.0 0.0
1305006500.0 0.0 0.0 -0.737408832 0.550790464 0.0 0.0 0.0 0.0
1320006000.0 0.0 0.0 -0.602462464 0.705867648 0.0 0.0 0.0 0.0
1335005500.0 0.0 0.0 -0.43892992 0.822663552 0.0 0.0 0.0 0.0
1350005000.0 0.0 0.0 -0.260211232 0.889517568 0.0 0.0 0.0 0.0
1365004500.0 0.0 0.0 -0.032221924 0.944867072 0.0 0.0 0.0 0.0
1380004000.0 0.0 0.0 0.10735644 0.942685056 0.0 0.0 0.0 0.0
1395003500.0 0.0 0.0 0.299736096 0.908015424 0.0 0.0 0.0 0.0
1410003000.0 0.0 0.0 0.464599744 0.86014816 0.0 0.0 0.0 0.0
1425002500.0 0.0 0.0 0.615206784 0.755531456 0.0 0.0 0.0 0.0
1440002000.0 0.0 0.0 0.774097152 0.639466496 0.0 0.0 0.0 0.0
1455001500.0 0.0 0.0 0.890620096 0.486489504 0.0 0.0 0.0 0.0
1470001000.0 0.0 0.0 0.97752896 0.319368032 0.0 0.0 0.0 0.0
1485000500.0 0.0 0.0 1.034704088 0.130343112 0.0 0.0 0.0 0.0
1500000000.0 0.0 0.0 1.045975564 -0.086136072 0.0 0.0 0.0 0.0
