! Created with skrf 1.8.0 (http://scikit-rf.org).
# Hz S RI R 50.0 
!freq ReS11 ImS11
50000.0 -0.006671769 -0.004050349
15049500.0 -0.001771944 0.005071313
30049000.0 -0.004975323 0.007277265
45048500.0 -0.010424664 0.00754741
60048000.0 -0.01732956 0.005209758
75047500.0 -0.024111504 0.000578709
90047000.0 -0.030243684 -0.006203203
105046500.0 -0.0341851 -0.014121968
120046000.0 -0.035550272 -0.022157696
135045500.0 -0.033767984 -0.029166398
150045000.0 -0.030054674 -0.034794076
165044500.0 -0.02427637 -0.037377404
180044000.0 -0.018442724 -0.034658692
195043500.0 -0.013091618 -0.030588876
210043000.0 -0.009727906 -0.023261288
225042500.0 -0.009058422 -0.014432188
240042000.0 -0.011959522 -0.005603726
255041500.0 -0.01813071 0.00124646
270041000.0 -0.026422846 0.004043783
285040500.0 -0.035468804 0.002349666
300040000.0 -0.041578796 -0.004844194
315039500.0 -0.046094728 -0.015457712
330039000.0 -0.044247172 -0.03044965
345038500.0 -0.034880636 -0.04769204
360038000.0 -0.016702914 -0.063025056
375037500.0 0.010257398 -0.0752342
390037000.0 0.044059632 -0.07877412
405036500.0 0.081960504 -0.074852184
420036000.0 0.120810216 -0.058934628
435035500.0 0.156259248 -0.033407808
450035000.0 0.183425808 0.001164171
465034500.0 0.202261872 0.04452924
480034000.0 0.206516256 0.089341544
495033500.0 0.196517968 0.13321136
510033000.0 0.176458992 0.169734272
525032500.0 0.142009504 0.195799072
540032000.0 0.09868424 0.202938752
555031500.0 0.062703224 0.193710064
570031000.0 0.031506218 0.17009952
585030500.0 0.011736302 0.132710176
600030000.0 0.001082745 0.091993136
615029500.0 0.007356518 0.044432556
630029000.0 0.02884978 -0.001413761
645028500.0 0.06496702 -0.036709104
660028000.0 0.111671344 -0.059910844
675027500.0 0.158697504 -0.069296176
690027000.0 0.205191536 -0.063113576
705026500.0 0.241606928 -0.038995464
720026000.0 0.26884496 0.002471474
735025500.0 0.280539648 0.054906644
750025000.0 0.270476032 0.1141106
765024500.0 0.230786368 0.171912368
780024000.0 0.156697216 0.216851904
795023500.0 0.076023768 0.220949968
810023000.0 -0.00921784 0.189058304
825022500.0 -0.075730432 0.136476656
840022000.0 -0.12033372 0.060010408
855021500.0 -0.14440776 -0.020177562
870021000.0 -0.163388896 -0.108575504
885020500.0 -0.170188464 -0.213419216
900020000.0 -0.160512256 -0.33900704
915019500.0 -0.206462512 -0.35921152
930019000.0 -0.259705456 -0.3477104
945018500.0 -0.306762048 -0.326765792
960018000.0 -0.35292464 -0.277993152
975017500.0 -0.36540464 -0.214003472
990017000.0 -0.366382272 -0.145586848
1005016500.0 -0.342913472 -0.08820472
1020016000.0 -0.298898528 -0.042582632
1035015500.0 -0.25064408 -0.01796596
1050015000.0 -0.192737632 0.00160272
1065014500.0 -0.133959712 -0.004918653
1080014000.0 -0.094147592 -0.024363848
1095013500.0 -0.060648888 -0.052261544
1110013000.0 -0.042950292 -0.089516904
1125012500.0 -0.038140592 -0.139125968
1140012000.0 -0.050860156 -0.169728208
1155011500.0 -0.081147376 -0.186047872
1170011000.0 -0.119708328 -0.201953456
1185010500.0 -0.146427072 -0.17068224
1200010000.0 -0.16969512 -0.148766752
1215009500.0 -0.178429488 -0.101761416
1230009000.0 -0.150951664 -0.072883592
1245008500.0 -0.124589936 -0.02485642
1260008000.0 -0.079848704 -0.023715476
1275007500.0 -0.033850396 -0.0331337
1290007000.0 0.004129633 -0.028115424
1305006500.0 0.024555734 -0.061865304
1320006000.0 0.03117844 -0.111543456
1335005500.0 0.02711587 -0.124113048
1350005000.0 0.011277422 -0.1616368
1365004500.0 -0.04119848 -0.180032528
1380004000.0 -0.072505752 -0.161706992
1395003500.0 -0.110766752 -0.099161616
1410003000.0 -0.129941032 -0.0534808
1425002500.0 -0.12773904 0.006124742
1440002000.0 -0.075151184 0.06420654
1455001500.0 -0.049890928 0.096335744
1470001000.0 0.016074234 0.12536208
1485000500.0 0.05175112 0.132708488
1500000000.0 0.116724256 0.133632792
