! Created with skrf 1.8.0 (http://scikit-rf.org).
# Hz S RI R 50.0 
!freq ReS11 ImS11
50000.0 -0.2621194164916161 -0.3147645860496336
15049500.0 -0.37817924316044693 -0.9483329289391583
30049000.0 3.728593000808287 -0.1064814070941491
45048500.0 -3.4202303820397937 -2.775175941609944
60048000.0 -1.7483410631873677 0.2786315172984778
75047500.0 0.7625279168330017 -0.8451241017301292
90047000.0 -0.019410324586830084 0.02725944383377636
105046500.0 -0.14028508434684286 -0.1598628018018023
120046000.0 0.13006386237259995 0.21844173311431864
135045500.0 -2.286923673180832 1.6597811813658159
150045000.0 0.48036620587304235 -0.972723014246948
165044500.0 -1.089343363059778 2.6983416974315335
180044000.0 -2.7251837161926447 0.17984904319611422
195043500.0 1.0676585912914438 2.656861365382463
210043000.0 0.2442517502616984 0.3246236167034137
225042500.0 -0.013239427051075925 -0.22482200855248494
240042000.0 -1.8816694890406054 0.4249916066234701
255041500.0 -2.6568447419381633 3.98802292545422
270041000.0 -0.8419353020252484 0.07055933392456383
285040500.0 0.13074817609848988 3.0362373948361543
300040000.0 -1.5815732569484657 -1.3476267636636459
315039500.0 1.115933502827913 0.9719158396540083
330039000.0 0.19006844823475066 0.706095982313221
345038500.0 -0.4476353635782958 1.5163075121649252
360038000.0 -2.095724699664743 2.2137327842412833
375037500.0 -0.37108453771943667 -0.7032577537837976
390037000.0 -0.542481260998986 0.5306190322337093
405036500.0 0.8084111644676417 -0.2765555054534732
420036000.0 -1.2412818481826424 1.079396283468376
435035500.0 0.8742506818430619 10.676306355164684
450035000.0 -1.4598710426317936 -1.3139662654415427
465034500.0 1.8093520905197376 -3.4663389470429604
480034000.0 -0.46572248781516096 -0.8593166877342525
495033500.0 3.647066830842878 3.5634138940753077
510033000.0 0.8186821341110536 -0.3987058256844903
525032500.0 -0.7476443652423056 -0.22823822056385543
540032000.0 2.0863360680246203 0.08676870030316919
555031500.0 1.5912600520429 1.4159712661866442
570031000.0 -1.0392378000577656 -0.8115892073085764
585030500.0 -0.4611766216890546 0.9432789759876739
600030000.0 0.7936295454132292 0.318893734939881
615029500.0 -3.564696694001811 -2.6232231281666247
630029000.0 0.27363939698614126 -1.0532700891236086
645028500.0 -0.982592637785914 1.8504803379994055
660028000.0 0.6135605054689027 -0.5778474428885204
675027500.0 0.12360855818680495 0.5879965549558227
690027000.0 1.4851201456971899 0.25648726370210234
705026500.0 0.0749914371516128 0.6146779549441201
720026000.0 0.13239885210759697 -0.47467111319488
735025500.0 -0.45989462971815964 -1.9410521500810023
750025000.0 -1.4055992983788244 -0.684992353753651
765024500.0 -3.8179752802258085 -2.842795447561009
780024000.0 4.965654402149277 2.7805016827852826
795023500.0 0.36384057001512926 -1.3718456351000972
810023000.0 0.8337084053066753 1.0010036656142327
825022500.0 1.0580646270875174 1.140111430587586
840022000.0 -5.740244416626463 -1.0180835272477746
855021500.0 -3.3246553184789227 2.661268749288812
870021000.0 -0.46358839206384145 0.9598229350876458
885020500.0 -4.08072189771601 1.9074727176770139
900020000.0 -6.415870702160881 5.760932566639357
915019500.0 -0.35785086229237656 -0.6540060543854846
930019000.0 -0.4213917291146145 0.5073767717053597
945018500.0 1.5137861318947516 -0.44015156089490404
960018000.0 -9.491375870012362 -13.702908166033444
975017500.0 0.25245509620444123 -0.4040885646218619
990017000.0 0.2935862502233202 1.3315713177320803
1005016500.0 0.314339820508156 -6.178196254853103
1020016000.0 -0.5348023086856515 0.3401472024058865
1035015500.0 0.7938608833337553 -0.4044764777552772
1050015000.0 0.20281644459704606 -0.6116822684618903
1065014500.0 1.9427305796811711 0.07443428650155019
1080014000.0 -0.2482055534276085 -0.9048080220381908
1095013500.0 1.1462958123896663 9.500302244896927
1110013000.0 -1.2104269473193825 0.5796882422902289
1125012500.0 0.5987318896836246 -0.6905896336515323
1140012000.0 -0.3352854787880971 1.3876540848859256
1155011500.0 -0.21577782704844645 0.5871532836979485
1170011000.0 -2.948305653476099 1.7385494178328507
1185010500.0 0.8295468964625605 -0.6887610665570748
1200010000.0 1.4396197961866277 0.40767179343870885
1215009500.0 -1.4043061044108403 0.783773375616071
1230009000.0 1.2056356054772506 4.437271127839544
1245008500.0 -1.799449967840472 -0.9204069653305427
1260008000.0 0.7016293580996416 -0.07122891189132438
1275007500.0 -0.13440361876929732 -1.9446628091116354
1290007000.0 -1.1687652764470664 -1.1611910610869145
1305006500.0 -2.265215323813136 -2.6687962571929846
1320006000.0 -2.335016450538994 -2.4607644623124356
1335005500.0 -0.7030324374662118 0.772035566967395
1350005000.0 2.081615719511202 -0.7730489408391498
1365004500.0 -1.0253134002614501 1.2566887967815912
1380004000.0 0.6336098823944497 0.845937024273578
1395003500.0 1.458766243198677 0.8030754016859319
1410003000.0 -0.27932858215699913 -0.4403615164055991
1425002500.0 0.0624026766992208 -1.1265333325343736
1440002000.0 3.2474489760052045 -2.392324721500923
1455001500.0 0.5606617278351128 2.884418039700641
1470001000.0 -1.7357979180620728 -0.7640788670963153
1485000500.0 0.609727497583585 -4.207969265509494
1500000000.0 0.3370625036786761 1.5817197857246696
