! Created with skrf 1.8.0 (http://scikit-rf.org).
# Hz S RI R 50.0 
!freq ReS11 ImS11
50000.0 -6.395884254738524e-05 4.209790333618542e-05
15049500.0 8.803057176663047e-05 1.9350464515480886e-05
30049000.0 -0.0001501991825014706 0.00014686849933749939
45048500.0 -0.00013728738166805105 -0.00020112602129581593
60048000.0 0.0001165995971258465 -1.0521622822502176e-05
75047500.0 -0.00015134820617695736 -1.1111305680963773e-05
90047000.0 -1.4610063018148773e-05 -0.00012038666760896024
105046500.0 -7.926154653628804e-05 -2.509237989126613e-05
120046000.0 -3.2131318302330593e-05 6.623175914358791e-05
135045500.0 -7.396543134275471e-05 0.00019443204173546935
150045000.0 -0.00013453239574620946 -3.004018513256991e-05
165044500.0 -0.00011572161690547928 -0.00013875612449398584
180044000.0 0.00021609968504214327 -4.7054893330705e-05
195043500.0 0.0003266131378423521 -3.0038036286806865e-05
210043000.0 2.7930029019989023e-05 4.158167780265847e-05
225042500.0 -2.385858023968662e-05 4.4530519219727186e-05
240042000.0 -0.00016540261500647734 -6.205524328742786e-05
255041500.0 0.0001893319712492737 -0.00017167636618261404
270041000.0 -8.600849740082964e-06 -1.9869314387995515e-05
285040500.0 0.00028968310299560266 -9.326541265065264e-05
300040000.0 0.00038687227024485716 0.001234037304552316
315039500.0 0.0007409159428048553 0.0009006029456790773
330039000.0 -0.000991952205121217 0.0001768613478325316
345038500.0 0.0007633777069393064 -0.0012025600014261414
360038000.0 0.0022693477084811658 -0.0020973709688588997
375037500.0 0.00033687842770867244 0.0004730029498383688
390037000.0 -0.0011459478533496989 0.0007906740302456363
405036500.0 -0.0003252815840403337 -0.00012112735785305152
420036000.0 -0.0007512635298993859 0.000634837081927917
435035500.0 -0.008368001804767832 0.008796462788839216
450035000.0 -0.0002660876008871022 -0.0011749222445423954
465034500.0 0.005385319590239867 0.0008776112815701584
480034000.0 0.0002819722330238975 0.0009457310898322384
495033500.0 -0.0016016038913849282 0.004020016808065641
510033000.0 -0.00028167563304009685 -0.00032706062268714203
525032500.0 -4.8393831713754585e-05 0.0005833103898569571
540032000.0 0.0013861289332151839 0.0010341481264590905
555031500.0 0.0012717376507942006 0.00021499936775498364
570031000.0 0.0010109990312353366 0.001711913935215116
585030500.0 -0.00022437822359981963 0.0021086328654336102
600030000.0 -0.0002474565498480938 0.0003438621272578491
615029500.0 -0.002511732651679239 -0.005619795934784513
630029000.0 0.0009874700202446842 -0.0010503107106818786
645028500.0 -0.0012609206481105505 0.0003553927688639885
660028000.0 -3.81544790098627e-05 -0.0010736254823053995
675027500.0 -0.0018216204938857473 0.0006568737989854801
690027000.0 0.0007207292337382132 7.511927294481556e-05
705026500.0 7.370688939233406e-05 -0.0004099862804590388
720026000.0 0.00011698661379495703 -0.0013166226551699274
735025500.0 -0.001249140450070208 0.0027818004497004102
750025000.0 0.0008459792977915262 -0.0016929100586708379
765024500.0 0.003165638990130463 0.005178187233472528
780024000.0 -0.03826606769531138 0.007437701357491343
795023500.0 -0.0023278053820656114 -0.0004939765227774203
810023000.0 -0.0017512509859193273 -0.0004119465659431483
825022500.0 0.00012259865676423067 0.0016222357218581786
840022000.0 -0.0059498378146435795 0.005886868425118461
855021500.0 -0.0037701116381787967 0.004753004302459899
870021000.0 0.00016689843121139297 -0.0007796272825670525
885020500.0 0.011880748319674082 -0.004946159514076531
900020000.0 -0.017783844722163884 -0.03448586558611238
915019500.0 -0.004123712519493119 0.003185797538036569
930019000.0 0.0010653426187846975 -0.0024613834525712367
945018500.0 -0.004081871613420669 -0.007763555214820988
960018000.0 -0.05119630834192655 0.12593753017311526
975017500.0 0.0034617988083232567 -0.001268551530764093
990017000.0 -0.009134529304621008 -0.014194158691391054
1005016500.0 0.014508269837520541 0.04668399900343199
1020016000.0 -0.003126694146559433 0.00046431311857226295
1035015500.0 -0.00400790200912305 0.0017696162808762998
1050015000.0 -0.0010386764397453754 -0.003999076151496029
1065014500.0 0.008518114125442278 0.005707728914881234
1080014000.0 0.0034864442848695234 -0.002070453474205007
1095013500.0 -0.08883489196881353 -0.05345876525795727
1110013000.0 -0.0009164762735475808 -0.0029152636199134725
1125012500.0 0.002469372769390128 0.006242484540271326
1140012000.0 0.00826582992588414 0.007337030209733691
1155011500.0 -0.005223029588593467 4.8258314846859736e-05
1170011000.0 0.025836639988483946 0.011731843348064555
1185010500.0 0.014135067874167555 0.003302310205295649
1200010000.0 0.003143564218557496 -0.009018245290428875
1215009500.0 0.009199107369509909 -0.009994317292581064
1230009000.0 0.0832562552442563 -0.007908688349862206
1245008500.0 0.024036743154655954 -0.020108246419357344
1260008000.0 0.004097502911471378 -0.0024974259021587467
1275007500.0 -0.038500343850158665 0.0037057842342837232
1290007000.0 0.01176649489772298 -0.005037049476309089
1305006500.0 0.008871760729923777 0.02703655431969701
1320006000.0 -0.07666958463288498 0.05364022006496267
1335005500.0 -0.021669101200816398 0.022620378052654017
1350005000.0 0.0031747513549672604 -0.019698226236871383
1365004500.0 0.04551276829204174 -0.011956677213949378
1380004000.0 0.008177418715220899 0.022160197509678216
1395003500.0 -0.003765770587430572 0.029829266030174467
1410003000.0 -0.026657154693500853 -0.004002221208336721
1425002500.0 0.024748420229235565 0.013689970267348148
1440002000.0 0.1225586148768241 -0.11844937529271228
1455001500.0 0.10388652697836523 0.03571954288865186
1470001000.0 -0.01127079493484805 -0.007200786669083379
1485000500.0 -0.06926143624874506 -0.04381885972361483
1500000000.0 0.02398207603222379 -0.042180006305788144
