! Created with skrf 1.8.0 (http://scikit-rf.org).
# Hz S RI R 50.0 
!freq ReS11 ImS11 ReS21 ImS21 ReS12 ImS12 ReS22 ImS22
50000.0 0.997732928 0.000436685 -1.14e-06 -6.2277e-05 0.0 0.0 0.0 0.0
15049500.0 0.940338432 0.360770688 -1.2372e-05 9.63e-07 0.0 0.0 0.0 0.0
30049000.0 0.750313856 0.673082304 -4.3643e-05 -3.5049e-05 0.0 0.0 0.0 0.0
45048500.0 0.461724832 0.892898048 -8.441e-06 -9.465e-06 0.0 0.0 0.0 0.0
60048000.0 0.102896856 1.014161826 -4.6182e-05 3.669e-06 0.0 0.0 0.0 0.0
75047500.0 -0.273910656 0.98840224 -4.2241e-05 1.1227e-05 0.0 0.0 0.0 0.0
90047000.0 -0.61997632 0.819918016 -1.8019e-05 2.8406e-05 0.0 0.0 0.0 0.0
105046500.0 -0.8919888 0.546062336 -5.0724e-05 3.087e-05 0.0 0.0 0.0 0.0
120046000.0 -1.042686104 0.184916144 -5.5326e-05 -2.117e-05 0.0 0.0 0.0 0.0
135045500.0 -1.046459316 -0.210699536 -4.906e-05 3.8132e-05 0.0 0.0 0.0 0.0
150045000.0 -0.91509696 -0.586699264 -2.2349e-05 3.4149e-05 0.0 0.0 0.0 0.0
165044500.0 -0.647989632 -0.886087808 -4.204e-05 1.3683e-05 0.0 0.0 0.0 0.0
180044000.0 -0.313455392 -1.045584084 -4.851e-06 4.2647e-05 0.0 0.0 0.0 0.0
195043500.0 0.065701752 -1.102183104 -2.275e-06 4.7781e-05 0.0 0.0 0.0 0.0
210043000.0 0.436351264 -1.02252543 -2.9934e-05 3.3396e-05 0.0 0.0 0.0 0.0
225042500.0 0.754254976 -0.821059904 -2.6988e-05 5.1194e-05 0.0 0.0 0.0 0.0
240042000.0 0.997362304 -0.53869824 6.417e-06 4.6747e-05 0.0 0.0 0.0 0.0
255041500.0 1.137223248 -0.185246032 4.2149e-05 3.9108e-05 0.0 0.0 0.0 0.0
270041000.0 1.151744016 0.223858672 2.6683e-05 4.1632e-05 0.0 0.0 0.0 0.0
285040500.0 1.022738338 0.636198016 3.9551e-05 2.6126e-05 0.0 0.0 0.0 0.0
300040000.0 0.685802496 0.956552448 -0.000100052 -0.000160355 0.0 0.0 0.0 0.0
315039500.0 0.317667648 1.190441968 -0.000202753 0.000229389 0.0 0.0 0.0 0.0
330039000.0 -0.139080944 1.260102864 0.000323535 -0.000283507 0.0 0.0 0.0 0.0
345038500.0 -0.59914944 1.141620272 0.000169591 -0.000326927 0.0 0.0 0.0 0.0
360038000.0 -0.971855168 0.87110112 -0.000187641 4.6374e-05 0.0 0.0 0.0 0.0
375037500.0 -1.256244784 0.475990144 0.000269782 0.00030684 0.0 0.0 0.0 0.0
390037000.0 -1.381076224 -0.002322769 -0.000101066 4.89e-07 0.0 0.0 0.0 0.0
405036500.0 -1.292353984 -0.523091072 -0.000360513 0.000173635 0.0 0.0 0.0 0.0
420036000.0 -1.033922912 -0.970130816 8.1598e-05 9.2338e-05 0.0 0.0 0.0 0.0
435035500.0 -0.6299616 -1.271974688 3.2684e-05 -9.1772e-05 0.0 0.0 0.0 0.0
450035000.0 -0.152278624 -1.395291104 0.000322516 3.2928e-05 0.0 0.0 0.0 0.0
465034500.0 0.306892 -1.380686176 0.000242838 -0.000127002 0.0 0.0 0.0 0.0
480034000.0 0.73352352 -1.212256192 0.000660741 0.0006138 0.0 0.0 0.0 0.0
495033500.0 1.080037832 -0.915046208 0.000280463 9.9024e-05 0.0 0.0 0.0 0.0
510033000.0 1.321774944 -0.524518784 0.000253823 -0.00022578 0.0 0.0 0.0 0.0
525032500.0 1.410302272 -0.065281488 0.000489338 -0.000216908 0.0 0.0 0.0 0.0
540032000.0 1.361166944 0.38788592 5.2347e-05 -0.000410594 0.0 0.0 0.0 0.0
555031500.0 1.153947712 0.803409856 0.000120218 -0.000222016 0.0 0.0 0.0 0.0
570031000.0 0.814426944 1.115732672 -0.000212549 -0.000652489 0.0 0.0 0.0 0.0
585030500.0 0.390913728 1.289666304 0.000574145 -0.000136764 0.0 0.0 0.0 0.0
600030000.0 -0.056071672 1.351137504 0.000266343 -0.000272099 0.0 0.0 0.0 0.0
615029500.0 -0.499400128 1.227113968 -0.000291023 -0.000375345 0.0 0.0 0.0 0.0
630029000.0 -0.878768256 0.96497696 0.00022695 -0.000683786 0.0 0.0 0.0 0.0
645028500.0 -1.170121312 0.579976192 -0.000183219 -0.000571882 0.0 0.0 0.0 0.0
660028000.0 -1.31476272 0.105987048 0.000271484 -0.000324254 0.0 0.0 0.0 0.0
675027500.0 -1.272462496 -0.395509472 -0.000147482 -0.000276832 0.0 0.0 0.0 0.0
690027000.0 -1.019146562 -0.866856128 -4.2696e-05 -0.000893217 0.0 0.0 0.0 0.0
705026500.0 -0.610943232 -1.172366864 7.4284e-05 -0.000438073 0.0 0.0 0.0 0.0
720026000.0 -0.140591584 -1.269207712 -0.000281772 -0.000629856 0.0 0.0 0.0 0.0
735025500.0 0.316944992 -1.212866656 2.3704e-05 -0.000143659 0.0 0.0 0.0 0.0
750025000.0 0.710270144 -0.999633152 1.9692e-05 -0.000177628 0.0 0.0 0.0 0.0
765024500.0 1.005342484 -0.660324736 -0.000124649 -0.000827503 0.0 0.0 0.0 0.0
780024000.0 1.170620448 -0.215954624 -0.000200784 -0.000600035 0.0 0.0 0.0 0.0
795023500.0 1.100507144 0.211216736 -0.000515644 -0.000520777 0.0 0.0 0.0 0.0
810023000.0 0.868873728 0.555350528 -0.000191261 -0.000710736 0.0 0.0 0.0 0.0
825022500.0 0.557293696 0.73371424 -0.000505077 -0.000163305 0.0 0.0 0.0 0.0
840022000.0 0.279320384 0.780231168 -0.000224502 -0.000838603 0.0 0.0 0.0 0.0
855021500.0 0.054781736 0.762669696 0.000127228 -0.000435976 0.0 0.0 0.0 0.0
870021000.0 -0.127460536 0.73092288 -0.000340122 -4.9996e-05 0.0 0.0 0.0 0.0
885020500.0 -0.29315584 0.721907904 0.000170774 -0.000718565 0.0 0.0 0.0 0.0
900020000.0 -0.52106928 0.741106368 0.001086468 0.0022891 0.0 0.0 0.0 0.0
915019500.0 -0.50048976 0.73499616 0.000956868 0.000375015 0.0 0.0 0.0 0.0
930019000.0 -0.491004896 0.740474624 0.001463234 -0.002036804 0.0 0.0 0.0 0.0
945018500.0 -0.469923168 0.742762176 0.000939862 -0.001137639 0.0 0.0 0.0 0.0
960018000.0 -0.455673728 0.745419328 0.0017186 -0.000262277 0.0 0.0 0.0 0.0
975017500.0 -0.43016304 0.749397248 0.0012729 -0.000990369 0.0 0.0 0.0 0.0
990017000.0 -0.412068672 0.755255168 0.00104703 0.00031221 0.0 0.0 0.0 0.0
1005016500.0 -0.398231104 0.763217792 -0.000414346 -0.001770045 0.0 0.0 0.0 0.0
1020016000.0 -0.369426176 0.768234368 0.000215471 0.001074947 0.0 0.0 0.0 0.0
1035015500.0 -0.358088384 0.773406976 0.002048721 -0.000106888 0.0 0.0 0.0 0.0
1050015000.0 -0.33236784 0.795898816 0.000133378 -0.002680155 0.0 0.0 0.0 0.0
1065014500.0 -0.30764112 0.783491136 -0.000330987 -0.002113971 0.0 0.0 0.0 0.0
1080014000.0 -0.284275648 0.790469632 0.00046394 -0.000822582 0.0 0.0 0.0 0.0
1095013500.0 -0.261741936 0.795809024 -0.000355252 -0.001669936 0.0 0.0 0.0 0.0
1110013000.0 -0.232646912 0.7973808 0.001908961 -0.005489198 0.0 0.0 0.0 0.0
1125012500.0 -0.217249312 0.797167552 -0.000876091 -0.000471277 0.0 0.0 0.0 0.0
1140012000.0 -0.187385296 0.802974592 0.0014196 -0.003516644 0.0 0.0 0.0 0.0
1155011500.0 -0.125994656 0.811113408 0.002462135 0.000222757 0.0 0.0 0.0 0.0
1170011000.0 -0.125101912 0.814033536 -0.004595794 -0.001640481 0.0 0.0 0.0 0.0
1185010500.0 -0.100962512 0.798843072 -0.000155956 0.000736751 0.0 0.0 0.0 0.0
1200010000.0 -0.078138072 0.799870336 -0.000208303 -0.000427375 0.0 0.0 0.0 0.0
1215009500.0 -0.050431056 0.805740352 -0.004734185 -0.002318497 0.0 0.0 0.0 0.0
1230009000.0 -0.01326186 0.809583872 0.001237316 -0.000698256 0.0 0.0 0.0 0.0
1245008500.0 0.012883318 0.805545792 -0.005293573 -0.003918882 0.0 0.0 0.0 0.0
1260008000.0 0.04056522 0.805902912 -0.004033186 -0.002591901 0.0 0.0 0.0 0.0
1275007500.0 0.088507952 0.80005792 0.001965647 0.000731034 0.0 0.0 0.0 0.0
1290007000.0 0.107817912 0.793435456 0.011413114 -0.004181143 0.0 0.0 0.0 0.0
1305006500.0 0.141118912 0.777370368 -0.000478566 -0.001600167 0.0 0.0 0.0 0.0
1320006000.0 0.190214016 0.797386688 1.9576e-05 -0.003033054 0.0 0.0 0.0 0.0
1335005500.0 0.22189256 0.773819008 -0.00306464 0.00263434 0.0 0.0 0.0 0.0
1350005000.0 0.238292656 0.751432704 -0.001422496 0.002192793 0.0 0.0 0.0 0.0
1365004500.0 0.284102816 0.71446112 0.00323642 0.004039009 0.0 0.0 0.0 0.0
1380004000.0 0.296371488 0.7395216 0.000736277 0.007945014 0.0 0.0 0.0 0.0
1395003500.0 0.320079392 0.723245248 -0.002473682 -0.000935614 0.0 0.0 0.0 0.0
1410003000.0 0.338758656 0.718342592 0.01141811 0.011366866 0.0 0.0 0.0 0.0
1425002500.0 0.366073312 0.69755392 0.000449075 0.011618138 0.0 0.0 0.0 0.0
1440002000.0 0.415964032 0.6600656 0.003749683 0.001267247 0.0 0.0 0.0 0.0
1455001500.0 0.420327296 0.667765632 -0.005573205 0.008320253 0.0 0.0 0.0 0.0
1470001000.0 0.451053952 0.630327424 0.012803798 -0.008140938 0.0 0.0 0.0 0.0
1485000500.0 0.466796 0.62206336 -0.005481756 0.00698553 0.0 0.0 0.0 0.0
1500000000.0 0.476103648 0.616889856 0.006471406 -0.002207391 0.0 0.0 0.0 0.0
