! Created with skrf 1.8.0 (http://scikit-rf.org).
# Hz S RI R 50.0 
!freq ReS11 ImS11 ReS21 ImS21 ReS12 ImS12 ReS22 ImS22
50000.0 0.0 0.0 -0.817715328 -0.01271133 0.0 0.0 0.0 0.0
15049500.0 0.0 0.0 -0.786256192 0.2013788 0.0 0.0 0.0 0.0
30049000.0 0.0 0.0 -0.716135616 0.376989472 0.0 0.0 0.0 0.0
45048500.0 0.0 0.0 -0.607315392 0.530809984 0.0 0.0 0.0 0.0
60048000.0 0.0 0.0 -0.468663264 0.6535488 0.0 0.0 0.0 0.0
75047500.0 0.0 0.0 -0.308005664 0.738934848 0.0 0.0 0.0 0.0
90047000.0 0.0 0.0 -0.125911984 0.785012736 0.0 0.0 0.0 0.0
105046500.0 0.0 0.0 0.055203484 0.792172608 0.0 0.0 0.0 0.0
120046000.0 0.0 0.0 0.229294272 0.758529152 0.0 0.0 0.0 0.0
135045500.0 0.0 0.0 0.39114016 0.686557056 0.0 0.0 0.0 0.0
150045000.0 0.0 0.0 0.533069504 0.582201344 0.0 0.0 0.0 0.0
165044500.0 0.0 0.0 0.64823008 0.449072064 0.0 0.0 0.0 0.0
180044000.0 0.0 0.0 0.731201152 0.294817056 0.0 0.0 0.0 0.0
195043500.0 0.0 0.0 0.778005312 0.125643176 0.0 0.0 0.0 0.0
210043000.0 0.0 0.0 0.785998336 -0.050733204 0.0 0.0 0.0 0.0
225042500.0 0.0 0.0 0.753641536 -0.224619952 0.0 0.0 0.0 0.0
240042000.0 0.0 0.0 0.68195936 -0.387008576 0.0 0.0 0.0 0.0
255041500.0 0.0 0.0 0.574302976 -0.528474688 0.0 0.0 0.0 0.0
270041000.0 0.0 0.0 0.438209376 -0.641191808 0.0 0.0 0.0 0.0
285040500.0 0.0 0.0 0.281544672 -0.718981888 0.0 0.0 0.0 0.0
300040000.0 0.0 0.0 0.128456656 -0.759503872 0.0 0.0 0.0 0.0
315039500.0 0.0 0.0 -0.044918728 -0.767831488 0.0 0.0 0.0 0.0
330039000.0 0.0 0.0 -0.212279936 -0.73798208 0.0 0.0 0.0 0.0
345038500.0 0.0 0.0 -0.370543936 -0.668793536 0.0 0.0 0.0 0.0
360038000.0 0.0 0.0 -0.507121984 -0.571294784 0.0 0.0 0.0 0.0
375037500.0 0.0 0.0 -0.618414528 -0.44595136 0.0 0.0 0.0 0.0
390037000.0 0.0 0.0 -0.698193536 -0.297284416 0.0 0.0 0.0 0.0
405036500.0 0.0 0.0 -0.74492288 -0.137865264 0.0 0.0 0.0 0.0
420036000.0 0.0 0.0 -0.74939616 0.028943094 0.0 0.0 0.0 0.0
435035500.0 0.0 0.0 -0.713761728 0.194291792 0.0 0.0 0.0 0.0
450035000.0 0.0 0.0 -0.638724672 0.344590944 0.0 0.0 0.0 0.0
465034500.0 0.0 0.0 -0.534539712 0.477201568 0.0 0.0 0.0 0.0
480034000.0 0.0 0.0 -0.407610272 0.576461056 0.0 0.0 0.0 0.0
495033500.0 0.0 0.0 -0.264523632 0.642785152 0.0 0.0 0.0 0.0
510033000.0 0.0 0.0 -0.114956392 0.675785728 0.0 0.0 0.0 0.0
525032500.0 0.0 0.0 0.034998468 0.678545088 0.0 0.0 0.0 0.0
540032000.0 0.0 0.0 0.181961888 0.65247424 0.0 0.0 0.0 0.0
555031500.0 0.0 0.0 0.314842528 0.595442048 0.0 0.0 0.0 0.0
570031000.0 0.0 0.0 0.436652448 0.511382624 0.0 0.0 0.0 0.0
585030500.0 0.0 0.0 0.53890336 0.403377312 0.0 0.0 0.0 0.0
600030000.0 0.0 0.0 0.616488192 0.286836224 0.0 0.0 0.0 0.0
615029500.0 0.0 0.0 0.66310976 0.143583424 0.0 0.0 0.0 0.0
630029000.0 0.0 0.0 0.677221632 -0.008672746 0.0 0.0 0.0 0.0
645028500.0 0.0 0.0 0.655238976 -0.160840192 0.0 0.0 0.0 0.0
660028000.0 0.0 0.0 0.597868416 -0.303103104 0.0 0.0 0.0 0.0
675027500.0 0.0 0.0 0.509647424 -0.427449888 0.0 0.0 0.0 0.0
690027000.0 0.0 0.0 0.396870144 -0.522092832 0.0 0.0 0.0 0.0
705026500.0 0.0 0.0 0.270279456 -0.592775552 0.0 0.0 0.0 0.0
720026000.0 0.0 0.0 0.133587104 -0.629406144 0.0 0.0 0.0 0.0
735025500.0 0.0 0.0 -0.007006049 -0.635915136 0.0 0.0 0.0 0.0
750025000.0 0.0 0.0 -0.141116448 -0.61574944 0.0 0.0 0.0 0.0
765024500.0 0.0 0.0 -0.267255936 -0.567991104 0.0 0.0 0.0 0.0
780024000.0 0.0 0.0 -0.389223488 -0.497193056 0.0 0.0 0.0 0.0
795023500.0 0.0 0.0 -0.477833376 -0.398867616 0.0 0.0 0.0 0.0
810023000.0 0.0 0.0 -0.552810816 -0.282363552 0.0 0.0 0.0 0.0
825022500.0 0.0 0.0 -0.600703232 -0.151233536 0.0 0.0 0.0 0.0
840022000.0 0.0 0.0 -0.618004928 -0.012347944 0.0 0.0 0.0 0.0
855021500.0 0.0 0.0 -0.60342656 0.127676264 0.0 0.0 0.0 0.0
870021000.0 0.0 0.0 -0.558636928 0.261127232 0.0 0.0 0.0 0.0
885020500.0 0.0 0.0 -0.486941376 0.374976288 0.0 0.0 0.0 0.0
900020000.0 0.0 0.0 -0.36417072 0.480160384 0.0 0.0 0.0 0.0
915019500.0 0.0 0.0 -0.252934064 0.542153984 0.0 0.0 0.0 0.0
930019000.0 0.0 0.0 -0.132525816 0.583429056 0.0 0.0 0.0 0.0
945018500.0 0.0 0.0 -0.004263404 0.60090528 0.0 0.0 0.0 0.0
960018000.0 0.0 0.0 0.122944232 0.590576832 0.0 0.0 0.0 0.0
975017500.0 0.0 0.0 0.243425296 0.559788672 0.0 0.0 0.0 0.0
990017000.0 0.0 0.0 0.356066272 0.498935712 0.0 0.0 0.0 0.0
1005016500.0 0.0 0.0 0.4643144 0.42140032 0.0 0.0 0.0 0.0
1020016000.0 0.0 0.0 0.551528256 0.31547712 0.0 0.0 0.0 0.0
1035015500.0 0.0 0.0 0.620737344 0.189072576 0.0 0.0 0.0 0.0
1050015000.0 0.0 0.0 0.660852416 0.058638256 0.0 0.0 0.0 0.0
1065014500.0 0.0 0.0 0.667744064 -0.11021072 0.0 0.0 0.0 0.0
1080014000.0 0.0 0.0 0.63127008 -0.269276832 0.0 0.0 0.0 0.0
1095013500.0 0.0 0.0 0.563966528 -0.422589472 0.0 0.0 0.0 0.0
1110013000.0 0.0 0.0 0.452427808 -0.545716416 0.0 0.0 0.0 0.0
1125012500.0 0.0 0.0 0.31469232 -0.636050624 0.0 0.0 0.0 0.0
1140012000.0 0.0 0.0 0.153970368 -0.699960768 0.0 0.0 0.0 0.0
1155011500.0 0.0 0.0 -0.017921632 -0.742694528 0.0 0.0 0.0 0.0
1170011000.0 0.0 0.0 -0.158543616 -0.737488896 0.0 0.0 0.0 0.0
1185010500.0 0.0 0.0 -0.32087872 -0.679280192 0.0 0.0 0.0 0.0
1200010000.0 0.0 0.0 -0.484976992 -0.60279712 0.0 0.0 0.0 0.0
1215009500.0 0.0 0.0 -0.612134144 -0.501619936 0.0 0.0 0.0 0.0
1230009000.0 0.0 0.0 -0.741956928 -0.366009728 0.0 0.0 0.0 0.0
1245008500.0 0.0 0.0 -0.820824192 -0.196328848 0.0 0.0 0.0 0.0
1260008000.0 0.0 0.0 -0.872388736 -0.005183466 0.0 0.0 0.0 0.0
1275007500.0 0.0 0.0 -0.872829824 0.191807984 0.0 0.0 0.0 0.0
1290007000.0 0.0 0.0 -0.826103552 0.36846896 0.0 0.0 0.0 0.0
1305006500.0 0.0 0.0 -0.729943296 0.558960704 0.0 0.0 0.0 0.0
1320006000.0 0.0 0.0 -0.592611328 0.706146112 0.0 0.0 0.0 0.0
1335005500.0 0.0 0.0 -0.425808064 0.835272768 0.0 0.0 0.0 0.0
1350005000.0 0.0 0.0 -0.240905376 0.898475584 0.0 0.0 0.0 0.0
1365004500.0 0.0 0.0 -0.03891708 0.905033344 0.0 0.0 0.0 0.0
1380004000.0 0.0 0.0 0.136418352 0.921593792 0.0 0.0 0.0 0.0
1395003500.0 0.0 0.0 0.316758976 0.90967712 0.0 0.0 0.0 0.0
1410003000.0 0.0 0.0 0.468683904 0.845250816 0.0 0.0 0.0 0.0
1425002500.0 0.0 0.0 0.653243328 0.745349376 0.0 0.0 0.0 0.0
1440002000.0 0.0 0.0 0.800144704 0.628984 0.0 0.0 0.0 0.0
1455001500.0 0.0 0.0 0.906846336 0.448579424 0.0 0.0 0.0 0.0
1470001000.0 0.0 0.0 1.010498048 0.289183264 0.0 0.0 0.0 0.0
1485000500.0 0.0 0.0 1.025039076 0.092507344 0.0 0.0 0.0 0.0
1500000000.0 0.0 0.0 1.042972088 -0.095301336 0.0 0.0 0.0 0.0
