! Created with skrf 1.8.0 (http://scikit-rf.org).
# Hz S RI R 50.0 
!freq ReS11 ImS11 ReS21 ImS21 ReS12 ImS12 ReS22 ImS22
50000.0 0.996651904 0.000687155 -3.3057e-05 7.0851e-05 0.0 0.0 0.0 0.0
15049500.0 0.939152 0.360217312 -3.8695e-05 1.083e-06 0.0 0.0 0.0 0.0
30049000.0 0.74926848 0.672361152 -3.8934e-05 1.0256e-05 0.0 0.0 0.0 0.0
45048500.0 0.461557216 0.891736704 -5.8247e-05 9.368e-06 0.0 0.0 0.0 0.0
60048000.0 0.103670576 1.013008834 -3.555e-05 -2.8726e-05 0.0 0.0 0.0 0.0
75047500.0 -0.272984768 0.987242752 -4.0968e-05 -7.732e-06 0.0 0.0 0.0 0.0
90047000.0 -0.618595264 0.819521536 -3.9222e-05 1.1567e-05 0.0 0.0 0.0 0.0
105046500.0 -0.890414784 0.546011776 -6.5879e-05 9.002e-06 0.0 0.0 0.0 0.0
120046000.0 -1.041014908 0.185396464 -1.2984e-05 5.85e-06 0.0 0.0 0.0 0.0
135045500.0 -1.045104264 -0.20815704 -2.4075e-05 2.134e-05 0.0 0.0 0.0 0.0
150045000.0 -0.914335872 -0.58506688 -4.1084e-05 3.4024e-05 0.0 0.0 0.0 0.0
165044500.0 -0.648190336 -0.88379744 1.2967e-05 1.1228e-05 0.0 0.0 0.0 0.0
180044000.0 -0.315219872 -1.042986868 -3.1833e-05 -1.1093e-05 0.0 0.0 0.0 0.0
195043500.0 0.062985196 -1.100022312 -1.6663e-05 1.7326e-05 0.0 0.0 0.0 0.0
210043000.0 0.43325968 -1.021831394 1.5924e-05 8.512e-06 0.0 0.0 0.0 0.0
225042500.0 0.750337536 -0.82184032 -1.4272e-05 3.7075e-05 0.0 0.0 0.0 0.0
240042000.0 0.993472896 -0.54117216 1.009e-05 3.9108e-05 0.0 0.0 0.0 0.0
255041500.0 1.134345408 -0.189474336 -6.605e-06 4.0972e-05 0.0 0.0 0.0 0.0
270041000.0 1.149944896 0.21974704 1.2908e-05 1.4509e-05 0.0 0.0 0.0 0.0
285040500.0 1.020987272 0.631360576 2.2226e-05 2.3709e-05 0.0 0.0 0.0 0.0
300040000.0 0.687826176 0.955681792 0.000373879 0.000183258 0.0 0.0 0.0 0.0
315039500.0 0.32076048 1.190450672 -4.8114e-05 -0.000164224 0.0 0.0 0.0 0.0
330039000.0 -0.136045632 1.251763104 -0.00017175 -4.9111e-05 0.0 0.0 0.0 0.0
345038500.0 -0.592007616 1.139091488 0.00036921 -4.7527e-05 0.0 0.0 0.0 0.0
360038000.0 -0.964552832 0.872131776 6.0871e-05 0.000200384 0.0 0.0 0.0 0.0
375037500.0 -1.25226736 0.478290112 -3.7742e-05 -0.000300489 0.0 0.0 0.0 0.0
390037000.0 -1.361573824 -0.00988091 0.000449179 9.537e-05 0.0 0.0 0.0 0.0
405036500.0 -1.286964544 -0.5149368 8.9342e-05 -0.000281392 0.0 0.0 0.0 0.0
420036000.0 -1.03544998 -0.9636624 0.000298809 0.000738458 0.0 0.0 0.0 0.0
435035500.0 -0.631122752 -1.268562304 -9.4898e-05 0.000210345 0.0 0.0 0.0 0.0
450035000.0 -0.157460736 -1.389121664 0.000379965 8.8664e-05 0.0 0.0 0.0 0.0
465034500.0 0.299243104 -1.3797456 0.000795157 -0.000332899 0.0 0.0 0.0 0.0
480034000.0 0.721965568 -1.214066976 0.000437103 -0.000196089 0.0 0.0 0.0 0.0
495033500.0 1.068001392 -0.916905856 0.000518721 -7.5984e-05 0.0 0.0 0.0 0.0
510033000.0 1.314590688 -0.528493952 0.000489929 -2.6357e-05 0.0 0.0 0.0 0.0
525032500.0 1.402393952 -0.069507288 0.000406568 -0.000135155 0.0 0.0 0.0 0.0
540032000.0 1.355866784 0.384266112 -0.000127827 -0.000331743 0.0 0.0 0.0 0.0
555031500.0 1.152313824 0.797226752 0.000576087 -0.000195339 0.0 0.0 0.0 0.0
570031000.0 0.814288768 1.112096312 9.9504e-05 -0.000196748 0.0 0.0 0.0 0.0
585030500.0 0.391830368 1.28633536 6.4351e-05 -0.000428832 0.0 0.0 0.0 0.0
600030000.0 -0.04314286 1.338825696 -1.7589e-05 0.000172128 0.0 0.0 0.0 0.0
615029500.0 -0.492955936 1.224450352 0.000141253 -0.000528731 0.0 0.0 0.0 0.0
630029000.0 -0.873346752 0.966281088 -5.05e-05 -0.00042751 0.0 0.0 0.0 0.0
645028500.0 -1.16212392 0.576453632 0.000450988 -0.00059994 0.0 0.0 0.0 0.0
660028000.0 -1.308435072 0.105631552 -0.00024905 -0.000193296 0.0 0.0 0.0 0.0
675027500.0 -1.261769536 -0.387630368 0.000215947 -0.000391629 0.0 0.0 0.0 0.0
690027000.0 -1.012665392 -0.86860032 -0.00018613 -0.000553525 0.0 0.0 0.0 0.0
705026500.0 -0.60622592 -1.163968448 -0.000411251 -0.000504592 0.0 0.0 0.0 0.0
720026000.0 -0.135114848 -1.263733264 5.5365e-05 -0.000459593 0.0 0.0 0.0 0.0
735025500.0 0.314381696 -1.206733936 3.4983e-05 -0.000384522 0.0 0.0 0.0 0.0
750025000.0 0.711195008 -0.99693024 -4.7255e-05 -0.0001838 0.0 0.0 0.0 0.0
765024500.0 1.000248313 -0.652835904 -0.000410683 -0.000645688 0.0 0.0 0.0 0.0
780024000.0 1.176099296 -0.222562592 -0.000120905 -0.000665735 0.0 0.0 0.0 0.0
795023500.0 1.09997344 0.210606096 -0.000325082 -0.000490092 0.0 0.0 0.0 0.0
810023000.0 0.860054912 0.554111936 -0.000133841 -0.000835163 0.0 0.0 0.0 0.0
825022500.0 0.557891008 0.736142272 0.000142231 -0.00081836 0.0 0.0 0.0 0.0
840022000.0 0.275925408 0.781067136 -0.00042921 7.1665e-05 0.0 0.0 0.0 0.0
855021500.0 0.0578681 0.762547392 -5.4341e-05 -0.000509698 0.0 0.0 0.0 0.0
870021000.0 -0.12919624 0.72890176 -0.000218947 -0.000342323 0.0 0.0 0.0 0.0
885020500.0 -0.29561872 0.717810432 -2.4377e-05 -0.000223826 0.0 0.0 0.0 0.0
900020000.0 -0.523729152 0.737368128 0.000207884 0.000185171 0.0 0.0 0.0 0.0
915019500.0 -0.509792992 0.737880128 0.001660776 -0.002059726 0.0 0.0 0.0 0.0
930019000.0 -0.494143776 0.741717952 0.001469948 -0.000812461 0.0 0.0 0.0 0.0
945018500.0 -0.470907648 0.740988544 0.000893198 -0.001035182 0.0 0.0 0.0 0.0
960018000.0 -0.456632928 0.745083904 0.002250505 -0.000843317 0.0 0.0 0.0 0.0
975017500.0 -0.446091008 0.753488384 0.00036634 0.000173865 0.0 0.0 0.0 0.0
990017000.0 -0.417858816 0.76453824 -0.000709962 0.000577447 0.0 0.0 0.0 0.0
1005016500.0 -0.403024736 0.77115904 -0.0001695 -9.3539e-05 0.0 0.0 0.0 0.0
1020016000.0 -0.37148 0.776421824 -0.000494087 -0.00039467 0.0 0.0 0.0 0.0
1035015500.0 -0.356271872 0.785649472 0.001066853 -0.00129612 0.0 0.0 0.0 0.0
1050015000.0 -0.307891296 0.777785152 0.000327976 -0.001588026 0.0 0.0 0.0 0.0
1065014500.0 -0.314757728 0.799897152 -0.000316739 -0.000910518 0.0 0.0 0.0 0.0
1080014000.0 -0.285428352 0.807831296 0.000365581 -0.001510247 0.0 0.0 0.0 0.0
1095013500.0 -0.256589824 0.811846144 0.001516823 -0.003534953 0.0 0.0 0.0 0.0
1110013000.0 -0.23211024 0.819734976 -0.002764023 -0.001384753 0.0 0.0 0.0 0.0
1125012500.0 -0.223795872 0.800763136 -0.002233375 -0.001721372 0.0 0.0 0.0 0.0
1140012000.0 -0.177089296 0.824985088 -0.000142728 -0.000679099 0.0 0.0 0.0 0.0
1155011500.0 -0.13491368 0.83767744 -0.000445669 -0.005057055 0.0 0.0 0.0 0.0
1170011000.0 -0.141393648 0.826049536 -0.001150313 0.00217154 0.0 0.0 0.0 0.0
1185010500.0 -0.098359296 0.819512832 -0.0069923 -0.001855489 0.0 0.0 0.0 0.0
1200010000.0 -0.059005704 0.827014464 -0.000454976 -0.002387151 0.0 0.0 0.0 0.0
1215009500.0 -0.038664892 0.822179136 0.00465693 -0.000614077 0.0 0.0 0.0 0.0
1230009000.0 -0.00500263 0.813451072 -0.001896496 0.001900323 0.0 0.0 0.0 0.0
1245008500.0 0.02044851 0.829896448 4.2177e-05 0.003047634 0.0 0.0 0.0 0.0
1260008000.0 0.067680856 0.823029056 -0.000758907 0.002841453 0.0 0.0 0.0 0.0
1275007500.0 0.094893176 0.813400128 0.006702258 -0.001587322 0.0 0.0 0.0 0.0
1290007000.0 0.123260288 0.823079936 0.006110891 0.004753904 0.0 0.0 0.0 0.0
1305006500.0 0.140446704 0.803873152 -0.001344324 0.000679992 0.0 0.0 0.0 0.0
1320006000.0 0.180689632 0.800001792 0.000215622 0.001051634 0.0 0.0 0.0 0.0
1335005500.0 0.213586032 0.806270784 -0.007326888 -0.002664497 0.0 0.0 0.0 0.0
1350005000.0 0.24440664 0.787560128 -0.004465244 0.006806488 0.0 0.0 0.0 0.0
1365004500.0 0.247278992 0.809467328 0.006799565 0.001037096 0.0 0.0 0.0 0.0
1380004000.0 0.290630528 0.7501104 0.005539516 0.005049124 0.0 0.0 0.0 0.0
1395003500.0 0.319355424 0.759044992 -0.001091671 0.004304859 0.0 0.0 0.0 0.0
1410003000.0 0.352040768 0.737986496 1.9872e-05 -0.004416387 0.0 0.0 0.0 0.0
1425002500.0 0.369706976 0.721761536 0.009699482 -0.002355271 0.0 0.0 0.0 0.0
1440002000.0 0.399885792 0.70517984 0.001823398 0.003526027 0.0 0.0 0.0 0.0
1455001500.0 0.422801664 0.690479808 0.012133284 -0.004349374 0.0 0.0 0.0 0.0
1470001000.0 0.452132864 0.646217024 -0.008197066 -0.002708518 0.0 0.0 0.0 0.0
1485000500.0 0.46851088 0.66405152 0.006391261 -0.000365764 0.0 0.0 0.0 0.0
1500000000.0 0.485477856 0.632709376 0.003662452 0.003583551 0.0 0.0 0.0 0.0
