! Created with skrf 1.8.0 (http://scikit-rf.org).
# Hz S RI R 50.0 
!freq ReS11 ImS11 ReS21 ImS21 ReS12 ImS12 ReS22 ImS22
50000.0 -0.006642341 -0.00399166 -0.817083968 -0.01176715 0.0 0.0 0.0 0.0
15049500.0 -0.001508285 0.00522329 -0.782146624 0.201644832 0.0 0.0 0.0 0.0
30049000.0 -0.00474875 0.007563337 -0.711499072 0.376155456 0.0 0.0 0.0 0.0
45048500.0 -0.01035946 0.007992049 -0.602560064 0.528586016 0.0 0.0 0.0 0.0
60048000.0 -0.017122812 0.005758611 -0.464319552 0.650416064 0.0 0.0 0.0 0.0
75047500.0 -0.02424307 0.001113099 -0.304160576 0.734793472 0.0 0.0 0.0 0.0
90047000.0 -0.030526936 -0.005697488 -0.122891616 0.77995232 0.0 0.0 0.0 0.0
105046500.0 -0.034695536 -0.013588198 0.056809632 0.785962496 0.0 0.0 0.0 0.0
120046000.0 -0.036073144 -0.021689102 0.22993848 0.752306432 0.0 0.0 0.0 0.0
135045500.0 -0.034668812 -0.029007124 0.389847584 0.680521664 0.0 0.0 0.0 0.0
150045000.0 -0.030954562 -0.034651796 0.53073056 0.575603008 0.0 0.0 0.0 0.0
165044500.0 -0.025287786 -0.037419844 0.644134592 0.443257088 0.0 0.0 0.0 0.0
180044000.0 -0.019396826 -0.035002248 0.72562528 0.289757728 0.0 0.0 0.0 0.0
195043500.0 -0.014166568 -0.030853096 0.771317696 0.121671448 0.0 0.0 0.0 0.0
210043000.0 -0.010751504 -0.023816398 0.778354752 -0.053045652 0.0 0.0 0.0 0.0
225042500.0 -0.010040728 -0.015350378 0.745787136 -0.225236624 0.0 0.0 0.0 0.0
240042000.0 -0.012825436 -0.006729743 0.673442112 -0.386065344 0.0 0.0 0.0 0.0
255041500.0 -0.01892932 -0.000180696 0.567120192 -0.525563584 0.0 0.0 0.0 0.0
270041000.0 -0.02689073 0.002400898 0.43203344 -0.637252288 0.0 0.0 0.0 0.0
285040500.0 -0.035674948 0.000600497 0.276294432 -0.714329152 0.0 0.0 0.0 0.0
300040000.0 -0.041657156 -0.007429593 0.122525144 -0.75382048 0.0 0.0 0.0 0.0
315039500.0 -0.04698582 -0.01785856 -0.046503408 -0.760283264 0.0 0.0 0.0 0.0
330039000.0 -0.043634644 -0.03301964 -0.212418928 -0.72854048 0.0 0.0 0.0 0.0
345038500.0 -0.033214022 -0.049626752 -0.368837472 -0.66181376 0.0 0.0 0.0 0.0
360038000.0 -0.014902746 -0.065566324 -0.505459616 -0.562608576 0.0 0.0 0.0 0.0
375037500.0 0.012825352 -0.076731344 -0.616361472 -0.4378256 0.0 0.0 0.0 0.0
390037000.0 0.0464552 -0.081531712 -0.695407808 -0.288479968 0.0 0.0 0.0 0.0
405036500.0 0.084867832 -0.075230632 -0.736807104 -0.130941736 0.0 0.0 0.0 0.0
420036000.0 0.123865392 -0.060387164 -0.741139008 0.033469186 0.0 0.0 0.0 0.0
435035500.0 0.159940624 -0.034339156 -0.704184768 0.196617312 0.0 0.0 0.0 0.0
450035000.0 0.18720208 -4.5365e-05 -0.631632896 0.346303648 0.0 0.0 0.0 0.0
465034500.0 0.206907488 0.044211064 -0.525170432 0.47353296 0.0 0.0 0.0 0.0
480034000.0 0.21164192 0.091073512 -0.397735744 0.569397888 0.0 0.0 0.0 0.0
495033500.0 0.20084624 0.1328882 -0.258380624 0.637009792 0.0 0.0 0.0 0.0
510033000.0 0.179788528 0.172214272 -0.109956336 0.670323584 0.0 0.0 0.0 0.0
525032500.0 0.145084384 0.19721224 0.036834144 0.672063104 0.0 0.0 0.0 0.0
540032000.0 0.103473936 0.20603688 0.181288272 0.643848384 0.0 0.0 0.0 0.0
555031500.0 0.06579788 0.199097376 0.314129696 0.587222336 0.0 0.0 0.0 0.0
570031000.0 0.034444276 0.174353984 0.431960384 0.504957984 0.0 0.0 0.0 0.0
585030500.0 0.0138334 0.137600352 0.534374784 0.397739872 0.0 0.0 0.0 0.0
600030000.0 0.004064041 0.096241984 0.611266176 0.281074208 0.0 0.0 0.0 0.0
615029500.0 0.008060269 0.048927328 0.65717376 0.138539168 0.0 0.0 0.0 0.0
630029000.0 0.030200478 0.004088209 0.670047616 -0.011655944 0.0 0.0 0.0 0.0
645028500.0 0.064391284 -0.032027874 0.648041344 -0.162377824 0.0 0.0 0.0 0.0
660028000.0 0.109325416 -0.056390404 0.58949536 -0.302517344 0.0 0.0 0.0 0.0
675027500.0 0.15674832 -0.065065912 0.502765184 -0.42450816 0.0 0.0 0.0 0.0
690027000.0 0.201875344 -0.059050856 0.393306816 -0.522047104 0.0 0.0 0.0 0.0
705026500.0 0.23781184 -0.036123368 0.265900704 -0.587403328 0.0 0.0 0.0 0.0
720026000.0 0.263755296 0.006199318 0.129312352 -0.622256448 0.0 0.0 0.0 0.0
735025500.0 0.276597344 0.05668012 -0.008872252 -0.634240192 0.0 0.0 0.0 0.0
750025000.0 0.26498264 0.115487592 -0.143448464 -0.60868448 0.0 0.0 0.0 0.0
765024500.0 0.226232992 0.172633584 -0.26794544 -0.560804288 0.0 0.0 0.0 0.0
780024000.0 0.151608 0.216950912 -0.390330592 -0.485427584 0.0 0.0 0.0 0.0
795023500.0 0.070186704 0.219087104 -0.47639872 -0.391395296 0.0 0.0 0.0 0.0
810023000.0 -0.014839712 0.18526632 -0.549283712 -0.27658224 0.0 0.0 0.0 0.0
825022500.0 -0.08104372 0.132868336 -0.595535168 -0.146004768 0.0 0.0 0.0 0.0
840022000.0 -0.12557924 0.056495328 -0.6114 -0.008016864 0.0 0.0 0.0 0.0
855021500.0 -0.150628352 -0.024102988 -0.595364544 0.129919632 0.0 0.0 0.0 0.0
870021000.0 -0.16889512 -0.112463576 -0.552636736 0.260484016 0.0 0.0 0.0 0.0
885020500.0 -0.17362928 -0.220573904 -0.478302816 0.374407168 0.0 0.0 0.0 0.0
900020000.0 -0.16290672 -0.343727136 -0.361239904 0.475759104 0.0 0.0 0.0 0.0
915019500.0 -0.212652304 -0.359315648 -0.246909536 0.541498624 0.0 0.0 0.0 0.0
930019000.0 -0.267190672 -0.349334368 -0.126974328 0.579724992 0.0 0.0 0.0 0.0
945018500.0 -0.32297072 -0.318434016 -0.00085834 0.5950016 0.0 0.0 0.0 0.0
960018000.0 -0.360317024 -0.270320736 0.122163664 0.585902208 0.0 0.0 0.0 0.0
975017500.0 -0.376124512 -0.209825088 0.24145336 0.542427648 0.0 0.0 0.0 0.0
990017000.0 -0.367449056 -0.14276112 0.355899968 0.49257408 0.0 0.0 0.0 0.0
1005016500.0 -0.337685728 -0.081409592 0.45966288 0.410738752 0.0 0.0 0.0 0.0
1020016000.0 -0.303194784 -0.03656846 0.552487808 0.307681888 0.0 0.0 0.0 0.0
1035015500.0 -0.242691552 -0.004856288 0.620474496 0.185559296 0.0 0.0 0.0 0.0
1050015000.0 -0.189125056 0.002638355 0.64167456 0.038292816 0.0 0.0 0.0 0.0
1065014500.0 -0.138039168 0.000232009 0.665755584 -0.117015072 0.0 0.0 0.0 0.0
1080014000.0 -0.091281848 -0.019869102 0.626614784 -0.272858816 0.0 0.0 0.0 0.0
1095013500.0 -0.053684028 -0.049674352 0.552152192 -0.424866976 0.0 0.0 0.0 0.0
1110013000.0 -0.035777552 -0.089237368 0.445371232 -0.54712512 0.0 0.0 0.0 0.0
1125012500.0 -0.0359119 -0.131117568 0.309191808 -0.627219392 0.0 0.0 0.0 0.0
1140012000.0 -0.037851264 -0.164566192 0.15924224 -0.695408832 0.0 0.0 0.0 0.0
1155011500.0 -0.075904408 -0.194008176 -0.000889143 -0.747365504 0.0 0.0 0.0 0.0
1170011000.0 -0.104330864 -0.2141856 -0.17690696 -0.698946112 0.0 0.0 0.0 0.0
1185010500.0 -0.140426656 -0.177146944 -0.331448224 -0.677827776 0.0 0.0 0.0 0.0
1200010000.0 -0.1655436 -0.138914224 -0.484661472 -0.597126912 0.0 0.0 0.0 0.0
1215009500.0 -0.165402256 -0.111379944 -0.619510016 -0.499577344 0.0 0.0 0.0 0.0
1230009000.0 -0.1497056 -0.066743464 -0.738860032 -0.3574912 0.0 0.0 0.0 0.0
1245008500.0 -0.116575552 -0.059989508 -0.817932544 -0.205792608 0.0 0.0 0.0 0.0
1260008000.0 -0.075243808 -0.039201956 -0.873675712 -0.01113079 0.0 0.0 0.0 0.0
1275007500.0 -0.030506452 -0.024291766 -0.858169344 0.188310336 0.0 0.0 0.0 0.0
1290007000.0 0.00535158 -0.05047474 -0.825210752 0.384066528 0.0 0.0 0.0 0.0
1305006500.0 0.021043102 -0.087334272 -0.725737344 0.558395072 0.0 0.0 0.0 0.0
1320006000.0 0.02652401 -0.116655672 -0.595283712 0.696100928 0.0 0.0 0.0 0.0
1335005500.0 0.026543102 -0.137257552 -0.425243392 0.822581376 0.0 0.0 0.0 0.0
1350005000.0 0.001073442 -0.158762928 -0.247264288 0.915574912 0.0 0.0 0.0 0.0
1365004500.0 -0.05387374 -0.175302256 -0.14882344 0.95389344 0.0 0.0 0.0 0.0
1380004000.0 -0.084410456 -0.162111344 0.131042632 0.937235264 0.0 0.0 0.0 0.0
1395003500.0 -0.159884304 -0.099362712 0.288623584 0.881284672 0.0 0.0 0.0 0.0
1410003000.0 -0.133696512 -0.063426732 0.484782112 0.836598336 0.0 0.0 0.0 0.0
1425002500.0 -0.164947008 0.030177536 0.626810816 0.738834048 0.0 0.0 0.0 0.0
1440002000.0 -0.117636256 0.074233472 0.7575792 0.615653248 0.0 0.0 0.0 0.0
1455001500.0 -0.069936488 0.11197352 0.873403328 0.475392224 0.0 0.0 0.0 0.0
1470001000.0 0.02101513 0.119453888 0.999511744 0.308372192 0.0 0.0 0.0 0.0
1485000500.0 0.05319256 0.157727792 1.011058212 0.110718072 0.0 0.0 0.0 0.0
1500000000.0 0.141356608 0.125385048 1.013580322 -0.078355968 0.0 0.0 0.0 0.0
