! Created with skrf 1.8.0 (http://scikit-rf.org).
# Hz S RI R 50.0 
!freq ReS11 ImS11 ReS21 ImS21 ReS12 ImS12 ReS22 ImS22
50000.0 0.998423552 0.000995756 -3.9245e-05 -5.5943e-05 0.0 0.0 0.0 0.0
15049500.0 0.940750272 0.360813632 -2.1806e-05 7.475e-06 0.0 0.0 0.0 0.0
30049000.0 0.750493504 0.673721408 -3.7494e-05 -8.975e-06 0.0 0.0 0.0 0.0
45048500.0 0.462330112 0.893390272 -4.5992e-05 5.33e-07 0.0 0.0 0.0 0.0
60048000.0 0.103305952 1.01500392 -9.871e-06 -8.647e-06 0.0 0.0 0.0 0.0
75047500.0 -0.27372416 0.989461952 -4.2089e-05 1.1304e-05 0.0 0.0 0.0 0.0
90047000.0 -0.619993856 0.821230912 -5.9493e-05 4.629e-06 0.0 0.0 0.0 0.0
105046500.0 -0.892411328 0.547191424 -4.2978e-05 1.989e-05 0.0 0.0 0.0 0.0
120046000.0 -1.043634772 0.185770192 -3.0127e-05 -1.1043e-05 0.0 0.0 0.0 0.0
135045500.0 -1.048123716 -0.209967696 -5.4378e-05 4.9817e-05 0.0 0.0 0.0 0.0
150045000.0 -0.916461184 -0.586569792 -5.9842e-05 1.0421e-05 0.0 0.0 0.0 0.0
165044500.0 -0.64999136 -0.886413312 -3.2586e-05 2.0736e-05 0.0 0.0 0.0 0.0
180044000.0 -0.3154568 -1.04661238 -2.8255e-05 6.254e-06 0.0 0.0 0.0 0.0
195043500.0 0.063762196 -1.103698968 -8.521e-06 2.0295e-05 0.0 0.0 0.0 0.0
210043000.0 0.436004544 -1.024685264 1.2904e-05 7.3355e-05 0.0 0.0 0.0 0.0
225042500.0 0.75381344 -0.823502144 -3.268e-06 5.5085e-05 0.0 0.0 0.0 0.0
240042000.0 0.997542592 -0.541288704 1.253e-06 7.7805e-05 0.0 0.0 0.0 0.0
255041500.0 1.139259104 -0.188296848 1.6133e-05 2.4629e-05 0.0 0.0 0.0 0.0
270041000.0 1.15427888 0.221312304 2.717e-05 6.651e-05 0.0 0.0 0.0 0.0
285040500.0 1.026078582 0.633692736 5.1192e-05 3.1823e-05 0.0 0.0 0.0 0.0
300040000.0 0.69028672 0.960843968 0.000378208 -2.3148e-05 0.0 0.0 0.0 0.0
315039500.0 0.321332576 1.196663616 -8.7942e-05 -0.000116022 0.0 0.0 0.0 0.0
330039000.0 -0.13706744 1.261275296 0.000114145 0.000132152 0.0 0.0 0.0 0.0
345038500.0 -0.59683872 1.1464256 -0.000249543 -0.000113357 0.0 0.0 0.0 0.0
360038000.0 -0.970035072 0.877131968 0.000239548 0.000120124 0.0 0.0 0.0 0.0
375037500.0 -1.259432912 0.479342336 0.000150192 -0.000361546 0.0 0.0 0.0 0.0
390037000.0 -1.370759008 -0.009016506 -3.1578e-05 0.000105306 0.0 0.0 0.0 0.0
405036500.0 -1.29592752 -0.520038432 6.5101e-05 -4.2286e-05 0.0 0.0 0.0 0.0
420036000.0 -1.040209176 -0.971248896 0.00022866 0.000336212 0.0 0.0 0.0 0.0
435035500.0 -0.6376576 -1.278321632 0.000187473 -0.000302961 0.0 0.0 0.0 0.0
450035000.0 -0.170678512 -1.403181312 0.000296573 -0.000178159 0.0 0.0 0.0 0.0
465034500.0 0.305829728 -1.38717056 0.00056602 2.901e-05 0.0 0.0 0.0 0.0
480034000.0 0.730739584 -1.2233392 0.000329362 -0.000370751 0.0 0.0 0.0 0.0
495033500.0 1.078006152 -0.92354464 1.6713e-05 -8.8338e-05 0.0 0.0 0.0 0.0
510033000.0 1.328978176 -0.53476704 0.000344503 -0.000105999 0.0 0.0 0.0 0.0
525032500.0 1.419111968 -0.07050004 0.000663417 -0.000883098 0.0 0.0 0.0 0.0
540032000.0 1.369935616 0.384316512 0.000391486 -0.000323572 0.0 0.0 0.0 0.0
555031500.0 1.1677072 0.801310144 0.000709974 -0.000383683 0.0 0.0 0.0 0.0
570031000.0 0.821814336 1.120554448 0.000342009 -0.000522907 0.0 0.0 0.0 0.0
585030500.0 0.404223968 1.30230784 -7.1539e-05 -0.000304087 0.0 0.0 0.0 0.0
600030000.0 -0.046894888 1.359322656 -0.000667235 -0.000419685 0.0 0.0 0.0 0.0
615029500.0 -0.49606496 1.242252592 0.000338006 -0.000244005 0.0 0.0 0.0 0.0
630029000.0 -0.878725632 0.981004352 0.000143496 -0.000392805 0.0 0.0 0.0 0.0
645028500.0 -1.17771232 0.595834624 -0.000199901 -0.000509417 0.0 0.0 0.0 0.0
660028000.0 -1.315856576 0.120979296 0.000121217 -0.00056266 0.0 0.0 0.0 0.0
675027500.0 -1.275156608 -0.388879488 1.4081e-05 -0.000322272 0.0 0.0 0.0 0.0
690027000.0 -1.035002232 -0.86608544 0.000371467 -0.000154436 0.0 0.0 0.0 0.0
705026500.0 -0.61979648 -1.171417232 -2.412e-05 -0.000704587 0.0 0.0 0.0 0.0
720026000.0 -0.152211152 -1.28232528 -0.000294491 -0.000247619 0.0 0.0 0.0 0.0
735025500.0 0.30408512 -1.22090184 0.000129557 -0.000273509 0.0 0.0 0.0 0.0
750025000.0 0.71097312 -1.009948254 0.000335871 -0.000448675 0.0 0.0 0.0 0.0
765024500.0 1.003758669 -0.670695872 -1.4776e-05 -0.000467238 0.0 0.0 0.0 0.0
780024000.0 1.16899192 -0.275745376 6.115e-06 -0.000530619 0.0 0.0 0.0 0.0
795023500.0 1.108160616 0.201075072 8.9436e-05 -0.000503725 0.0 0.0 0.0 0.0
810023000.0 0.875587072 0.543986368 -0.00010433 -0.000330823 0.0 0.0 0.0 0.0
825022500.0 0.567750912 0.732379328 0.000195586 0.000264667 0.0 0.0 0.0 0.0
840022000.0 0.28853152 0.782635392 0.000161867 -0.000592186 0.0 0.0 0.0 0.0
855021500.0 0.063247904 0.762648384 -4.3043e-05 -0.000113414 0.0 0.0 0.0 0.0
870021000.0 -0.117656192 0.733008192 7.097e-06 -0.000834503 0.0 0.0 0.0 0.0
885020500.0 -0.289000576 0.72038912 -0.00032879 -0.000400001 0.0 0.0 0.0 0.0
900020000.0 -0.508539904 0.739307328 0.000222207 0.000392762 0.0 0.0 0.0 0.0
915019500.0 -0.489983584 0.746541824 -0.000678325 -0.0004072 0.0 0.0 0.0 0.0
930019000.0 -0.474477536 0.74394848 -0.000267983 -0.00011998 0.0 0.0 0.0 0.0
945018500.0 -0.452292064 0.747334464 0.001256627 0.00027884 0.0 0.0 0.0 0.0
960018000.0 -0.438292 0.747418752 0.001000909 -0.000323277 0.0 0.0 0.0 0.0
975017500.0 -0.420337664 0.752883328 0.002004667 -0.001449929 0.0 0.0 0.0 0.0
990017000.0 -0.404464992 0.758057472 0.000787827 0.00011173 0.0 0.0 0.0 0.0
1005016500.0 -0.381310848 0.762569536 0.001512279 -0.000669462 0.0 0.0 0.0 0.0
1020016000.0 -0.363243296 0.779252416 -1.9555e-05 -0.002332173 0.0 0.0 0.0 0.0
1035015500.0 -0.345785248 0.774691008 0.000985809 0.001001695 0.0 0.0 0.0 0.0
1050015000.0 -0.317041184 0.786826176 4.7825e-05 -0.000308986 0.0 0.0 0.0 0.0
1065014500.0 -0.300501408 0.78716608 0.001166822 -0.000532707 0.0 0.0 0.0 0.0
1080014000.0 -0.28366448 0.796337408 -0.000826758 -0.001664284 0.0 0.0 0.0 0.0
1095013500.0 -0.254431312 0.79495104 -0.000152725 -0.002314359 0.0 0.0 0.0 0.0
1110013000.0 -0.23010336 0.800558592 -0.001379925 -0.00311163 0.0 0.0 0.0 0.0
1125012500.0 -0.206069376 0.797405248 -0.00181479 -0.001524114 0.0 0.0 0.0 0.0
1140012000.0 -0.178255888 0.801440256 0.001022783 -0.001295057 0.0 0.0 0.0 0.0
1155011500.0 -0.129857864 0.789691776 -0.004276749 -0.000385551 0.0 0.0 0.0 0.0
1170011000.0 -0.129867984 0.788971136 0.003059363 0.002692843 0.0 0.0 0.0 0.0
1185010500.0 -0.099233848 0.805774592 0.000222433 0.000141831 0.0 0.0 0.0 0.0
1200010000.0 -0.078404024 0.803606656 -0.001417216 0.000123079 0.0 0.0 0.0 0.0
1215009500.0 -0.043673748 0.801951936 -0.002045456 -0.000883488 0.0 0.0 0.0 0.0
1230009000.0 -0.009253744 0.807191936 -0.001757851 -0.001612415 0.0 0.0 0.0 0.0
1245008500.0 0.013673188 0.813756864 -0.001203568 -0.001081097 0.0 0.0 0.0 0.0
1260008000.0 0.040871056 0.802513408 0.002389181 0.002575725 0.0 0.0 0.0 0.0
1275007500.0 0.080771728 0.806682816 0.000870617 0.001009089 0.0 0.0 0.0 0.0
1290007000.0 0.112493088 0.797045312 0.005308093 -0.004120689 0.0 0.0 0.0 0.0
1305006500.0 0.140550912 0.7954624 0.003928222 -0.002816134 0.0 0.0 0.0 0.0
1320006000.0 0.158285728 0.779414528 -0.001284518 -0.000435754 0.0 0.0 0.0 0.0
1335005500.0 0.187169072 0.788323904 -0.00489559 -0.003699773 0.0 0.0 0.0 0.0
1350005000.0 0.224780576 0.77280448 0.002017403 0.001280473 0.0 0.0 0.0 0.0
1365004500.0 0.309823456 0.738148672 0.003197251 0.001156126 0.0 0.0 0.0 0.0
1380004000.0 0.289127776 0.749995584 0.004108023 0.005109944 0.0 0.0 0.0 0.0
1395003500.0 0.316076352 0.730322944 -0.002289576 0.006053579 0.0 0.0 0.0 0.0
1410003000.0 0.349320224 0.710481984 -0.001688693 0.002501658 0.0 0.0 0.0 0.0
1425002500.0 0.361073696 0.688845248 0.003094931 -0.010612198 0.0 0.0 0.0 0.0
1440002000.0 0.377620448 0.685969984 0.004059646 -0.005087484 0.0 0.0 0.0 0.0
1455001500.0 0.417302528 0.68293216 0.000910382 -0.001668714 0.0 0.0 0.0 0.0
1470001000.0 0.413787808 0.64049696 -0.001556122 0.000175765 0.0 0.0 0.0 0.0
1485000500.0 0.455062176 0.630849408 0.004792905 0.002469951 0.0 0.0 0.0 0.0
1500000000.0 0.480674144 0.620049472 0.003329907 0.005361185 0.0 0.0 0.0 0.0
