! Created with skrf 1.8.0 (http://scikit-rf.org).
# Hz S RI R 50.0 
!freq ReS11 ImS11 ReS21 ImS21 ReS12 ImS12 ReS22 ImS22
50000.0 0.0 0.0 -4.2595e-05 -3.3864e-05 0.0 0.0 0.0 0.0
15049500.0 0.0 0.0 -1.4676e-05 4.275e-06 0.0 0.0 0.0 0.0
30049000.0 0.0 0.0 -1.921e-05 1.944e-06 0.0 0.0 0.0 0.0
45048500.0 0.0 0.0 -2.3187e-05 1.9425e-05 0.0 0.0 0.0 0.0
60048000.0 0.0 0.0 -4.1056e-05 -1.5605e-05 0.0 0.0 0.0 0.0
75047500.0 0.0 0.0 -8.6481e-05 -2.709e-06 0.0 0.0 0.0 0.0
90047000.0 0.0 0.0 -1.0833e-05 2.6325e-05 0.0 0.0 0.0 0.0
105046500.0 0.0 0.0 -4.1294e-05 8.409e-06 0.0 0.0 0.0 0.0
120046000.0 0.0 0.0 -6.7328e-05 -2.0753e-05 0.0 0.0 0.0 0.0
135045500.0 0.0 0.0 -3.4268e-05 2.8716e-05 0.0 0.0 0.0 0.0
150045000.0 0.0 0.0 -1.697e-05 2.5463e-05 0.0 0.0 0.0 0.0
165044500.0 0.0 0.0 -1.4067e-05 5.8786e-05 0.0 0.0 0.0 0.0
180044000.0 0.0 0.0 1.721e-06 3.897e-05 0.0 0.0 0.0 0.0
195043500.0 0.0 0.0 -2.1265e-05 2.5479e-05 0.0 0.0 0.0 0.0
210043000.0 0.0 0.0 -4.5518e-05 3.6605e-05 0.0 0.0 0.0 0.0
225042500.0 0.0 0.0 3.564e-06 6.517e-05 0.0 0.0 0.0 0.0
240042000.0 0.0 0.0 4.04e-06 4.287e-05 0.0 0.0 0.0 0.0
255041500.0 0.0 0.0 2.0185e-05 6.6166e-05 0.0 0.0 0.0 0.0
270041000.0 0.0 0.0 2.2311e-05 4.7219e-05 0.0 0.0 0.0 0.0
285040500.0 0.0 0.0 4.1407e-05 1.94e-07 0.0 0.0 0.0 0.0
300040000.0 0.0 0.0 -0.0004844 -4.2971e-05 0.0 0.0 0.0 0.0
315039500.0 0.0 0.0 -0.000152115 6.0165e-05 0.0 0.0 0.0 0.0
330039000.0 0.0 0.0 -2.4793e-05 6.932e-06 0.0 0.0 0.0 0.0
345038500.0 0.0 0.0 8.7369e-05 6.5801e-05 0.0 0.0 0.0 0.0
360038000.0 0.0 0.0 -0.000191676 0.000127175 0.0 0.0 0.0 0.0
375037500.0 0.0 0.0 0.000175648 0.00039622 0.0 0.0 0.0 0.0
390037000.0 0.0 0.0 0.000190478 -0.000164776 0.0 0.0 0.0 0.0
405036500.0 0.0 0.0 -9.7669e-05 -0.000138705 0.0 0.0 0.0 0.0
420036000.0 0.0 0.0 2.9436e-05 -9.452e-05 0.0 0.0 0.0 0.0
435035500.0 0.0 0.0 0.000533101 6.626e-06 0.0 0.0 0.0 0.0
450035000.0 0.0 0.0 -2.5248e-05 0.000295016 0.0 0.0 0.0 0.0
465034500.0 0.0 0.0 7.625e-06 -0.000114743 0.0 0.0 0.0 0.0
480034000.0 0.0 0.0 0.000848981 -0.000201866 0.0 0.0 0.0 0.0
495033500.0 0.0 0.0 0.00045786 -0.000487548 0.0 0.0 0.0 0.0
510033000.0 0.0 0.0 0.000362063 -0.000357223 0.0 0.0 0.0 0.0
525032500.0 0.0 0.0 8.8363e-05 -0.000197072 0.0 0.0 0.0 0.0
540032000.0 0.0 0.0 0.00011423 -0.000500435 0.0 0.0 0.0 0.0
555031500.0 0.0 0.0 -8.935e-06 -0.000129213 0.0 0.0 0.0 0.0
570031000.0 0.0 0.0 3.2081e-05 -0.000227833 0.0 0.0 0.0 0.0
585030500.0 0.0 0.0 0.00053999 -0.000397585 0.0 0.0 0.0 0.0
600030000.0 0.0 0.0 9.6554e-05 -0.000105192 0.0 0.0 0.0 0.0
615029500.0 0.0 0.0 0.00035688 -7.4099e-05 0.0 0.0 0.0 0.0
630029000.0 0.0 0.0 0.000333767 -0.000656109 0.0 0.0 0.0 0.0
645028500.0 0.0 0.0 0.000135131 -0.000789552 0.0 0.0 0.0 0.0
660028000.0 0.0 0.0 0.000160713 -0.000702306 0.0 0.0 0.0 0.0
675027500.0 0.0 0.0 6.1042e-05 -0.000565507 0.0 0.0 0.0 0.0
690027000.0 0.0 0.0 9.094e-06 -0.000677752 0.0 0.0 0.0 0.0
705026500.0 0.0 0.0 -0.000470662 -0.000426129 0.0 0.0 0.0 0.0
720026000.0 0.0 0.0 -2.4756e-05 -0.000330122 0.0 0.0 0.0 0.0
735025500.0 0.0 0.0 0.000179767 -0.000420644 0.0 0.0 0.0 0.0
750025000.0 0.0 0.0 -0.000211187 -7.8104e-05 0.0 0.0 0.0 0.0
765024500.0 0.0 0.0 -0.000262005 -0.000613776 0.0 0.0 0.0 0.0
780024000.0 0.0 0.0 -0.000129052 -0.000542567 0.0 0.0 0.0 0.0
795023500.0 0.0 0.0 -0.000289829 -0.000321119 0.0 0.0 0.0 0.0
810023000.0 0.0 0.0 -0.000728665 -8.9291e-05 0.0 0.0 0.0 0.0
825022500.0 0.0 0.0 -2.0302e-05 -0.000525696 0.0 0.0 0.0 0.0
840022000.0 0.0 0.0 -0.000145665 -0.000438881 0.0 0.0 0.0 0.0
855021500.0 0.0 0.0 2.5517e-05 -0.00022204 0.0 0.0 0.0 0.0
870021000.0 0.0 0.0 -6.8735e-05 -0.00042854 0.0 0.0 0.0 0.0
885020500.0 0.0 0.0 -2.2231e-05 -0.000465279 0.0 0.0 0.0 0.0
900020000.0 0.0 0.0 -0.001494124 -0.000250549 0.0 0.0 0.0 0.0
915019500.0 0.0 0.0 0.000559352 0.001784194 0.0 0.0 0.0 0.0
930019000.0 0.0 0.0 0.001263897 0.001078339 0.0 0.0 0.0 0.0
945018500.0 0.0 0.0 -1.7002e-05 -0.00104956 0.0 0.0 0.0 0.0
960018000.0 0.0 0.0 -0.001965788 0.000118664 0.0 0.0 0.0 0.0
975017500.0 0.0 0.0 -0.001572363 -0.001584653 0.0 0.0 0.0 0.0
990017000.0 0.0 0.0 0.001216952 -0.000249644 0.0 0.0 0.0 0.0
1005016500.0 0.0 0.0 0.001633342 0.00165137 0.0 0.0 0.0 0.0
1020016000.0 0.0 0.0 -0.000238371 0.000477461 0.0 0.0 0.0 0.0
1035015500.0 0.0 0.0 0.000950792 -0.002112937 0.0 0.0 0.0 0.0
1050015000.0 0.0 0.0 -0.001001663 0.00051207 0.0 0.0 0.0 0.0
1065014500.0 0.0 0.0 0.00246529 -0.003317092 0.0 0.0 0.0 0.0
1080014000.0 0.0 0.0 0.000178407 -0.000788783 0.0 0.0 0.0 0.0
1095013500.0 0.0 0.0 -0.000980468 -0.002934662 0.0 0.0 0.0 0.0
1110013000.0 0.0 0.0 0.000170297 -0.000402665 0.0 0.0 0.0 0.0
1125012500.0 0.0 0.0 -0.000693418 -0.002750874 0.0 0.0 0.0 0.0
1140012000.0 0.0 0.0 -0.003536112 -0.001861017 0.0 0.0 0.0 0.0
1155011500.0 0.0 0.0 -0.002026988 -0.004324917 0.0 0.0 0.0 0.0
1170011000.0 0.0 0.0 0.002753294 -0.001540274 0.0 0.0 0.0 0.0
1185010500.0 0.0 0.0 -0.000470408 -0.001157918 0.0 0.0 0.0 0.0
1200010000.0 0.0 0.0 0.001599318 0.000962696 0.0 0.0 0.0 0.0
1215009500.0 0.0 0.0 -0.003722711 0.000449466 0.0 0.0 0.0 0.0
1230009000.0 0.0 0.0 5.518e-05 -0.000235822 0.0 0.0 0.0 0.0
1245008500.0 0.0 0.0 0.003162171 -0.00103044 0.0 0.0 0.0 0.0
1260008000.0 0.0 0.0 -0.002011967 -0.000399291 0.0 0.0 0.0 0.0
1275007500.0 0.0 0.0 0.002047739 0.002536288 0.0 0.0 0.0 0.0
1290007000.0 0.0 0.0 0.005310891 -0.005431744 0.0 0.0 0.0 0.0
1305006500.0 0.0 0.0 0.001959216 -0.002933679 0.0 0.0 0.0 0.0
1320006000.0 0.0 0.0 -0.00275172 0.007550917 0.0 0.0 0.0 0.0
1335005500.0 0.0 0.0 -0.003356991 -0.006825778 0.0 0.0 0.0 0.0
1350005000.0 0.0 0.0 -0.001033801 -0.000983862 0.0 0.0 0.0 0.0
1365004500.0 0.0 0.0 -0.004152537 -0.005641158 0.0 0.0 0.0 0.0
1380004000.0 0.0 0.0 0.001816265 -0.000678822 0.0 0.0 0.0 0.0
1395003500.0 0.0 0.0 -0.004881007 -0.000327805 0.0 0.0 0.0 0.0
1410003000.0 0.0 0.0 0.001911217 0.006598452 0.0 0.0 0.0 0.0
1425002500.0 0.0 0.0 0.003437657 0.008199816 0.0 0.0 0.0 0.0
1440002000.0 0.0 0.0 0.010739798 0.000922474 0.0 0.0 0.0 0.0
1455001500.0 0.0 0.0 0.014645472 0.010813082 0.0 0.0 0.0 0.0
1470001000.0 0.0 0.0 0.015765486 0.01101308 0.0 0.0 0.0 0.0
1485000500.0 0.0 0.0 0.010793034 0.01094707 0.0 0.0 0.0 0.0
1500000000.0 0.0 0.0 0.019641098 0.001055215 0.0 0.0 0.0 0.0
