! Created with skrf 1.8.0 (http://scikit-rf.org).
# Hz S RI R 50.0 
!freq ReS11 ImS11 ReS21 ImS21 ReS12 ImS12 ReS22 ImS22
50000.0 0.997238592 0.000353996 -1.457e-06 -6.4576e-05 0.0 0.0 0.0 0.0
15049500.0 0.939878336 0.360542944 -8.81e-07 1.2447e-05 0.0 0.0 0.0 0.0
30049000.0 0.750024896 0.67248544 -4.3999e-05 -2.8852e-05 0.0 0.0 0.0 0.0
45048500.0 0.461610688 0.892215424 -2.5374e-05 -6.577e-06 0.0 0.0 0.0 0.0
60048000.0 0.103313176 1.013611318 -2.1522e-05 -2.1779e-05 0.0 0.0 0.0 0.0
75047500.0 -0.273192576 0.988208512 -6.9818e-05 -1.6778e-05 0.0 0.0 0.0 0.0
90047000.0 -0.6192832 0.819797312 -5.6772e-05 1.1578e-05 0.0 0.0 0.0 0.0
105046500.0 -0.891057792 0.545824064 -3.4998e-05 -2.6711e-05 0.0 0.0 0.0 0.0
120046000.0 -1.041660548 0.185452208 -6.2236e-05 -6.407e-06 0.0 0.0 0.0 0.0
135045500.0 -1.046708824 -0.209033392 -4.4243e-05 5.3547e-05 0.0 0.0 0.0 0.0
150045000.0 -0.914924352 -0.585668928 -7.3202e-05 2.1184e-05 0.0 0.0 0.0 0.0
165044500.0 -0.648079424 -0.88422368 -1.3042e-05 2.3153e-05 0.0 0.0 0.0 0.0
180044000.0 -0.314593088 -1.044148088 -9.632e-06 3.1207e-05 0.0 0.0 0.0 0.0
195043500.0 0.063555568 -1.101226328 -1.3627e-05 3.0458e-05 0.0 0.0 0.0 0.0
210043000.0 0.434359104 -1.022331714 -3.927e-06 1.1895e-05 0.0 0.0 0.0 0.0
225042500.0 0.751262784 -0.8209952 2.6707e-05 1.4183e-05 0.0 0.0 0.0 0.0
240042000.0 0.994651328 -0.540901248 2.4665e-05 5.2056e-05 0.0 0.0 0.0 0.0
255041500.0 1.13598752 -0.187992688 1.2706e-05 4.471e-05 0.0 0.0 0.0 0.0
270041000.0 1.150947936 0.220511024 1.0828e-05 3.9601e-05 0.0 0.0 0.0 0.0
285040500.0 1.022407054 0.632256192 4.877e-06 4.855e-06 0.0 0.0 0.0 0.0
300040000.0 0.687872256 0.95852352 0.000105879 1.1142e-05 0.0 0.0 0.0 0.0
315039500.0 0.320243712 1.193476912 0.000404026 -0.000257098 0.0 0.0 0.0 0.0
330039000.0 -0.136824848 1.257603408 0.000104621 -0.000222446 0.0 0.0 0.0 0.0
345038500.0 -0.595645824 1.140904672 0.00035097 -0.000135524 0.0 0.0 0.0 0.0
360038000.0 -0.969161472 0.874634432 0.000117007 7.6817e-05 0.0 0.0 0.0 0.0
375037500.0 -1.255389936 0.476229472 -7.5341e-05 -0.000310882 0.0 0.0 0.0 0.0
390037000.0 -1.375607488 -0.01270644 9.9885e-05 5.8028e-05 0.0 0.0 0.0 0.0
405036500.0 -1.29052256 -0.517417376 -0.000292038 8.8582e-05 0.0 0.0 0.0 0.0
420036000.0 -1.033999564 -0.96456096 -1.9281e-05 0.000386577 0.0 0.0 0.0 0.0
435035500.0 -0.631205504 -1.273109088 0.00044624 0.00011085 0.0 0.0 0.0 0.0
450035000.0 -0.160815056 -1.404692992 0.000333621 -0.000263619 0.0 0.0 0.0 0.0
465034500.0 0.300175776 -1.380603328 0.000310329 -7.4914e-05 0.0 0.0 0.0 0.0
480034000.0 0.727003008 -1.215737104 0.000590102 -0.000213408 0.0 0.0 0.0 0.0
495033500.0 1.072834256 -0.917132864 0.000215334 -4.0172e-05 0.0 0.0 0.0 0.0
510033000.0 1.314291488 -0.527875776 0.000597789 -9.8963e-05 0.0 0.0 0.0 0.0
525032500.0 1.406437152 -0.06954944 0.000263292 -0.000317551 0.0 0.0 0.0 0.0
540032000.0 1.357610112 0.38285248 0.000582421 -0.000154717 0.0 0.0 0.0 0.0
555031500.0 1.153364656 0.802006336 0.000169125 -5.8177e-05 0.0 0.0 0.0 0.0
570031000.0 0.8138304 1.116492752 0.000245535 0.000164851 0.0 0.0 0.0 0.0
585030500.0 0.39479824 1.288975232 -0.000275522 -0.000591583 0.0 0.0 0.0 0.0
600030000.0 -0.056157844 1.34376432 0.000568995 -0.000481815 0.0 0.0 0.0 0.0
615029500.0 -0.49540608 1.228198416 0.000515843 -0.000568819 0.0 0.0 0.0 0.0
630029000.0 -0.874585472 0.963498816 -1.3241e-05 -0.000421676 0.0 0.0 0.0 0.0
645028500.0 -1.167916304 0.582296576 9.1309e-05 -0.000484434 0.0 0.0 0.0 0.0
660028000.0 -1.310381536 0.107102584 6.3134e-05 -0.000298013 0.0 0.0 0.0 0.0
675027500.0 -1.265398496 -0.395808032 1.8354e-05 -0.0005638 0.0 0.0 0.0 0.0
690027000.0 -1.014336586 -0.861968896 -0.000105889 -0.000887965 0.0 0.0 0.0 0.0
705026500.0 -0.609204672 -1.167356368 -0.000140569 -0.00059308 0.0 0.0 0.0 0.0
720026000.0 -0.139655664 -1.268988832 0.00010659 -0.000325128 0.0 0.0 0.0 0.0
735025500.0 0.315030112 -1.20939136 0.000270202 -0.000130365 0.0 0.0 0.0 0.0
750025000.0 0.707779264 -0.997231232 0.000228163 -0.000700526 0.0 0.0 0.0 0.0
765024500.0 1.004172564 -0.658562304 -1.232e-06 -0.00091806 0.0 0.0 0.0 0.0
780024000.0 1.136320832 -0.224157984 0.000126063 -0.00057656 0.0 0.0 0.0 0.0
795023500.0 1.102544904 0.210640352 -0.000114737 -0.000703187 0.0 0.0 0.0 0.0
810023000.0 0.859899776 0.555731904 -0.000588707 -0.000475254 0.0 0.0 0.0 0.0
825022500.0 0.556192768 0.73601856 -7.5295e-05 4.7486e-05 0.0 0.0 0.0 0.0
840022000.0 0.278270752 0.78161344 7.7618e-05 -0.000295483 0.0 0.0 0.0 0.0
855021500.0 0.055125116 0.761409088 -4.3721e-05 -0.000759249 0.0 0.0 0.0 0.0
870021000.0 -0.126045704 0.735318272 -9.1058e-05 -0.00066702 0.0 0.0 0.0 0.0
885020500.0 -0.296330624 0.722868032 -0.000690792 0.000166331 0.0 0.0 0.0 0.0
900020000.0 -0.530578304 0.740611328 0.002095452 -0.00098984 0.0 0.0 0.0 0.0
915019500.0 -0.510200192 0.737449536 -0.00053553 0.000554543 0.0 0.0 0.0 0.0
930019000.0 -0.490753984 0.745919616 0.000834524 0.001182763 0.0 0.0 0.0 0.0
945018500.0 -0.4647016 0.74214592 0.000716541 -0.001669799 0.0 0.0 0.0 0.0
960018000.0 -0.453983232 0.745648384 0.001443951 0.001031007 0.0 0.0 0.0 0.0
975017500.0 -0.44312112 0.75896928 9.009e-06 0.000178263 0.0 0.0 0.0 0.0
990017000.0 -0.42106304 0.7602256 -0.000802192 -0.000386593 0.0 0.0 0.0 0.0
1005016500.0 -0.396809568 0.766868864 -0.002266043 -0.001815035 0.0 0.0 0.0 0.0
1020016000.0 -0.373860224 0.778234752 -0.000819728 -0.002543168 0.0 0.0 0.0 0.0
1035015500.0 -0.350932672 0.776901184 0.001355485 -0.001813931 0.0 0.0 0.0 0.0
1050015000.0 -0.3132696 0.777482432 0.00109201 -0.000162236 0.0 0.0 0.0 0.0
1065014500.0 -0.308795296 0.789368128 -0.000655415 -0.0018854 0.0 0.0 0.0 0.0
1080014000.0 -0.285777504 0.797755008 0.000478709 -0.001517485 0.0 0.0 0.0 0.0
1095013500.0 -0.266243216 0.809265984 0.002304851 -0.001212217 0.0 0.0 0.0 0.0
1110013000.0 -0.238635952 0.812431552 -0.000120708 -0.002469031 0.0 0.0 0.0 0.0
1125012500.0 -0.222248944 0.7954432 0.001534655 -0.002787801 0.0 0.0 0.0 0.0
1140012000.0 -0.184141808 0.813754688 -0.0013912 -0.001924549 0.0 0.0 0.0 0.0
1155011500.0 -0.17395368 0.814348864 0.002031541 9.0855e-05 0.0 0.0 0.0 0.0
1170011000.0 -0.138708912 0.820390016 -0.003592407 0.00010108 0.0 0.0 0.0 0.0
1185010500.0 -0.097102272 0.816901184 -0.001958272 0.002327823 0.0 0.0 0.0 0.0
1200010000.0 -0.071376232 0.822095744 -0.002112162 0.003549344 0.0 0.0 0.0 0.0
1215009500.0 -0.041305464 0.8199088 -0.002332107 0.000461994 0.0 0.0 0.0 0.0
1230009000.0 -0.015315226 0.8221248 0.002749219 -0.000416724 0.0 0.0 0.0 0.0
1245008500.0 0.03120022 0.820177472 -0.001838791 -0.004808016 0.0 0.0 0.0 0.0
1260008000.0 0.06059772 0.831912192 0.003116929 -0.008026367 0.0 0.0 0.0 0.0
1275007500.0 0.078126944 0.816733056 0.00092845 0.000549597 0.0 0.0 0.0 0.0
1290007000.0 0.119461472 0.811830016 -0.004529575 0.004154218 0.0 0.0 0.0 0.0
1305006500.0 0.143625936 0.806964352 0.000940376 -0.001370292 0.0 0.0 0.0 0.0
1320006000.0 0.172933184 0.808154432 -0.000542289 0.001726634 0.0 0.0 0.0 0.0
1335005500.0 0.20901688 0.792763456 -0.00078586 0.004631267 0.0 0.0 0.0 0.0
1350005000.0 0.248862384 0.785213184 -0.007615372 0.003819372 0.0 0.0 0.0 0.0
1365004500.0 0.260896768 0.78707008 -0.005567055 0.008513976 0.0 0.0 0.0 0.0
1380004000.0 0.299579712 0.764334464 -0.00933745 0.00848919 0.0 0.0 0.0 0.0
1395003500.0 0.323529952 0.735077568 0.001059158 -0.004417855 0.0 0.0 0.0 0.0
1410003000.0 0.351166976 0.724338496 0.009429346 0.003783784 0.0 0.0 0.0 0.0
1425002500.0 0.375861568 0.7101632 -0.005681454 0.017289298 0.0 0.0 0.0 0.0
1440002000.0 0.380286912 0.68219456 0.012382926 0.004381583 0.0 0.0 0.0 0.0
1455001500.0 0.415830976 0.68020192 -0.000171115 0.006548787 0.0 0.0 0.0 0.0
1470001000.0 0.4440808 0.646528832 -0.006432811 0.008760222 0.0 0.0 0.0 0.0
1485000500.0 0.450797184 0.647030848 0.007479853 0.011862252 0.0 0.0 0.0 0.0
1500000000.0 0.476369152 0.6204496 0.001302786 -0.01050599 0.0 0.0 0.0 0.0
