! Created with skrf 1.8.0 (http://scikit-rf.org).
# Hz S RI R 50.0 
!freq ReS11 ImS11 ReS21 ImS21 ReS12 ImS12 ReS22 ImS22
50000.0 0.0 0.0 -3.5544e-05 4.1289e-05 0.0 0.0 0.0 0.0
15049500.0 0.0 0.0 -7.547e-06 8.34e-07 0.0 0.0 0.0 0.0
30049000.0 0.0 0.0 -6.501e-05 -2.0825e-05 0.0 0.0 0.0 0.0
45048500.0 0.0 0.0 -2.7561e-05 7.542e-06 0.0 0.0 0.0 0.0
60048000.0 0.0 0.0 -3.6194e-05 -2.2582e-05 0.0 0.0 0.0 0.0
75047500.0 0.0 0.0 -2.56e-05 -1.5067e-05 0.0 0.0 0.0 0.0
90047000.0 0.0 0.0 -2.5388e-05 5.1503e-05 0.0 0.0 0.0 0.0
105046500.0 0.0 0.0 -4.2163e-05 2.5516e-05 0.0 0.0 0.0 0.0
120046000.0 0.0 0.0 -4.1718e-05 1.763e-05 0.0 0.0 0.0 0.0
135045500.0 0.0 0.0 -5.6157e-05 2.3899e-05 0.0 0.0 0.0 0.0
150045000.0 0.0 0.0 -4.668e-05 5.1237e-05 0.0 0.0 0.0 0.0
165044500.0 0.0 0.0 4.33e-06 3.6176e-05 0.0 0.0 0.0 0.0
180044000.0 0.0 0.0 -3.6435e-05 5.534e-06 0.0 0.0 0.0 0.0
195043500.0 0.0 0.0 -1.957e-06 1.2756e-05 0.0 0.0 0.0 0.0
210043000.0 0.0 0.0 -8.092e-06 1.7462e-05 0.0 0.0 0.0 0.0
225042500.0 0.0 0.0 -3.227e-06 1.9315e-05 0.0 0.0 0.0 0.0
240042000.0 0.0 0.0 -2.3696e-05 5.2062e-05 0.0 0.0 0.0 0.0
255041500.0 0.0 0.0 -4.095e-06 2.9442e-05 0.0 0.0 0.0 0.0
270041000.0 0.0 0.0 9.3e-08 2.0898e-05 0.0 0.0 0.0 0.0
285040500.0 0.0 0.0 6.8421e-05 7.724e-06 0.0 0.0 0.0 0.0
300040000.0 0.0 0.0 0.000414944 -0.000190716 0.0 0.0 0.0 0.0
315039500.0 0.0 0.0 -0.000267954 -0.000298748 0.0 0.0 0.0 0.0
330039000.0 0.0 0.0 -2.8817e-05 0.000180364 0.0 0.0 0.0 0.0
345038500.0 0.0 0.0 -7.4836e-05 0.0002136 0.0 0.0 0.0 0.0
360038000.0 0.0 0.0 4.507e-05 6.7817e-05 0.0 0.0 0.0 0.0
375037500.0 0.0 0.0 -2.3988e-05 -6.4229e-05 0.0 0.0 0.0 0.0
390037000.0 0.0 0.0 -0.000324866 -6.8837e-05 0.0 0.0 0.0 0.0
405036500.0 0.0 0.0 0.000422915 0.000206648 0.0 0.0 0.0 0.0
420036000.0 0.0 0.0 0.000130668 0.000530704 0.0 0.0 0.0 0.0
435035500.0 0.0 0.0 4.7838e-05 0.000374085 0.0 0.0 0.0 0.0
450035000.0 0.0 0.0 0.000134349 0.000284655 0.0 0.0 0.0 0.0
465034500.0 0.0 0.0 0.000238026 -7.7834e-05 0.0 0.0 0.0 0.0
480034000.0 0.0 0.0 0.000129246 -0.000401377 0.0 0.0 0.0 0.0
495033500.0 0.0 0.0 0.000154396 -9.4247e-05 0.0 0.0 0.0 0.0
510033000.0 0.0 0.0 0.000309677 -0.000518332 0.0 0.0 0.0 0.0
525032500.0 0.0 0.0 0.000181724 -5.2549e-05 0.0 0.0 0.0 0.0
540032000.0 0.0 0.0 0.000509956 -0.00037243 0.0 0.0 0.0 0.0
555031500.0 0.0 0.0 7.4704e-05 -0.000428078 0.0 0.0 0.0 0.0
570031000.0 0.0 0.0 0.000200538 -0.000579067 0.0 0.0 0.0 0.0
585030500.0 0.0 0.0 3.8713e-05 -0.000444669 0.0 0.0 0.0 0.0
600030000.0 0.0 0.0 -1.6772e-05 -0.001055077 0.0 0.0 0.0 0.0
615029500.0 0.0 0.0 -0.000139327 -0.000982854 0.0 0.0 0.0 0.0
630029000.0 0.0 0.0 -0.000220433 -0.000435491 0.0 0.0 0.0 0.0
645028500.0 0.0 0.0 0.000278829 -0.000362988 0.0 0.0 0.0 0.0
660028000.0 0.0 0.0 0.000295045 -0.001019978 0.0 0.0 0.0 0.0
675027500.0 0.0 0.0 1.013e-05 -0.000550433 0.0 0.0 0.0 0.0
690027000.0 0.0 0.0 0.00046519 -0.000476003 0.0 0.0 0.0 0.0
705026500.0 0.0 0.0 -0.000224432 -0.000531937 0.0 0.0 0.0 0.0
720026000.0 0.0 0.0 -2.1625e-05 -0.000628089 0.0 0.0 0.0 0.0
735025500.0 0.0 0.0 1.5639e-05 -0.000339978 0.0 0.0 0.0 0.0
750025000.0 0.0 0.0 4.2865e-05 -0.000410134 0.0 0.0 0.0 0.0
765024500.0 0.0 0.0 0.000249916 -0.000487553 0.0 0.0 0.0 0.0
780024000.0 0.0 0.0 -0.000127486 -0.001074542 0.0 0.0 0.0 0.0
795023500.0 0.0 0.0 -0.000311085 -0.000720337 0.0 0.0 0.0 0.0
810023000.0 0.0 0.0 -5.661e-06 -0.000202129 0.0 0.0 0.0 0.0
825022500.0 0.0 0.0 -4.3677e-05 -0.000241123 0.0 0.0 0.0 0.0
840022000.0 0.0 0.0 -0.000457067 -0.000439532 0.0 0.0 0.0 0.0
855021500.0 0.0 0.0 0.000245932 -0.00072949 0.0 0.0 0.0 0.0
870021000.0 0.0 0.0 -0.00060277 -0.000694992 0.0 0.0 0.0 0.0
885020500.0 0.0 0.0 -0.000192495 -0.000315017 0.0 0.0 0.0 0.0
900020000.0 0.0 0.0 -0.001534156 0.000186596 0.0 0.0 0.0 0.0
915019500.0 0.0 0.0 0.00220407 -0.002218284 0.0 0.0 0.0 0.0
930019000.0 0.0 0.0 -0.000170038 -0.002675195 0.0 0.0 0.0 0.0
945018500.0 0.0 0.0 0.000834988 -3.8612e-05 0.0 0.0 0.0 0.0
960018000.0 0.0 0.0 -0.002164159 0.000983355 0.0 0.0 0.0 0.0
975017500.0 0.0 0.0 0.00178321 -0.000797516 0.0 0.0 0.0 0.0
990017000.0 0.0 0.0 0.003503106 -0.00117564 0.0 0.0 0.0 0.0
1005016500.0 0.0 0.0 -0.000464738 -0.000131387 0.0 0.0 0.0 0.0
1020016000.0 0.0 0.0 -0.0021494 -0.000218828 0.0 0.0 0.0 0.0
1035015500.0 0.0 0.0 0.003194464 -0.002367892 0.0 0.0 0.0 0.0
1050015000.0 0.0 0.0 -0.000739413 -0.002035647 0.0 0.0 0.0 0.0
1065014500.0 0.0 0.0 -0.002181579 -0.001114201 0.0 0.0 0.0 0.0
1080014000.0 0.0 0.0 0.002388217 -0.002627906 0.0 0.0 0.0 0.0
1095013500.0 0.0 0.0 -0.001699487 -0.001535938 0.0 0.0 0.0 0.0
1110013000.0 0.0 0.0 0.00095472 -0.002440722 0.0 0.0 0.0 0.0
1125012500.0 0.0 0.0 0.001305173 0.001561949 0.0 0.0 0.0 0.0
1140012000.0 0.0 0.0 -0.000417747 -0.001396679 0.0 0.0 0.0 0.0
1155011500.0 0.0 0.0 -0.002642742 -0.001837975 0.0 0.0 0.0 0.0
1170011000.0 0.0 0.0 0.000543706 0.00309143 0.0 0.0 0.0 0.0
1185010500.0 0.0 0.0 -0.002825699 0.002438628 0.0 0.0 0.0 0.0
1200010000.0 0.0 0.0 -0.001940685 -0.00091954 0.0 0.0 0.0 0.0
1215009500.0 0.0 0.0 -0.001851755 0.00510355 0.0 0.0 0.0 0.0
1230009000.0 0.0 0.0 -0.001906993 -0.00028019 0.0 0.0 0.0 0.0
1245008500.0 0.0 0.0 0.002552718 0.002607323 0.0 0.0 0.0 0.0
1260008000.0 0.0 0.0 -0.000499075 0.004018103 0.0 0.0 0.0 0.0
1275007500.0 0.0 0.0 -4.8837e-05 0.006563242 0.0 0.0 0.0 0.0
1290007000.0 0.0 0.0 -1.6699e-05 0.003119297 0.0 0.0 0.0 0.0
1305006500.0 0.0 0.0 0.009909486 -0.002445012 0.0 0.0 0.0 0.0
1320006000.0 0.0 0.0 -0.000734909 0.00842283 0.0 0.0 0.0 0.0
1335005500.0 0.0 0.0 -0.001642045 0.007433267 0.0 0.0 0.0 0.0
1350005000.0 0.0 0.0 0.000194792 -0.006298598 0.0 0.0 0.0 0.0
1365004500.0 0.0 0.0 -0.006197341 0.01101061 0.0 0.0 0.0 0.0
1380004000.0 0.0 0.0 0.012240198 0.00896808 0.0 0.0 0.0 0.0
1395003500.0 0.0 0.0 -0.001321036 0.001684834 0.0 0.0 0.0 0.0
1410003000.0 0.0 0.0 0.009237154 0.00946686 0.0 0.0 0.0 0.0
1425002500.0 0.0 0.0 0.002821224 0.012067094 0.0 0.0 0.0 0.0
1440002000.0 0.0 0.0 -0.004151777 0.0040948 0.0 0.0 0.0 0.0
1455001500.0 0.0 0.0 -0.002005619 0.00944942 0.0 0.0 0.0 0.0
1470001000.0 0.0 0.0 -0.010633322 0.016253074 0.0 0.0 0.0 0.0
1485000500.0 0.0 0.0 0.00999115 0.019267148 0.0 0.0 0.0 0.0
1500000000.0 0.0 0.0 0.002219124 0.010521226 0.0 0.0 0.0 0.0
