! Created with skrf 1.8.0 (http://scikit-rf.org).
# Hz S RI R 50.0 
!freq ReS11 ImS11 ReS21 ImS21 ReS12 ImS12 ReS22 ImS22
50000.0 0.996761664 0.000840055 -5.6383e-05 6.3194e-05 0.0 0.0 0.0 0.0
15049500.0 0.940181248 0.360475008 -3.0903e-05 9.469e-06 0.0 0.0 0.0 0.0
30049000.0 0.750135936 0.67272 -4.0094e-05 -1.9084e-05 0.0 0.0 0.0 0.0
45048500.0 0.461735808 0.892096192 1.013e-06 -2.2653e-05 0.0 0.0 0.0 0.0
60048000.0 0.103416896 1.013448596 -4.4676e-05 4.165e-06 0.0 0.0 0.0 0.0
75047500.0 -0.272908416 0.98829728 -4.5838e-05 -1.3404e-05 0.0 0.0 0.0 0.0
90047000.0 -0.619124928 0.820074048 -3.4298e-05 2.351e-06 0.0 0.0 0.0 0.0
105046500.0 -0.89077152 0.546257216 -7.3664e-05 1.78e-05 0.0 0.0 0.0 0.0
120046000.0 -1.041856884 0.185614464 -3.0805e-05 -4.098e-06 0.0 0.0 0.0 0.0
135045500.0 -1.044781088 -0.209177056 -5.5234e-05 9.742e-06 0.0 0.0 0.0 0.0
150045000.0 -0.914899776 -0.585596992 -3.3806e-05 2.0456e-05 0.0 0.0 0.0 0.0
165044500.0 -0.64849792 -0.884371904 -5.296e-06 4.9686e-05 0.0 0.0 0.0 0.0
180044000.0 -0.31455248 -1.044133188 -3.552e-06 2.9795e-05 0.0 0.0 0.0 0.0
195043500.0 0.063450328 -1.101317408 2.2585e-05 -1.0099e-05 0.0 0.0 0.0 0.0
210043000.0 0.434604544 -1.022589446 -1.9801e-05 2.6493e-05 0.0 0.0 0.0 0.0
225042500.0 0.751044992 -0.821581184 -2.359e-06 1.0675e-05 0.0 0.0 0.0 0.0
240042000.0 0.994878144 -0.540576128 5.198e-06 3.0366e-05 0.0 0.0 0.0 0.0
255041500.0 1.13605392 -0.188844608 -9.552e-06 -6.643e-06 0.0 0.0 0.0 0.0
270041000.0 1.150114176 0.220854784 1.6446e-05 5.246e-05 0.0 0.0 0.0 0.0
285040500.0 1.02264762 0.632860096 -7.541e-06 2.3723e-05 0.0 0.0 0.0 0.0
300040000.0 0.6881136 0.95789632 1.2086e-05 2.7233e-05 0.0 0.0 0.0 0.0
315039500.0 0.318422336 1.191583632 -1.1166e-05 4.7585e-05 0.0 0.0 0.0 0.0
330039000.0 -0.138767584 1.254916544 -0.000114418 -7.0516e-05 0.0 0.0 0.0 0.0
345038500.0 -0.595748672 1.141569856 6.2394e-05 0.000129038 0.0 0.0 0.0 0.0
360038000.0 -0.966458752 0.873977472 1.6427e-05 0.000235716 0.0 0.0 0.0 0.0
375037500.0 -1.255684016 0.478031904 0.000168434 0.000167474 0.0 0.0 0.0 0.0
390037000.0 -1.37990416 -0.01006784 -6.086e-05 4.509e-06 0.0 0.0 0.0 0.0
405036500.0 -1.289863456 -0.516269152 -0.00014922 3.2454e-05 0.0 0.0 0.0 0.0
420036000.0 -1.035961152 -0.966769344 0.000528193 -0.000422175 0.0 0.0 0.0 0.0
435035500.0 -0.630080384 -1.269580608 0.000774478 0.000298107 0.0 0.0 0.0 0.0
450035000.0 -0.161688112 -1.405607456 0.00057181 -0.0003461 0.0 0.0 0.0 0.0
465034500.0 0.301982752 -1.381358752 0.000371568 -0.000176245 0.0 0.0 0.0 0.0
480034000.0 0.721874752 -1.21126568 0.000458583 -6.1089e-05 0.0 0.0 0.0 0.0
495033500.0 1.07206488 -0.916745664 0.000120234 -0.000394131 0.0 0.0 0.0 0.0
510033000.0 1.318915488 -0.52835584 0.000579708 -0.00030588 0.0 0.0 0.0 0.0
525032500.0 1.4063208 -0.068600704 0.000116178 -8.8041e-05 0.0 0.0 0.0 0.0
540032000.0 1.356932512 0.382871264 0.000292775 -0.000111485 0.0 0.0 0.0 0.0
555031500.0 1.151952272 0.797621696 -0.000131174 -2.4005e-05 0.0 0.0 0.0 0.0
570031000.0 0.81439648 1.115362528 1.564e-05 -0.000343782 0.0 0.0 0.0 0.0
585030500.0 0.389433696 1.28603648 0.000286858 -0.000490257 0.0 0.0 0.0 0.0
600030000.0 -0.046628212 1.345596672 0.000103403 -0.00069149 0.0 0.0 0.0 0.0
615029500.0 -0.49652416 1.224342352 -3.977e-06 -0.00075418 0.0 0.0 0.0 0.0
630029000.0 -0.874319744 0.958307584 -0.000102245 -0.000541088 0.0 0.0 0.0 0.0
645028500.0 -1.163591392 0.580386944 0.000457717 -0.000390067 0.0 0.0 0.0 0.0
660028000.0 -1.30829312 0.109556112 0.000196986 -0.000704913 0.0 0.0 0.0 0.0
675027500.0 -1.26708448 -0.390821344 0.000165539 -0.000143829 0.0 0.0 0.0 0.0
690027000.0 -1.01145804 -0.860468864 -0.000105175 -8.7314e-05 0.0 0.0 0.0 0.0
705026500.0 -0.60799296 -1.1631068 0.000357165 -0.000447184 0.0 0.0 0.0 0.0
720026000.0 -0.135031904 -1.264684208 4.2016e-05 -0.000227608 0.0 0.0 0.0 0.0
735025500.0 0.312287552 -1.211936112 -0.000171394 -0.000205329 0.0 0.0 0.0 0.0
750025000.0 0.710446976 -0.994946048 3.8642e-05 -0.000352039 0.0 0.0 0.0 0.0
765024500.0 1.002432943 -0.658113216 -0.000566908 -0.000469182 0.0 0.0 0.0 0.0
780024000.0 1.17537296 -0.253096128 -0.000125578 -0.000764865 0.0 0.0 0.0 0.0
795023500.0 1.10231876 0.213193696 -0.000215614 -0.000534676 0.0 0.0 0.0 0.0
810023000.0 0.865270336 0.550675904 5.5537e-05 -0.000470699 0.0 0.0 0.0 0.0
825022500.0 0.558245248 0.736039488 -0.000124898 -0.000564138 0.0 0.0 0.0 0.0
840022000.0 0.279693088 0.780588096 -0.000331159 -0.000293075 0.0 0.0 0.0 0.0
855021500.0 0.055128596 0.76006784 0.000221752 -0.000436132 0.0 0.0 0.0 0.0
870021000.0 -0.124795768 0.733576 0.000175253 -0.000639722 0.0 0.0 0.0 0.0
885020500.0 -0.29918848 0.719453312 -0.000333427 -3.6981e-05 0.0 0.0 0.0 0.0
900020000.0 -0.523615296 0.746021248 -0.002170214 -0.001939491 0.0 0.0 0.0 0.0
915019500.0 -0.51065696 0.743282368 0.000794433 0.000225276 0.0 0.0 0.0 0.0
930019000.0 -0.492689792 0.74233888 -0.00080678 -0.000791767 0.0 0.0 0.0 0.0
945018500.0 -0.47568752 0.747465728 -0.000303553 -0.000189518 0.0 0.0 0.0 0.0
960018000.0 -0.453792608 0.749562112 -4.5521e-05 -0.001772819 0.0 0.0 0.0 0.0
975017500.0 -0.433242624 0.75264032 -0.001372816 -0.002021663 0.0 0.0 0.0 0.0
990017000.0 -0.420328448 0.757359296 0.001018123 -0.000873694 0.0 0.0 0.0 0.0
1005016500.0 -0.398929216 0.76765504 0.002664971 0.00016422 0.0 0.0 0.0 0.0
1020016000.0 -0.381150976 0.766535424 0.001663758 7.3492e-05 0.0 0.0 0.0 0.0
1035015500.0 -0.354571552 0.782303104 0.001095902 -0.002698148 0.0 0.0 0.0 0.0
1050015000.0 -0.3147168 0.78061504 0.000279507 0.000695038 0.0 0.0 0.0 0.0
1065014500.0 -0.30972992 0.790648512 0.000463478 0.000645315 0.0 0.0 0.0 0.0
1080014000.0 -0.286606528 0.798139776 0.002142025 -0.001515966 0.0 0.0 0.0 0.0
1095013500.0 -0.265690208 0.804823488 9.0113e-05 -0.001134647 0.0 0.0 0.0 0.0
1110013000.0 -0.237495856 0.810472256 -0.001230119 -0.002767733 0.0 0.0 0.0 0.0
1125012500.0 -0.224920176 0.80147584 0.001255589 0.00049547 0.0 0.0 0.0 0.0
1140012000.0 -0.181041664 0.814206144 0.000669383 -0.000225639 0.0 0.0 0.0 0.0
1155011500.0 -0.1465648 0.841457024 -0.001040013 -0.001396339 0.0 0.0 0.0 0.0
1170011000.0 -0.151974352 0.81150976 -0.00047909 0.000136696 0.0 0.0 0.0 0.0
1185010500.0 -0.101207752 0.816936384 -0.001393236 -0.002069185 0.0 0.0 0.0 0.0
1200010000.0 -0.066644996 0.814749632 -0.00205173 -0.001457255 0.0 0.0 0.0 0.0
1215009500.0 -0.035606144 0.820261568 0.000199266 -0.000388439 0.0 0.0 0.0 0.0
1230009000.0 -0.006916303 0.82144128 0.000456721 -0.001572907 0.0 0.0 0.0 0.0
1245008500.0 0.015442158 0.823900736 -0.007249175 -0.002390203 0.0 0.0 0.0 0.0
1260008000.0 0.061828996 0.840017472 0.004238423 -0.002714432 0.0 0.0 0.0 0.0
1275007500.0 0.082442064 0.828724672 -0.00564722 0.002549081 0.0 0.0 0.0 0.0
1290007000.0 0.109854552 0.820707328 -0.003178245 -0.00127854 0.0 0.0 0.0 0.0
1305006500.0 0.15215088 0.810016896 0.005226542 0.001501398 0.0 0.0 0.0 0.0
1320006000.0 0.192949392 0.802492992 -0.000762811 0.005174394 0.0 0.0 0.0 0.0
1335005500.0 0.216665216 0.788740416 -0.006233898 -0.000759938 0.0 0.0 0.0 0.0
1350005000.0 0.243278288 0.787119296 -0.005223276 -0.004342917 0.0 0.0 0.0 0.0
1365004500.0 0.257119984 0.759985088 0.004619766 0.001429754 0.0 0.0 0.0 0.0
1380004000.0 0.304071584 0.758416512 0.000814642 -0.000871996 0.0 0.0 0.0 0.0
1395003500.0 0.32928656 0.754965504 0.003090725 0.001059584 0.0 0.0 0.0 0.0
1410003000.0 0.34725152 0.714705664 -0.000286839 0.005015131 0.0 0.0 0.0 0.0
1425002500.0 0.388014368 0.718017856 0.006842362 0.006523956 0.0 0.0 0.0 0.0
1440002000.0 0.387085312 0.676343168 0.003571049 0.002128809 0.0 0.0 0.0 0.0
1455001500.0 0.41898048 0.664563776 0.000867353 0.002707661 0.0 0.0 0.0 0.0
1470001000.0 0.454812576 0.648902016 0.003890426 0.007935459 0.0 0.0 0.0 0.0
1485000500.0 0.461693952 0.643814528 0.011351406 0.010032608 0.0 0.0 0.0 0.0
1500000000.0 0.486085504 0.605137024 0.007027074 0.00874741 0.0 0.0 0.0 0.0
