! Created with skrf 1.8.0 (http://scikit-rf.org).
# Hz S RI R 50.0 
!freq ReS11 ImS11 ReS21 ImS21 ReS12 ImS12 ReS22 ImS22
50000.0 0.99619744 0.001358135 -3.752e-05 3.9548e-05 0.0 0.0 0.0 0.0
15049500.0 0.939188864 0.360775264 -1.4992e-05 1.1914e-05 0.0 0.0 0.0 0.0
30049000.0 0.749481472 0.67240736 -3.3629e-05 -1.1421e-05 0.0 0.0 0.0 0.0
45048500.0 0.461346432 0.891917056 -1.4725e-05 1.5241e-05 0.0 0.0 0.0 0.0
60048000.0 0.10330752 1.013201476 -4.2102e-05 -5.168e-06 0.0 0.0 0.0 0.0
75047500.0 -0.273128096 0.987570176 -7.0363e-05 -2.0067e-05 0.0 0.0 0.0 0.0
90047000.0 -0.61904672 0.81961184 -5.5836e-05 3.1702e-05 0.0 0.0 0.0 0.0
105046500.0 -0.890683328 0.545903168 -6.2034e-05 1.87e-05 0.0 0.0 0.0 0.0
120046000.0 -1.04123056 0.185321856 -6.6829e-05 1.9024e-05 0.0 0.0 0.0 0.0
135045500.0 -1.046143532 -0.208903616 -1.7398e-05 4.2781e-05 0.0 0.0 0.0 0.0
150045000.0 -0.914604864 -0.585636288 8.574e-06 3.6771e-05 0.0 0.0 0.0 0.0
165044500.0 -0.64820704 -0.8840064 -2.4828e-05 1.0997e-05 0.0 0.0 0.0 0.0
180044000.0 -0.314601024 -1.043079376 1.773e-06 1.5738e-05 0.0 0.0 0.0 0.0
195043500.0 0.063825256 -1.10087168 1.6051e-05 2.0629e-05 0.0 0.0 0.0 0.0
210043000.0 0.434146432 -1.021962046 -2.4884e-05 3.7703e-05 0.0 0.0 0.0 0.0
225042500.0 0.751256128 -0.821481792 2.1335e-05 6.9751e-05 0.0 0.0 0.0 0.0
240042000.0 0.9940976 -0.53998752 1.9165e-05 3.107e-05 0.0 0.0 0.0 0.0
255041500.0 1.135815024 -0.188027664 4.668e-06 2.5342e-05 0.0 0.0 0.0 0.0
270041000.0 1.149431936 0.220435568 4.57e-06 4.9378e-05 0.0 0.0 0.0 0.0
285040500.0 1.02283299 0.632181056 5.415e-05 4.3932e-05 0.0 0.0 0.0 0.0
300040000.0 0.687567744 0.957135808 0.000504707 0.000239018 0.0 0.0 0.0 0.0
315039500.0 0.319312704 1.19103312 0.000402264 0.000157291 0.0 0.0 0.0 0.0
330039000.0 -0.138954576 1.25433672 -0.000309536 -7.4095e-05 0.0 0.0 0.0 0.0
345038500.0 -0.596715392 1.143781776 0.000233535 0.000162355 0.0 0.0 0.0 0.0
360038000.0 -0.967046208 0.872325568 0.000115798 7.9049e-05 0.0 0.0 0.0 0.0
375037500.0 -1.25519872 0.480273056 0.000149788 0.000219762 0.0 0.0 0.0 0.0
390037000.0 -1.358094688 -0.020311558 0.000140602 -0.000210798 0.0 0.0 0.0 0.0
405036500.0 -1.291537632 -0.515425376 -0.000256777 -0.00014001 0.0 0.0 0.0 0.0
420036000.0 -1.031077384 -0.965479552 0.000105771 -1.0225e-05 0.0 0.0 0.0 0.0
435035500.0 -0.632485504 -1.2692424 9.9199e-05 -5.606e-05 0.0 0.0 0.0 0.0
450035000.0 -0.162190624 -1.402812128 0.000564362 0.000248686 0.0 0.0 0.0 0.0
465034500.0 0.300518048 -1.376104 0.000528086 -0.000156449 0.0 0.0 0.0 0.0
480034000.0 0.723684224 -1.210756304 0.000310715 -0.000302786 0.0 0.0 0.0 0.0
495033500.0 1.06891024 -0.918725696 0.000384031 -0.000242741 0.0 0.0 0.0 0.0
510033000.0 1.315630304 -0.527428992 0.000625637 9.1262e-05 0.0 0.0 0.0 0.0
525032500.0 1.4076816 -0.07031364 -6.3142e-05 -0.000373122 0.0 0.0 0.0 0.0
540032000.0 1.3545792 0.385434656 0.000415715 -0.000692456 0.0 0.0 0.0 0.0
555031500.0 1.153063776 0.801869824 0.000398209 -0.000259757 0.0 0.0 0.0 0.0
570031000.0 0.80836 1.109455584 6e-07 -0.000222185 0.0 0.0 0.0 0.0
585030500.0 0.39602128 1.287379872 0.0002325 -0.001017004 0.0 0.0 0.0 0.0
600030000.0 -0.049875316 1.340355648 0.000503076 -0.00082341 0.0 0.0 0.0 0.0
615029500.0 -0.497703328 1.22523808 0.000537553 -0.000847183 0.0 0.0 0.0 0.0
630029000.0 -0.877571008 0.96159712 0.000218194 -0.000529698 0.0 0.0 0.0 0.0
645028500.0 -1.168457984 0.582968832 0.000106621 -0.000922172 0.0 0.0 0.0 0.0
660028000.0 -1.307487264 0.101548064 -0.000154338 -0.000331986 0.0 0.0 0.0 0.0
675027500.0 -1.262074 -0.387103424 0.000599437 -0.000714805 0.0 0.0 0.0 0.0
690027000.0 -1.012517334 -0.863507456 -0.000228566 -0.000499616 0.0 0.0 0.0 0.0
705026500.0 -0.604407616 -1.165186768 3.7168e-05 -0.000558407 0.0 0.0 0.0 0.0
720026000.0 -0.13309808 -1.263727904 0.000291498 -0.000550328 0.0 0.0 0.0 0.0
735025500.0 0.315825344 -1.20788872 -0.000212073 -0.000549066 0.0 0.0 0.0 0.0
750025000.0 0.708701376 -0.99888 0.000286723 -0.000410308 0.0 0.0 0.0 0.0
765024500.0 1.002444387 -0.657091904 -0.000423341 -0.000536042 0.0 0.0 0.0 0.0
780024000.0 1.150950192 -0.250613712 0.000187297 -0.000167907 0.0 0.0 0.0 0.0
795023500.0 1.103655816 0.210210016 -0.0001506 -0.000671861 0.0 0.0 0.0 0.0
810023000.0 0.864561792 0.556214144 -0.000278209 -0.00053337 0.0 0.0 0.0 0.0
825022500.0 0.55967104 0.735983424 0.000112885 -0.000652904 0.0 0.0 0.0 0.0
840022000.0 0.276361184 0.782304384 -0.000151453 -0.000325054 0.0 0.0 0.0 0.0
855021500.0 0.05501064 0.762388736 9.0729e-05 -0.000582637 0.0 0.0 0.0 0.0
870021000.0 -0.128733512 0.733526016 -0.000251981 -5.2098e-05 0.0 0.0 0.0 0.0
885020500.0 -0.296836768 0.721333312 0.000103615 -0.000269426 0.0 0.0 0.0 0.0
900020000.0 -0.52941136 0.739314048 0.002284781 0.000660411 0.0 0.0 0.0 0.0
915019500.0 -0.509021984 0.747030272 0.000308126 -0.001591988 0.0 0.0 0.0 0.0
930019000.0 -0.492173408 0.736514048 0.00015479 -0.000113307 0.0 0.0 0.0 0.0
945018500.0 -0.470976032 0.740468352 0.001495545 -0.000342773 0.0 0.0 0.0 0.0
960018000.0 -0.451651648 0.747496832 0.00120302 -0.00196255 0.0 0.0 0.0 0.0
975017500.0 -0.43894768 0.762712 0.002936919 0.000290035 0.0 0.0 0.0 0.0
990017000.0 -0.42290112 0.762405952 0.001110146 -0.001156941 0.0 0.0 0.0 0.0
1005016500.0 -0.393871808 0.765482624 0.000338888 -0.000831278 0.0 0.0 0.0 0.0
1020016000.0 -0.367778656 0.77922752 -0.000497586 -0.000143289 0.0 0.0 0.0 0.0
1035015500.0 -0.3537984 0.785126336 -0.000497974 0.000601076 0.0 0.0 0.0 0.0
1050015000.0 -0.33976368 0.800683264 0.001647133 -0.002751171 0.0 0.0 0.0 0.0
1065014500.0 -0.316319008 0.796906624 0.000558695 -0.00060827 0.0 0.0 0.0 0.0
1080014000.0 -0.290623968 0.803427584 0.000425038 -0.003094343 0.0 0.0 0.0 0.0
1095013500.0 -0.2648696 0.808118848 -0.000607334 -0.00219625 0.0 0.0 0.0 0.0
1110013000.0 -0.233747568 0.815202752 -0.001545972 -0.006212313 0.0 0.0 0.0 0.0
1125012500.0 -0.226498016 0.799954368 -0.000820586 -0.000901192 0.0 0.0 0.0 0.0
1140012000.0 -0.181783632 0.81511968 0.000613357 0.001358407 0.0 0.0 0.0 0.0
1155011500.0 -0.14610008 0.79384864 -0.001707214 -0.001503232 0.0 0.0 0.0 0.0
1170011000.0 -0.127300304 0.810150016 0.001731632 0.001088574 0.0 0.0 0.0 0.0
1185010500.0 -0.08547332 0.816151488 -0.000847522 -0.001219709 0.0 0.0 0.0 0.0
1200010000.0 -0.068789024 0.818892608 -0.006336811 -0.000593962 0.0 0.0 0.0 0.0
1215009500.0 -0.03991734 0.828437312 0.0003762 0.001784913 0.0 0.0 0.0 0.0
1230009000.0 -0.00073031 0.818750016 -0.003908524 -0.001741538 0.0 0.0 0.0 0.0
1245008500.0 0.01509737 0.818340928 0.00334975 -0.001665957 0.0 0.0 0.0 0.0
1260008000.0 0.063361988 0.834913856 0.000284147 -0.003804222 0.0 0.0 0.0 0.0
1275007500.0 0.080178512 0.831481344 0.004930348 -0.003683566 0.0 0.0 0.0 0.0
1290007000.0 0.1015364 0.812807808 -0.004742961 0.001651457 0.0 0.0 0.0 0.0
1305006500.0 0.143079264 0.815552704 -0.001288937 0.002630321 0.0 0.0 0.0 0.0
1320006000.0 0.17440848 0.798067712 0.000625775 0.004696728 0.0 0.0 0.0 0.0
1335005500.0 0.202868 0.794534144 0.002221188 -0.005488034 0.0 0.0 0.0 0.0
1350005000.0 0.243799904 0.78972256 8.246e-05 0.004905701 0.0 0.0 0.0 0.0
1365004500.0 0.289284128 0.705392448 -3.6151e-05 0.005173217 0.0 0.0 0.0 0.0
1380004000.0 0.296789088 0.758835136 0.00965464 -0.00564724 0.0 0.0 0.0 0.0
1395003500.0 0.31421568 0.749733824 -0.005732027 -0.001221344 0.0 0.0 0.0 0.0
1410003000.0 0.353782656 0.719380288 -0.00671475 0.01398534 0.0 0.0 0.0 0.0
1425002500.0 0.36717776 0.709810816 -0.005206613 0.015211956 0.0 0.0 0.0 0.0
1440002000.0 0.382265984 0.679610624 -0.002712601 0.006066257 0.0 0.0 0.0 0.0
1455001500.0 0.406348064 0.67796832 0.011400446 -0.005029355 0.0 0.0 0.0 0.0
1470001000.0 0.442906816 0.664927616 0.006419958 0.006537706 0.0 0.0 0.0 0.0
1485000500.0 0.464085376 0.631801792 0.013223142 0.000332457 0.0 0.0 0.0 0.0
1500000000.0 0.46043456 0.621773376 0.009597692 0.007470602 0.0 0.0 0.0 0.0
