! Created with skrf 1.8.0 (http://scikit-rf.org).
# Hz S RI R 50.0 
!freq ReS11 ImS11 ReS21 ImS21 ReS12 ImS12 ReS22 ImS22
50000.0 0.996761216 0.000534268 -2.9334e-05 -3.858e-06 0.0 0.0 0.0 0.0
15049500.0 0.939279488 0.36036384 6.93e-07 -5.373e-06 0.0 0.0 0.0 0.0
30049000.0 0.749362944 0.672170176 -4.7037e-05 -7.991e-06 0.0 0.0 0.0 0.0
45048500.0 0.461443936 0.891809728 -5.438e-05 -4.797e-05 0.0 0.0 0.0 0.0
60048000.0 0.1033242 1.012966038 -4.5522e-05 1.8553e-05 0.0 0.0 0.0 0.0
75047500.0 -0.273015776 0.987515648 -6.6342e-05 -2.7982e-05 0.0 0.0 0.0 0.0
90047000.0 -0.618780544 0.819349504 -6.3027e-05 -1.4681e-05 0.0 0.0 0.0 0.0
105046500.0 -0.890475776 0.545808832 -7.0681e-05 1.8343e-05 0.0 0.0 0.0 0.0
120046000.0 -1.04107356 0.1852928 -8.6622e-05 -5.695e-06 0.0 0.0 0.0 0.0
135045500.0 -1.04447162 -0.208307712 -5.69e-05 6.56e-06 0.0 0.0 0.0 0.0
150045000.0 -0.914293248 -0.585336 -1.7648e-05 1.836e-06 0.0 0.0 0.0 0.0
165044500.0 -0.647743424 -0.884033472 3.6e-06 5.7249e-05 0.0 0.0 0.0 0.0
180044000.0 -0.314599744 -1.043507336 1.1985e-05 3.4655e-05 0.0 0.0 0.0 0.0
195043500.0 0.063395636 -1.100055336 -2.922e-06 2.4908e-05 0.0 0.0 0.0 0.0
210043000.0 0.433875872 -1.02144456 7.271e-06 3.3835e-05 0.0 0.0 0.0 0.0
225042500.0 0.750283584 -0.821203776 -2.9558e-05 3.2013e-05 0.0 0.0 0.0 0.0
240042000.0 0.994004992 -0.540560064 -1.0512e-05 4.593e-05 0.0 0.0 0.0 0.0
255041500.0 1.135370976 -0.18859952 8.31e-07 2.289e-05 0.0 0.0 0.0 0.0
270041000.0 1.150161504 0.221070704 3.6991e-05 3.0724e-05 0.0 0.0 0.0 0.0
285040500.0 1.020555496 0.632210752 3.7205e-05 2.2105e-05 0.0 0.0 0.0 0.0
300040000.0 0.688278912 0.95817856 -0.000373465 -2.3167e-05 0.0 0.0 0.0 0.0
315039500.0 0.320064928 1.190675856 2.5872e-05 -0.000189652 0.0 0.0 0.0 0.0
330039000.0 -0.135292016 1.255001664 0.000166426 -0.000276746 0.0 0.0 0.0 0.0
345038500.0 -0.59383456 1.140651344 -1.0556e-05 0.000106525 0.0 0.0 0.0 0.0
360038000.0 -0.965185856 0.872899712 6.781e-05 -4.3644e-05 0.0 0.0 0.0 0.0
375037500.0 -1.253502256 0.475842208 7.012e-06 0.000215048 0.0 0.0 0.0 0.0
390037000.0 -1.373575328 -0.00261152 0.000290551 0.000187584 0.0 0.0 0.0 0.0
405036500.0 -1.285612 -0.516771616 0.000143214 -0.000138853 0.0 0.0 0.0 0.0
420036000.0 -1.03597188 -0.961925312 -0.000388357 -9.977e-06 0.0 0.0 0.0 0.0
435035500.0 -0.631662976 -1.269170752 -6.8089e-05 0.000237595 0.0 0.0 0.0 0.0
450035000.0 -0.174431184 -1.396221504 0.00037667 -9.7882e-05 0.0 0.0 0.0 0.0
465034500.0 0.302381728 -1.37980736 0.00024148 6.6666e-05 0.0 0.0 0.0 0.0
480034000.0 0.722658944 -1.210964208 0.000362162 0.000203119 0.0 0.0 0.0 0.0
495033500.0 1.06966984 -0.914496064 -3.5848e-05 -0.000161471 0.0 0.0 0.0 0.0
510033000.0 1.313702464 -0.5303784 0.000201397 -0.000202609 0.0 0.0 0.0 0.0
525032500.0 1.40274752 -0.06636472 0.00047106 -0.000493317 0.0 0.0 0.0 0.0
540032000.0 1.3530208 0.38287936 0.000204689 4.1199e-05 0.0 0.0 0.0 0.0
555031500.0 1.150906448 0.795842944 0.000285823 -0.000419453 0.0 0.0 0.0 0.0
570031000.0 0.814045376 1.108131888 0.000449794 -0.000196739 0.0 0.0 0.0 0.0
585030500.0 0.38632768 1.288048512 0.000641119 5.336e-06 0.0 0.0 0.0 0.0
600030000.0 -0.050690236 1.340858816 3.3146e-05 -0.000977411 0.0 0.0 0.0 0.0
615029500.0 -0.497479904 1.21865272 0.000498031 -0.000699899 0.0 0.0 0.0 0.0
630029000.0 -0.873791488 0.955782016 -0.000331873 -0.000489777 0.0 0.0 0.0 0.0
645028500.0 -1.165093904 0.582313792 0.00011405 -0.000688506 0.0 0.0 0.0 0.0
660028000.0 -1.304992928 0.097534392 0.00013374 -0.000474963 0.0 0.0 0.0 0.0
675027500.0 -1.26431096 -0.396144704 -0.000315009 -0.000421276 0.0 0.0 0.0 0.0
690027000.0 -1.007484794 -0.866907584 1.9111e-05 -0.000453423 0.0 0.0 0.0 0.0
705026500.0 -0.599422528 -1.163701888 -3.8059e-05 -0.000591802 0.0 0.0 0.0 0.0
720026000.0 -0.13530344 -1.26664984 4.0215e-05 -0.000161414 0.0 0.0 0.0 0.0
735025500.0 0.319037568 -1.207493664 0.00074646 -0.000713984 0.0 0.0 0.0 0.0
750025000.0 0.708899776 -0.996275264 -0.000609292 -0.000824533 0.0 0.0 0.0 0.0
765024500.0 1.002813339 -0.651651072 0.000203392 -0.000707248 0.0 0.0 0.0 0.0
780024000.0 1.126612664 -0.23092208 -0.000218375 -0.000218437 0.0 0.0 0.0 0.0
795023500.0 1.101359848 0.214569056 1.155e-06 -0.000565117 0.0 0.0 0.0 0.0
810023000.0 0.865343168 0.5575328 -0.00029339 -0.00081342 0.0 0.0 0.0 0.0
825022500.0 0.556573504 0.738126272 -3.2271e-05 1.8505e-05 0.0 0.0 0.0 0.0
840022000.0 0.273950336 0.78099808 -0.000398775 -0.000707592 0.0 0.0 0.0 0.0
855021500.0 0.053327116 0.762434048 0.000436799 0.000126332 0.0 0.0 0.0 0.0
870021000.0 -0.127964216 0.727579008 -0.000352278 -0.000143799 0.0 0.0 0.0 0.0
885020500.0 -0.302088736 0.716534272 0.000644123 -0.000331281 0.0 0.0 0.0 0.0
900020000.0 -0.523805376 0.734579136 -0.002527436 -0.00284291 0.0 0.0 0.0 0.0
915019500.0 -0.50906592 0.740438912 -0.001902874 -0.000413602 0.0 0.0 0.0 0.0
930019000.0 -0.491021344 0.739813184 0.001150898 -0.001450606 0.0 0.0 0.0 0.0
945018500.0 -0.468324512 0.744754048 0.001090361 -0.001626249 0.0 0.0 0.0 0.0
960018000.0 -0.450902208 0.748915776 0.000987251 -0.002244049 0.0 0.0 0.0 0.0
975017500.0 -0.440826048 0.754368192 0.001792425 -0.002643418 0.0 0.0 0.0 0.0
990017000.0 -0.41786816 0.759104064 -0.001011745 -0.001133785 0.0 0.0 0.0 0.0
1005016500.0 -0.399273536 0.767746496 -0.0003362 -0.003653794 0.0 0.0 0.0 0.0
1020016000.0 -0.382445408 0.777335936 0.002403058 -0.000367323 0.0 0.0 0.0 0.0
1035015500.0 -0.351515008 0.779219328 -0.002315086 -9.8154e-05 0.0 0.0 0.0 0.0
1050015000.0 -0.323384288 0.774465344 0.000339311 -0.003769284 0.0 0.0 0.0 0.0
1065014500.0 -0.31139296 0.792596928 -0.001332781 -0.000898994 0.0 0.0 0.0 0.0
1080014000.0 -0.286696032 0.797762624 -0.002395265 -0.001498373 0.0 0.0 0.0 0.0
1095013500.0 -0.268352304 0.80654624 -0.002673661 -0.002586298 0.0 0.0 0.0 0.0
1110013000.0 -0.239584832 0.821672064 0.000988052 -0.003387901 0.0 0.0 0.0 0.0
1125012500.0 -0.219898256 0.80856032 -0.000556673 -0.001243758 0.0 0.0 0.0 0.0
1140012000.0 -0.185226656 0.836187264 -0.001183629 -0.000618665 0.0 0.0 0.0 0.0
1155011500.0 -0.177875184 0.836347968 -0.001031095 -0.000846026 0.0 0.0 0.0 0.0
1170011000.0 -0.124483232 0.814438784 -0.002785593 0.002492375 0.0 0.0 0.0 0.0
1185010500.0 -0.096686296 0.824570176 0.000112827 -0.001900804 0.0 0.0 0.0 0.0
1200010000.0 -0.067453168 0.826940032 0.00051536 0.001640141 0.0 0.0 0.0 0.0
1215009500.0 -0.03740686 0.828866112 -0.00634874 -0.000539814 0.0 0.0 0.0 0.0
1230009000.0 -0.009173538 0.828256192 -0.002223667 0.003951992 0.0 0.0 0.0 0.0
1245008500.0 0.021431076 0.830755904 -0.002154179 0.002387443 0.0 0.0 0.0 0.0
1260008000.0 0.065253936 0.843039424 -0.005850528 -0.002474498 0.0 0.0 0.0 0.0
1275007500.0 0.086831736 0.825653248 -0.000565915 0.000284492 0.0 0.0 0.0 0.0
1290007000.0 0.119134944 0.822717568 0.000719201 -0.000648396 0.0 0.0 0.0 0.0
1305006500.0 0.15693456 0.819827648 0.004011167 0.000523321 0.0 0.0 0.0 0.0
1320006000.0 0.184625488 0.814309632 0.002822009 -0.004610647 0.0 0.0 0.0 0.0
1335005500.0 0.215607696 0.797318848 0.002402068 0.0118053 0.0 0.0 0.0 0.0
1350005000.0 0.250505888 0.786951488 -0.004334043 0.002938718 0.0 0.0 0.0 0.0
1365004500.0 0.264603264 0.771116928 0.006399494 0.003431955 0.0 0.0 0.0 0.0
1380004000.0 0.295981248 0.76366176 0.007833696 0.006070502 0.0 0.0 0.0 0.0
1395003500.0 0.320900608 0.755737664 0.004582543 0.004335784 0.0 0.0 0.0 0.0
1410003000.0 0.359676544 0.730134208 0.00417144 -0.000889166 0.0 0.0 0.0 0.0
1425002500.0 0.379105728 0.709843008 -0.004547405 0.000426322 0.0 0.0 0.0 0.0
1440002000.0 0.40471264 0.685079104 0.007178228 0.017533924 0.0 0.0 0.0 0.0
1455001500.0 0.433182848 0.692676032 0.010309486 -0.003191964 0.0 0.0 0.0 0.0
1470001000.0 0.41851936 0.682126656 0.003617667 -0.004110662 0.0 0.0 0.0 0.0
1485000500.0 0.468833824 0.636724608 0.011552058 0.00146234 0.0 0.0 0.0 0.0
1500000000.0 0.457847168 0.611750272 -0.002523904 0.008040479 0.0 0.0 0.0 0.0
