! Created with skrf 1.8.0 (http://scikit-rf.org).
# Hz S RI R 50.0 
!freq ReS11 ImS11 ReS21 ImS21 ReS12 ImS12 ReS22 ImS22
50000.0 0.0 0.0 -5.5773e-05 6.3403e-05 0.0 0.0 0.0 0.0
15049500.0 0.0 0.0 -2.381e-05 2.7618e-05 0.0 0.0 0.0 0.0
30049000.0 0.0 0.0 -3.5699e-05 -8.359e-06 0.0 0.0 0.0 0.0
45048500.0 0.0 0.0 -2.6581e-05 -4.4514e-05 0.0 0.0 0.0 0.0
60048000.0 0.0 0.0 -4.1177e-05 1.8419e-05 0.0 0.0 0.0 0.0
75047500.0 0.0 0.0 -2.7438e-05 -4.1789e-05 0.0 0.0 0.0 0.0
90047000.0 0.0 0.0 -4.1419e-05 1.2496e-05 0.0 0.0 0.0 0.0
105046500.0 0.0 0.0 -6.2459e-05 3.3773e-05 0.0 0.0 0.0 0.0
120046000.0 0.0 0.0 -6.3018e-05 1.2645e-05 0.0 0.0 0.0 0.0
135045500.0 0.0 0.0 -7.9398e-05 3.2079e-05 0.0 0.0 0.0 0.0
150045000.0 0.0 0.0 -2.6555e-05 5.1125e-05 0.0 0.0 0.0 0.0
165044500.0 0.0 0.0 -6.599e-06 3.8847e-05 0.0 0.0 0.0 0.0
180044000.0 0.0 0.0 -6.833e-06 1.0567e-05 0.0 0.0 0.0 0.0
195043500.0 0.0 0.0 6.464e-06 1.8297e-05 0.0 0.0 0.0 0.0
210043000.0 0.0 0.0 -2.0955e-05 2.8346e-05 0.0 0.0 0.0 0.0
225042500.0 0.0 0.0 -1.5596e-05 3.8981e-05 0.0 0.0 0.0 0.0
240042000.0 0.0 0.0 -1.6332e-05 2.6214e-05 0.0 0.0 0.0 0.0
255041500.0 0.0 0.0 -2.5643e-05 3.5238e-05 0.0 0.0 0.0 0.0
270041000.0 0.0 0.0 -5.393e-06 2.9748e-05 0.0 0.0 0.0 0.0
285040500.0 0.0 0.0 1.5791e-05 2.6618e-05 0.0 0.0 0.0 0.0
300040000.0 0.0 0.0 -0.000190535 -0.0002643 0.0 0.0 0.0 0.0
315039500.0 0.0 0.0 0.000223932 -0.000231835 0.0 0.0 0.0 0.0
330039000.0 0.0 0.0 0.000266328 -9.6848e-05 0.0 0.0 0.0 0.0
345038500.0 0.0 0.0 0.000187038 0.000104846 0.0 0.0 0.0 0.0
360038000.0 0.0 0.0 0.000167965 0.000179445 0.0 0.0 0.0 0.0
375037500.0 0.0 0.0 -0.000260846 0.000132611 0.0 0.0 0.0 0.0
390037000.0 0.0 0.0 -3.4295e-05 -0.000130137 0.0 0.0 0.0 0.0
405036500.0 0.0 0.0 0.000120976 0.000227454 0.0 0.0 0.0 0.0
420036000.0 0.0 0.0 7.0255e-05 0.000467859 0.0 0.0 0.0 0.0
435035500.0 0.0 0.0 0.000160143 -0.000359059 0.0 0.0 0.0 0.0
450035000.0 0.0 0.0 0.000466077 -0.000341692 0.0 0.0 0.0 0.0
465034500.0 0.0 0.0 0.000427726 8.3391e-05 0.0 0.0 0.0 0.0
480034000.0 0.0 0.0 0.0001084 -0.000242454 0.0 0.0 0.0 0.0
495033500.0 0.0 0.0 0.00067832 6.7074e-05 0.0 0.0 0.0 0.0
510033000.0 0.0 0.0 0.000639213 -0.000410558 0.0 0.0 0.0 0.0
525032500.0 0.0 0.0 -6.793e-06 0.00017094 0.0 0.0 0.0 0.0
540032000.0 0.0 0.0 0.000410369 -0.000521393 0.0 0.0 0.0 0.0
555031500.0 0.0 0.0 0.000311626 -0.000351731 0.0 0.0 0.0 0.0
570031000.0 0.0 0.0 -5.8723e-05 -0.000562129 0.0 0.0 0.0 0.0
585030500.0 0.0 0.0 0.000237516 0.000233298 0.0 0.0 0.0 0.0
600030000.0 0.0 0.0 -0.000342895 -0.000983635 0.0 0.0 0.0 0.0
615029500.0 0.0 0.0 -8.292e-06 -0.000263615 0.0 0.0 0.0 0.0
630029000.0 0.0 0.0 -0.000135175 -0.000486216 0.0 0.0 0.0 0.0
645028500.0 0.0 0.0 0.000448731 -0.000404744 0.0 0.0 0.0 0.0
660028000.0 0.0 0.0 2.8128e-05 -0.000425677 0.0 0.0 0.0 0.0
675027500.0 0.0 0.0 -0.000108165 -0.00088177 0.0 0.0 0.0 0.0
690027000.0 0.0 0.0 -0.000316199 -0.000336254 0.0 0.0 0.0 0.0
705026500.0 0.0 0.0 0.000124043 -0.000837217 0.0 0.0 0.0 0.0
720026000.0 0.0 0.0 -0.000221476 -0.000355539 0.0 0.0 0.0 0.0
735025500.0 0.0 0.0 -0.000129772 -0.0007212 0.0 0.0 0.0 0.0
750025000.0 0.0 0.0 0.000121405 -0.000328881 0.0 0.0 0.0 0.0
765024500.0 0.0 0.0 0.000166228 -0.000786844 0.0 0.0 0.0 0.0
780024000.0 0.0 0.0 0.00030976 -0.000489522 0.0 0.0 0.0 0.0
795023500.0 0.0 0.0 -0.000279291 -0.000698105 0.0 0.0 0.0 0.0
810023000.0 0.0 0.0 0.000257927 -0.000220526 0.0 0.0 0.0 0.0
825022500.0 0.0 0.0 -9.8884e-05 -0.000338655 0.0 0.0 0.0 0.0
840022000.0 0.0 0.0 -6.8955e-05 -0.000361236 0.0 0.0 0.0 0.0
855021500.0 0.0 0.0 5.8225e-05 -0.000546999 0.0 0.0 0.0 0.0
870021000.0 0.0 0.0 1.8389e-05 -0.000735431 0.0 0.0 0.0 0.0
885020500.0 0.0 0.0 4.5794e-05 -0.00032065 0.0 0.0 0.0 0.0
900020000.0 0.0 0.0 -0.000773897 -0.002739581 0.0 0.0 0.0 0.0
915019500.0 0.0 0.0 0.001523002 -0.000826998 0.0 0.0 0.0 0.0
930019000.0 0.0 0.0 0.001503269 -0.000357954 0.0 0.0 0.0 0.0
945018500.0 0.0 0.0 0.000123936 -0.001589119 0.0 0.0 0.0 0.0
960018000.0 0.0 0.0 0.001760549 -0.000511964 0.0 0.0 0.0 0.0
975017500.0 0.0 0.0 -0.000838007 -0.000480711 0.0 0.0 0.0 0.0
990017000.0 0.0 0.0 -0.000151422 -0.001301702 0.0 0.0 0.0 0.0
1005016500.0 0.0 0.0 0.000501439 -0.001981686 0.0 0.0 0.0 0.0
1020016000.0 0.0 0.0 0.00144752 -0.000947556 0.0 0.0 0.0 0.0
1035015500.0 0.0 0.0 0.002342342 -0.001684163 0.0 0.0 0.0 0.0
1050015000.0 0.0 0.0 0.001371351 0.001366564 0.0 0.0 0.0 0.0
1065014500.0 0.0 0.0 -9.4367e-05 -0.002728691 0.0 0.0 0.0 0.0
1080014000.0 0.0 0.0 0.000431295 -0.001355346 0.0 0.0 0.0 0.0
1095013500.0 0.0 0.0 -0.00011476 0.00126969 0.0 0.0 0.0 0.0
1110013000.0 0.0 0.0 0.003013063 -0.004387767 0.0 0.0 0.0 0.0
1125012500.0 0.0 0.0 -0.000886284 -0.003095618 0.0 0.0 0.0 0.0
1140012000.0 0.0 0.0 -0.000535169 0.001078369 0.0 0.0 0.0 0.0
1155011500.0 0.0 0.0 -0.002689645 0.000995655 0.0 0.0 0.0 0.0
1170011000.0 0.0 0.0 -0.004056867 -0.005734247 0.0 0.0 0.0 0.0
1185010500.0 0.0 0.0 0.002354067 0.001109993 0.0 0.0 0.0 0.0
1200010000.0 0.0 0.0 -0.002246459 -0.000961428 0.0 0.0 0.0 0.0
1215009500.0 0.0 0.0 -0.00172077 0.000455689 0.0 0.0 0.0 0.0
1230009000.0 0.0 0.0 -0.00072734 0.003888805 0.0 0.0 0.0 0.0
1245008500.0 0.0 0.0 0.001852937 -0.005089494 0.0 0.0 0.0 0.0
1260008000.0 0.0 0.0 -0.002579129 0.001397365 0.0 0.0 0.0 0.0
1275007500.0 0.0 0.0 -0.002656266 0.004980859 0.0 0.0 0.0 0.0
1290007000.0 0.0 0.0 0.001932057 -0.005524277 0.0 0.0 0.0 0.0
1305006500.0 0.0 0.0 -0.00384055 -0.002663409 0.0 0.0 0.0 0.0
1320006000.0 0.0 0.0 0.003092362 9.2163e-05 0.0 0.0 0.0 0.0
1335005500.0 0.0 0.0 0.001346329 0.002867632 0.0 0.0 0.0 0.0
1350005000.0 0.0 0.0 -0.001336813 0.008705908 0.0 0.0 0.0 0.0
1365004500.0 0.0 0.0 -0.001626775 0.00349617 0.0 0.0 0.0 0.0
1380004000.0 0.0 0.0 -0.002568159 0.004447283 0.0 0.0 0.0 0.0
1395003500.0 0.0 0.0 -0.004669437 0.001824722 0.0 0.0 0.0 0.0
1410003000.0 0.0 0.0 0.001304465 0.00752392 0.0 0.0 0.0 0.0
1425002500.0 0.0 0.0 0.009315792 0.003284847 0.0 0.0 0.0 0.0
1440002000.0 0.0 0.0 0.005956215 0.00100495 0.0 0.0 0.0 0.0
1455001500.0 0.0 0.0 0.003626181 0.001488068 0.0 0.0 0.0 0.0
1470001000.0 0.0 0.0 -0.007461952 0.004600778 0.0 0.0 0.0 0.0
1485000500.0 0.0 0.0 -0.00213003 -0.007924217 0.0 0.0 0.0 0.0
1500000000.0 0.0 0.0 0.011226034 0.00914346 0.0 0.0 0.0 0.0
