! Created with skrf 1.8.0 (http://scikit-rf.org).
# Hz S RI R 50.0 
!freq ReS11 ImS11 ReS21 ImS21 ReS12 ImS12 ReS22 ImS22
50000.0 0.997283456 0.000979832 1.912e-05 4.1088e-05 0.0 0.0 0.0 0.0
15049500.0 0.940001472 0.360649088 -4.2156e-05 9.181e-06 0.0 0.0 0.0 0.0
30049000.0 0.749710528 0.672926656 -1.5273e-05 -5.329e-06 0.0 0.0 0.0 0.0
45048500.0 0.461715744 0.892202176 -7.2595e-05 -5.343e-06 0.0 0.0 0.0 0.0
60048000.0 0.103100872 1.013543964 -3.8822e-05 -4.841e-06 0.0 0.0 0.0 0.0
75047500.0 -0.273343104 0.988148288 -3.6493e-05 -3.5849e-05 0.0 0.0 0.0 0.0
90047000.0 -0.619391936 0.819750784 -4.748e-06 1.6561e-05 0.0 0.0 0.0 0.0
105046500.0 -0.891232512 0.545961024 -3.6521e-05 2.5284e-05 0.0 0.0 0.0 0.0
120046000.0 -1.041813256 0.18498168 -3.1731e-05 4.1412e-05 0.0 0.0 0.0 0.0
135045500.0 -1.045502424 -0.208878384 -6.813e-05 3.3424e-05 0.0 0.0 0.0 0.0
150045000.0 -0.9142656 -0.586253632 -3.9634e-05 5.3261e-05 0.0 0.0 0.0 0.0
165044500.0 -0.64774592 -0.884679296 7.982e-06 4.9972e-05 0.0 0.0 0.0 0.0
180044000.0 -0.31427152 -1.044193508 2.3116e-05 1.5348e-05 0.0 0.0 0.0 0.0
195043500.0 0.064990236 -1.101174472 -1.637e-05 2.3502e-05 0.0 0.0 0.0 0.0
210043000.0 0.435234592 -1.022257566 -7.951e-06 1.0062e-05 0.0 0.0 0.0 0.0
225042500.0 0.752398976 -0.820796672 3.4102e-05 3.9494e-05 0.0 0.0 0.0 0.0
240042000.0 0.994652736 -0.540002816 1.0319e-05 3.2652e-05 0.0 0.0 0.0 0.0
255041500.0 1.135593776 -0.18707792 -1.8702e-05 1.7725e-05 0.0 0.0 0.0 0.0
270041000.0 1.151212928 0.22274216 1.4844e-05 2.459e-06 0.0 0.0 0.0 0.0
285040500.0 1.022281766 0.633951232 -8.092e-06 3.784e-06 0.0 0.0 0.0 0.0
300040000.0 0.687606592 0.958813376 0.000488335 -5.628e-06 0.0 0.0 0.0 0.0
315039500.0 0.3208368 1.191815728 9.5796e-05 -0.000296562 0.0 0.0 0.0 0.0
330039000.0 -0.140722816 1.255743152 0.000127977 -0.000147661 0.0 0.0 0.0 0.0
345038500.0 -0.595122944 1.141237616 0.000169926 0.000237145 0.0 0.0 0.0 0.0
360038000.0 -0.968844608 0.87004704 -1.0382e-05 -8.8528e-05 0.0 0.0 0.0 0.0
375037500.0 -1.258403664 0.474719264 -0.000214406 -0.000391751 0.0 0.0 0.0 0.0
390037000.0 -1.35445584 -0.011979138 0.000174738 9.1483e-05 0.0 0.0 0.0 0.0
405036500.0 -1.291032544 -0.520364896 0.000196049 -0.000150045 0.0 0.0 0.0 0.0
420036000.0 -1.034490944 -0.965636096 0.000280467 1.2847e-05 0.0 0.0 0.0 0.0
435035500.0 -0.630390848 -1.270781888 0.000211958 -2.3094e-05 0.0 0.0 0.0 0.0
450035000.0 -0.163140848 -1.39276384 0.000196665 -6.4605e-05 0.0 0.0 0.0 0.0
465034500.0 0.304686048 -1.377673152 0.000511391 -0.00026583 0.0 0.0 0.0 0.0
480034000.0 0.727439744 -1.215315936 0.000270816 -0.00058606 0.0 0.0 0.0 0.0
495033500.0 1.077018144 -0.918922496 3.5362e-05 -0.000306664 0.0 0.0 0.0 0.0
510033000.0 1.319087136 -0.526985472 0.000416199 -0.000287718 0.0 0.0 0.0 0.0
525032500.0 1.40886736 -0.06740824 0.000304905 -0.00013389 0.0 0.0 0.0 0.0
540032000.0 1.35647024 0.386526688 0.000154382 -0.000622456 0.0 0.0 0.0 0.0
555031500.0 1.151273968 0.803082112 0.000260825 -0.000608319 0.0 0.0 0.0 0.0
570031000.0 0.811760832 1.113438608 -2.6489e-05 -0.000381351 0.0 0.0 0.0 0.0
585030500.0 0.395276032 1.291637792 0.000431987 -0.000150546 0.0 0.0 0.0 0.0
600030000.0 -0.051654948 1.3386464 -0.00031238 -0.00093915 0.0 0.0 0.0 0.0
615029500.0 -0.498063712 1.22710728 -0.000412264 -6.4039e-05 0.0 0.0 0.0 0.0
630029000.0 -0.873250752 0.958325696 -0.000177719 -0.000576219 0.0 0.0 0.0 0.0
645028500.0 -1.1660788 0.582487552 0.000314087 -5.9731e-05 0.0 0.0 0.0 0.0
660028000.0 -1.311342112 0.106076432 -0.000286698 -0.000367655 0.0 0.0 0.0 0.0
675027500.0 -1.26940416 -0.388690528 -1.895e-06 -0.000554165 0.0 0.0 0.0 0.0
690027000.0 -1.015415192 -0.864544896 5.9611e-05 -0.000678772 0.0 0.0 0.0 0.0
705026500.0 -0.604077568 -1.166622992 7.3701e-05 -0.000278147 0.0 0.0 0.0 0.0
720026000.0 -0.137985376 -1.263447888 8.364e-06 -0.000480871 0.0 0.0 0.0 0.0
735025500.0 0.315953216 -1.210116864 -5.3771e-05 -0.000553653 0.0 0.0 0.0 0.0
750025000.0 0.711754176 -0.999024448 -0.000319065 -0.000253093 0.0 0.0 0.0 0.0
765024500.0 1.004257441 -0.658992704 -2.0304e-05 -0.000653289 0.0 0.0 0.0 0.0
780024000.0 1.159088848 -0.264576704 -0.000167276 -0.000689546 0.0 0.0 0.0 0.0
795023500.0 1.102672456 0.211203072 -1.5828e-05 -0.000702903 0.0 0.0 0.0 0.0
810023000.0 0.861556672 0.553800384 -0.000210652 -1.4828e-05 0.0 0.0 0.0 0.0
825022500.0 0.559022208 0.739137152 -0.000200728 -0.000179973 0.0 0.0 0.0 0.0
840022000.0 0.281481824 0.78142496 9.4914e-05 -0.000284563 0.0 0.0 0.0 0.0
855021500.0 0.056133576 0.760631104 0.000262841 -0.000586525 0.0 0.0 0.0 0.0
870021000.0 -0.126572352 0.734873472 -0.000139545 -0.000708666 0.0 0.0 0.0 0.0
885020500.0 -0.296028224 0.722833472 -0.000246259 -0.000547184 0.0 0.0 0.0 0.0
900020000.0 -0.520249376 0.73841824 -0.002332055 -0.000691281 0.0 0.0 0.0 0.0
915019500.0 -0.49861376 0.736844608 0.001123486 -0.000139866 0.0 0.0 0.0 0.0
930019000.0 -0.493113824 0.738776576 -0.00037687 -0.00093785 0.0 0.0 0.0 0.0
945018500.0 -0.471606816 0.747984 -9.004e-05 0.001223039 0.0 0.0 0.0 0.0
960018000.0 -0.45692144 0.752830208 0.002399624 0.000472536 0.0 0.0 0.0 0.0
975017500.0 -0.427364416 0.754729984 0.001271875 -0.000705599 0.0 0.0 0.0 0.0
990017000.0 -0.414909152 0.76478624 0.000714295 0.000997293 0.0 0.0 0.0 0.0
1005016500.0 -0.396668768 0.764164544 0.000441654 -0.000492281 0.0 0.0 0.0 0.0
1020016000.0 -0.373438752 0.772276416 0.00256208 -7.8553e-05 0.0 0.0 0.0 0.0
1035015500.0 -0.350721024 0.77956608 -0.000836088 -0.000413477 0.0 0.0 0.0 0.0
1050015000.0 -0.342825664 0.807158656 0.001755916 -0.003104078 0.0 0.0 0.0 0.0
1065014500.0 -0.309744832 0.793023616 0.000966106 1.3165e-05 0.0 0.0 0.0 0.0
1080014000.0 -0.284152288 0.790142592 -0.001325828 -0.00074979 0.0 0.0 0.0 0.0
1095013500.0 -0.250375088 0.792148864 0.000438462 -0.002086953 0.0 0.0 0.0 0.0
1110013000.0 -0.236626752 0.796926528 0.000493612 -0.000864847 0.0 0.0 0.0 0.0
1125012500.0 -0.218777008 0.77909696 -0.004969538 -0.00126455 0.0 0.0 0.0 0.0
1140012000.0 -0.179790016 0.7957648 -0.00065893 -0.0015528 0.0 0.0 0.0 0.0
1155011500.0 -0.163246128 0.77550112 -0.000588896 -0.000978732 0.0 0.0 0.0 0.0
1170011000.0 -0.129430888 0.81984704 -0.000896685 7.9706e-05 0.0 0.0 0.0 0.0
1185010500.0 -0.105168536 0.810909312 0.000222376 0.000816317 0.0 0.0 0.0 0.0
1200010000.0 -0.07932604 0.809322752 -0.003099879 0.001510946 0.0 0.0 0.0 0.0
1215009500.0 -0.052605392 0.816189184 0.000810659 -0.001603563 0.0 0.0 0.0 0.0
1230009000.0 -0.015196986 0.815918272 -0.001248406 0.000286976 0.0 0.0 0.0 0.0
1245008500.0 0.018132996 0.814964096 -0.001361524 0.006140477 0.0 0.0 0.0 0.0
1260008000.0 0.050201836 0.80111232 0.000323035 0.006713503 0.0 0.0 0.0 0.0
1275007500.0 0.088973728 0.798321344 0.001872738 0.001923893 0.0 0.0 0.0 0.0
1290007000.0 0.123866624 0.805313152 0.000189714 -0.002199174 0.0 0.0 0.0 0.0
1305006500.0 0.146727136 0.805979904 -0.001530441 8.4987e-05 0.0 0.0 0.0 0.0
1320006000.0 0.187969424 0.787642304 0.00282378 0.00151922 0.0 0.0 0.0 0.0
1335005500.0 0.213766048 0.783285888 -0.008485982 0.006889753 0.0 0.0 0.0 0.0
1350005000.0 0.240178656 0.779008768 -0.000594342 -0.001076119 0.0 0.0 0.0 0.0
1365004500.0 0.274721184 0.734983296 0.000455921 0.005406725 0.0 0.0 0.0 0.0
1380004000.0 0.28920736 0.751393728 0.004147655 0.002633481 0.0 0.0 0.0 0.0
1395003500.0 0.307694464 0.738667264 -0.006707344 0.012166732 0.0 0.0 0.0 0.0
1410003000.0 0.343922784 0.701334656 -0.002722385 -0.007225818 0.0 0.0 0.0 0.0
1425002500.0 0.3747504 0.701034368 0.005571024 0.002232873 0.0 0.0 0.0 0.0
1440002000.0 0.39361424 0.68090944 0.014018354 0.001406378 0.0 0.0 0.0 0.0
1455001500.0 0.412771552 0.678592 -0.004142271 0.004308627 0.0 0.0 0.0 0.0
1470001000.0 0.430380416 0.67229216 -0.006256956 0.00289496 0.0 0.0 0.0 0.0
1485000500.0 0.449437856 0.648595968 0.005774213 0.003721341 0.0 0.0 0.0 0.0
1500000000.0 0.470564416 0.598132992 0.004754516 0.005628278 0.0 0.0 0.0 0.0
