! Created with skrf 1.8.0 (http://scikit-rf.org).
# Hz S RI R 50.0 
!freq ReS11 ImS11 ReS21 ImS21 ReS12 ImS12 ReS22 ImS22
50000.0 -0.00750409 -0.004927875 -0.818709504 -0.01497849 0.0 0.0 0.0 0.0
15049500.0 -0.007492437 -0.003175137 -0.805161408 0.1155032 0.0 0.0 0.0 0.0
30049000.0 -0.009139036 -0.006567333 -0.78237632 0.2179588 0.0 0.0 0.0 0.0
45048500.0 -0.011090128 -0.010916612 -0.746348608 0.316591584 0.0 0.0 0.0 0.0
60048000.0 -0.01231955 -0.017085506 -0.69855648 0.409152704 0.0 0.0 0.0 0.0
75047500.0 -0.012232078 -0.024338546 -0.640770432 0.49231232 0.0 0.0 0.0 0.0
90047000.0 -0.011108554 -0.032286752 -0.569368512 0.56624544 0.0 0.0 0.0 0.0
105046500.0 -0.006938604 -0.040608104 -0.49199968 0.633071616 0.0 0.0 0.0 0.0
120046000.0 -0.000251904 -0.047947028 -0.409394752 0.687557056 0.0 0.0 0.0 0.0
135045500.0 0.009271314 -0.053255776 -0.321444608 0.731275328 0.0 0.0 0.0 0.0
150045000.0 0.02047015 -0.056453484 -0.229266304 0.762142144 0.0 0.0 0.0 0.0
165044500.0 0.032607396 -0.055792768 -0.135179184 0.781500864 0.0 0.0 0.0 0.0
180044000.0 0.043177404 -0.05049916 -0.040823628 0.789980288 0.0 0.0 0.0 0.0
195043500.0 0.05302024 -0.042823464 0.053808576 0.787435776 0.0 0.0 0.0 0.0
210043000.0 0.059626588 -0.03217836 0.147166624 0.773402432 0.0 0.0 0.0 0.0
225042500.0 0.061956212 -0.020149362 0.237587472 0.748151488 0.0 0.0 0.0 0.0
240042000.0 0.060783216 -0.008610678 0.325554624 0.711348352 0.0 0.0 0.0 0.0
255041500.0 0.055478184 0.001293661 0.408916384 0.665335296 0.0 0.0 0.0 0.0
270041000.0 0.047056104 0.008743952 0.485540832 0.608383872 0.0 0.0 0.0 0.0
285040500.0 0.036765228 0.012814282 0.555357568 0.542716224 0.0 0.0 0.0 0.0
300040000.0 0.022709494 0.012338352 0.609521024 0.482730592 0.0 0.0 0.0 0.0
315039500.0 0.014531068 0.006296342 0.663132608 0.40504752 0.0 0.0 0.0 0.0
330039000.0 0.009594748 -0.003808519 0.706864768 0.320537984 0.0 0.0 0.0 0.0
345038500.0 0.009598396 -0.016123752 0.740061568 0.232080832 0.0 0.0 0.0 0.0
360038000.0 0.014229006 -0.028069268 0.761103104 0.140267328 0.0 0.0 0.0 0.0
375037500.0 0.026566212 -0.037551256 0.77140384 0.046742344 0.0 0.0 0.0 0.0
390037000.0 0.042554692 -0.04314368 0.768235328 -0.046980368 0.0 0.0 0.0 0.0
405036500.0 0.060213976 -0.03965496 0.75751808 -0.137365184 0.0 0.0 0.0 0.0
420036000.0 0.080117288 -0.029709012 0.733054208 -0.22365792 0.0 0.0 0.0 0.0
435035500.0 0.09608416 -0.010785366 0.695814144 -0.306722016 0.0 0.0 0.0 0.0
450035000.0 0.105237784 0.013728748 0.6468272 -0.38774736 0.0 0.0 0.0 0.0
465034500.0 0.105681816 0.04592494 0.58767488 -0.459103808 0.0 0.0 0.0 0.0
480034000.0 0.09492452 0.078349864 0.519980736 -0.523259328 0.0 0.0 0.0 0.0
495033500.0 0.071332344 0.105250856 0.447079744 -0.579624576 0.0 0.0 0.0 0.0
510033000.0 0.035421188 0.12653512 0.367385472 -0.625478976 0.0 0.0 0.0 0.0
525032500.0 -0.00624881 0.132149768 0.28771632 -0.6612688 0.0 0.0 0.0 0.0
540032000.0 -0.053472484 0.123803624 0.203597328 -0.686715392 0.0 0.0 0.0 0.0
555031500.0 -0.093996624 0.101036472 0.120653776 -0.699530688 0.0 0.0 0.0 0.0
570031000.0 -0.1264728 0.064866252 0.036850064 -0.7038944 0.0 0.0 0.0 0.0
585030500.0 -0.146512576 0.018106718 -0.044522248 -0.700863872 0.0 0.0 0.0 0.0
600030000.0 -0.153038544 -0.033258222 -0.124643752 -0.67862912 0.0 0.0 0.0 0.0
615029500.0 -0.140996672 -0.089907968 -0.201951776 -0.655493696 0.0 0.0 0.0 0.0
630029000.0 -0.108294728 -0.139465456 -0.276033056 -0.624528576 0.0 0.0 0.0 0.0
645028500.0 -0.060569088 -0.175262384 -0.344388608 -0.58634592 0.0 0.0 0.0 0.0
660028000.0 -0.005352506 -0.19627512 -0.407875648 -0.540858176 0.0 0.0 0.0 0.0
675027500.0 0.050231144 -0.200320832 -0.467609152 -0.486248512 0.0 0.0 0.0 0.0
690027000.0 0.100960504 -0.186031104 -0.520674816 -0.427065408 0.0 0.0 0.0 0.0
705026500.0 0.14627744 -0.156693392 -0.567101888 -0.36303216 0.0 0.0 0.0 0.0
720026000.0 0.180306384 -0.106753848 -0.602360704 -0.296092704 0.0 0.0 0.0 0.0
735025500.0 0.19897568 -0.050129124 -0.633392384 -0.22140568 0.0 0.0 0.0 0.0
750025000.0 0.19677208 0.014728284 -0.655716416 -0.144931104 0.0 0.0 0.0 0.0
765024500.0 0.171993728 0.08006588 -0.66696288 -0.067475128 0.0 0.0 0.0 0.0
780024000.0 0.118025448 0.132212176 -0.672108928 0.012228712 0.0 0.0 0.0 0.0
795023500.0 0.042909376 0.148023808 -0.661558848 0.090934272 0.0 0.0 0.0 0.0
810023000.0 -0.029458646 0.130997416 -0.644640512 0.169617232 0.0 0.0 0.0 0.0
825022500.0 -0.08755072 0.093171264 -0.61900128 0.244665536 0.0 0.0 0.0 0.0
840022000.0 -0.125195208 0.03569776 -0.584177472 0.316746496 0.0 0.0 0.0 0.0
855021500.0 -0.145488448 -0.031391326 -0.542600384 0.38226704 0.0 0.0 0.0 0.0
870021000.0 -0.153555792 -0.104761472 -0.494723712 0.445830176 0.0 0.0 0.0 0.0
885020500.0 -0.15115824 -0.190694544 -0.436706176 0.504203328 0.0 0.0 0.0 0.0
900020000.0 -0.123426576 -0.30473104 -0.358341216 0.581587456 0.0 0.0 0.0 0.0
915019500.0 -0.143001488 -0.313137024 -0.294014368 0.618190912 0.0 0.0 0.0 0.0
930019000.0 -0.161546784 -0.31669824 -0.223035088 0.6564384 0.0 0.0 0.0 0.0
945018500.0 -0.185333616 -0.315071488 -0.145718288 0.68132928 0.0 0.0 0.0 0.0
960018000.0 -0.209209856 -0.314635104 -0.069032936 0.702020288 0.0 0.0 0.0 0.0
975017500.0 -0.23243168 -0.306976448 0.006946731 0.704484032 0.0 0.0 0.0 0.0
990017000.0 -0.254359216 -0.28803824 0.09480576 0.712806784 0.0 0.0 0.0 0.0
1005016500.0 -0.273762048 -0.270156992 0.175630464 0.701298176 0.0 0.0 0.0 0.0
1020016000.0 -0.287761376 -0.24715656 0.255704608 0.697001536 0.0 0.0 0.0 0.0
1035015500.0 -0.300199456 -0.208270064 0.348962208 0.670068864 0.0 0.0 0.0 0.0
1050015000.0 -0.297863552 -0.171048608 0.418798912 0.619616 0.0 0.0 0.0 0.0
1065014500.0 -0.302419136 -0.148872096 0.505895744 0.58710368 0.0 0.0 0.0 0.0
1080014000.0 -0.288184448 -0.10475292 0.58046336 0.535038784 0.0 0.0 0.0 0.0
1095013500.0 -0.26138768 -0.078581 0.652448512 0.469967776 0.0 0.0 0.0 0.0
1110013000.0 -0.237595984 -0.053842508 0.717267264 0.394314464 0.0 0.0 0.0 0.0
1125012500.0 -0.213343728 -0.035988576 0.768076992 0.31384208 0.0 0.0 0.0 0.0
1140012000.0 -0.184905248 -0.015148344 0.8300192 0.223960064 0.0 0.0 0.0 0.0
1155011500.0 -0.168069264 -0.02083048 0.891443776 0.111511928 0.0 0.0 0.0 0.0
1170011000.0 -0.15029656 0.000534349 0.899472384 0.007855418 0.0 0.0 0.0 0.0
1185010500.0 -0.115639904 -0.009258336 0.922754624 -0.118829704 0.0 0.0 0.0 0.0
1200010000.0 -0.07329652 -0.009865764 0.919689792 -0.251253104 0.0 0.0 0.0 0.0
1215009500.0 -0.058608884 -0.01221637 0.897438848 -0.367109536 0.0 0.0 0.0 0.0
1230009000.0 -0.030703264 -0.02709753 0.86321888 -0.493422048 0.0 0.0 0.0 0.0
1245008500.0 -0.008454696 -0.024309116 0.80529696 -0.616789376 0.0 0.0 0.0 0.0
1260008000.0 0.009017288 -0.061802296 0.750102912 -0.727870336 0.0 0.0 0.0 0.0
1275007500.0 0.014913888 -0.06543292 0.665339136 -0.831504384 0.0 0.0 0.0 0.0
1290007000.0 0.029415148 -0.086102808 0.56956288 -0.927889664 0.0 0.0 0.0 0.0
1305006500.0 0.041472308 -0.09190808 0.463174464 -0.99692192 0.0 0.0 0.0 0.0
1320006000.0 0.046228684 -0.11231124 0.350680576 -1.062681556 0.0 0.0 0.0 0.0
1335005500.0 0.046148384 -0.133746552 0.23817248 -1.118906616 0.0 0.0 0.0 0.0
1350005000.0 0.016140504 -0.137820688 0.113089272 -1.133410696 0.0 0.0 0.0 0.0
1365004500.0 0.003224023 -0.14135792 0.034608704 -1.191539888 0.0 0.0 0.0 0.0
1380004000.0 0.003537286 -0.148244688 -0.126812744 -1.16308856 0.0 0.0 0.0 0.0
1395003500.0 -0.014077398 -0.135622784 -0.24873616 -1.200275776 0.0 0.0 0.0 0.0
1410003000.0 -0.043926368 -0.139705168 -0.350973856 -1.155161504 0.0 0.0 0.0 0.0
1425002500.0 -0.009888344 -0.110346176 -0.475095456 -1.106223464 0.0 0.0 0.0 0.0
1440002000.0 -0.07143716 -0.098724568 -0.587810368 -1.063037516 0.0 0.0 0.0 0.0
1455001500.0 -0.041340944 -0.0624594 -0.669997696 -1.026598812 0.0 0.0 0.0 0.0
1470001000.0 -0.075415056 -0.009609466 -0.764565312 -0.965643584 0.0 0.0 0.0 0.0
1485000500.0 -0.04430142 -0.005462885 -0.849033664 -0.923905856 0.0 0.0 0.0 0.0
1500000000.0 -0.04195014 0.013351966 -0.935640192 -0.825115264 0.0 0.0 0.0 0.0
