! Created with skrf 1.8.0 (http://scikit-rf.org).
# Hz S RI R 50.0 
!freq ReS11 ImS11 ReS21 ImS21 ReS12 ImS12 ReS22 ImS22
50000.0 0.997773952 0.000576808 -8.999e-06 -6.9045e-05 0.0 0.0 0.0 0.0
15049500.0 0.939873536 0.361073952 -4.2301e-05 1.2982e-05 0.0 0.0 0.0 0.0
30049000.0 0.750192128 0.673113152 -3.9254e-05 -2.514e-06 0.0 0.0 0.0 0.0
45048500.0 0.461643296 0.892871424 -3.3328e-05 2.8701e-05 0.0 0.0 0.0 0.0
60048000.0 0.102881912 1.014310718 -4.907e-05 1.0504e-05 0.0 0.0 0.0 0.0
75047500.0 -0.273850752 0.98865088 -6.0242e-05 -7.667e-06 0.0 0.0 0.0 0.0
90047000.0 -0.6204288 0.820091776 -1.8942e-05 -2.155e-06 0.0 0.0 0.0 0.0
105046500.0 -0.892112384 0.5460528 -6.345e-05 1.6712e-05 0.0 0.0 0.0 0.0
120046000.0 -1.042546392 0.184637216 -5.3775e-05 4.0324e-05 0.0 0.0 0.0 0.0
135045500.0 -1.045185448 -0.2101428 -3.5994e-05 1.1019e-05 0.0 0.0 0.0 0.0
150045000.0 -0.915129664 -0.587136832 -3.0132e-05 2.4013e-05 0.0 0.0 0.0 0.0
165044500.0 -0.648051776 -0.885946176 2.0034e-05 1.371e-05 0.0 0.0 0.0 0.0
180044000.0 -0.31357904 -1.04601264 1.6501e-05 2.2203e-05 0.0 0.0 0.0 0.0
195043500.0 0.065619208 -1.102360488 9.258e-06 5.3041e-05 0.0 0.0 0.0 0.0
210043000.0 0.437064224 -1.02309835 -1.3727e-05 1.2894e-05 0.0 0.0 0.0 0.0
225042500.0 0.754918656 -0.820924672 1.354e-06 5.902e-05 0.0 0.0 0.0 0.0
240042000.0 0.997429504 -0.538513152 -8.544e-06 6.0025e-05 0.0 0.0 0.0 0.0
255041500.0 1.13790512 -0.185061984 1.6499e-05 2.9605e-05 0.0 0.0 0.0 0.0
270041000.0 1.151246192 0.224678512 1.7771e-05 3.323e-05 0.0 0.0 0.0 0.0
285040500.0 1.022460342 0.636927488 2.4008e-05 4.4296e-05 0.0 0.0 0.0 0.0
300040000.0 0.686129216 0.957477568 -0.000382659 6.1249e-05 0.0 0.0 0.0 0.0
315039500.0 0.315260608 1.193617104 0.000214448 -7.8975e-05 0.0 0.0 0.0 0.0
330039000.0 -0.139379568 1.256387824 0.000390932 0.00027254 0.0 0.0 0.0 0.0
345038500.0 -0.599687232 1.141369696 -5.871e-05 0.000172974 0.0 0.0 0.0 0.0
360038000.0 -0.969397952 0.872578304 -8.4689e-05 7.6318e-05 0.0 0.0 0.0 0.0
375037500.0 -1.25926768 0.473569824 0.00018621 -7.416e-06 0.0 0.0 0.0 0.0
390037000.0 -1.362857344 -0.019420548 -0.000113281 0.00011103 0.0 0.0 0.0 0.0
405036500.0 -1.291265248 -0.522702048 0.000322993 -5.7224e-05 0.0 0.0 0.0 0.0
420036000.0 -1.035259484 -0.971936576 -0.000127938 0.000179646 0.0 0.0 0.0 0.0
435035500.0 -0.627125952 -1.277042624 0.00017641 3.3255e-05 0.0 0.0 0.0 0.0
450035000.0 -0.170249504 -1.40404832 0.000138996 3.012e-05 0.0 0.0 0.0 0.0
465034500.0 0.308011392 -1.382957216 0.000539392 -0.00028281 0.0 0.0 0.0 0.0
480034000.0 0.734032384 -1.213815456 0.000404175 -0.00048472 0.0 0.0 0.0 0.0
495033500.0 1.079341648 -0.916789184 9.3287e-05 -0.000675145 0.0 0.0 0.0 0.0
510033000.0 1.321842784 -0.524099584 0.000538296 -0.000433155 0.0 0.0 0.0 0.0
525032500.0 1.412746912 -0.064075524 0.000154346 -0.00010237 0.0 0.0 0.0 0.0
540032000.0 1.363910304 0.392542112 0.00069932 -3.5707e-05 0.0 0.0 0.0 0.0
555031500.0 1.157678016 0.808521024 0.000439101 -0.000920438 0.0 0.0 0.0 0.0
570031000.0 0.811969728 1.122995736 0.000384107 -0.000487912 0.0 0.0 0.0 0.0
585030500.0 0.386894752 1.294630048 0.000245165 -1.7967e-05 0.0 0.0 0.0 0.0
600030000.0 -0.05577192 1.34434688 -0.000396976 -0.00032253 0.0 0.0 0.0 0.0
615029500.0 -0.50548608 1.229632016 0.000505839 -0.00028618 0.0 0.0 0.0 0.0
630029000.0 -0.878279744 0.963772864 0.000382636 -0.000574522 0.0 0.0 0.0 0.0
645028500.0 -1.176020032 0.57881984 -0.000362949 -0.00047768 0.0 0.0 0.0 0.0
660028000.0 -1.31640768 0.101035392 0.000138104 -0.000282357 0.0 0.0 0.0 0.0
675027500.0 -1.267166608 -0.395801664 0.000263052 -0.000716377 0.0 0.0 0.0 0.0
690027000.0 -1.01793456 -0.86976352 0.000186936 -0.000741484 0.0 0.0 0.0 0.0
705026500.0 -0.606489344 -1.177671904 0.00024005 -0.000516794 0.0 0.0 0.0 0.0
720026000.0 -0.13642392 -1.278704288 0.000360797 -0.000182696 0.0 0.0 0.0 0.0
735025500.0 0.31220336 -1.211476688 -0.000101835 -0.000597674 0.0 0.0 0.0 0.0
750025000.0 0.709662592 -0.998465984 1.9577e-05 -4.8645e-05 0.0 0.0 0.0 0.0
765024500.0 1.00338912 -0.658690944 -3.5963e-05 -0.000723923 0.0 0.0 0.0 0.0
780024000.0 1.164573664 -0.262085408 -0.000176335 -0.000732921 0.0 0.0 0.0 0.0
795023500.0 1.10441804 0.2087056 0.000193207 -0.000899718 0.0 0.0 0.0 0.0
810023000.0 0.864765952 0.549233152 0.000312279 -0.000294158 0.0 0.0 0.0 0.0
825022500.0 0.556906624 0.735593472 -0.000408375 -0.000169069 0.0 0.0 0.0 0.0
840022000.0 0.278113184 0.782281792 -0.00020189 -0.000328903 0.0 0.0 0.0 0.0
855021500.0 0.05778774 0.761723712 -2.4628e-05 -0.00069817 0.0 0.0 0.0 0.0
870021000.0 -0.123997216 0.733620096 0.00011462 0.000133393 0.0 0.0 0.0 0.0
885020500.0 -0.293259776 0.720016576 -0.000432318 -0.000720474 0.0 0.0 0.0 0.0
900020000.0 -0.521320512 0.735756352 0.001739076 9.0402e-05 0.0 0.0 0.0 0.0
915019500.0 -0.504841024 0.735515328 0.002560512 0.000361284 0.0 0.0 0.0 0.0
930019000.0 -0.489612736 0.736856064 0.000496165 -0.002192105 0.0 0.0 0.0 0.0
945018500.0 -0.46816848 0.7401904 -0.000667538 -0.00111369 0.0 0.0 0.0 0.0
960018000.0 -0.449012832 0.750308992 0.000543172 -0.001755633 0.0 0.0 0.0 0.0
975017500.0 -0.442065216 0.749339328 0.000700768 -0.000175168 0.0 0.0 0.0 0.0
990017000.0 -0.411656768 0.754102272 -0.000614426 -0.000993745 0.0 0.0 0.0 0.0
1005016500.0 -0.396092416 0.75767776 -0.002581474 -0.001347225 0.0 0.0 0.0 0.0
1020016000.0 -0.379105312 0.766396608 0.000244705 -0.000657361 0.0 0.0 0.0 0.0
1035015500.0 -0.356922656 0.767261824 0.001403783 -0.001182657 0.0 0.0 0.0 0.0
1050015000.0 -0.321366976 0.798409984 0.001597351 -0.000306864 0.0 0.0 0.0 0.0
1065014500.0 -0.306407712 0.780413568 -0.002073285 -0.001021597 0.0 0.0 0.0 0.0
1080014000.0 -0.280441984 0.790387712 -0.001536363 -0.001867573 0.0 0.0 0.0 0.0
1095013500.0 -0.262733488 0.797550976 -0.000335718 -0.002024315 0.0 0.0 0.0 0.0
1110013000.0 -0.239008128 0.792199488 0.000297796 -0.000397008 0.0 0.0 0.0 0.0
1125012500.0 -0.226464128 0.787724672 -0.001877623 -6.9046e-05 0.0 0.0 0.0 0.0
1140012000.0 -0.186824704 0.796697152 -0.000802549 -0.000778003 0.0 0.0 0.0 0.0
1155011500.0 -0.172224016 0.793145152 -0.000176156 -0.000194945 0.0 0.0 0.0 0.0
1170011000.0 -0.108760424 0.809204608 -0.001172558 0.000549245 0.0 0.0 0.0 0.0
1185010500.0 -0.106777568 0.800541568 -0.003264731 -0.000279104 0.0 0.0 0.0 0.0
1200010000.0 -0.084236776 0.801112448 -0.001680109 0.000574339 0.0 0.0 0.0 0.0
1215009500.0 -0.04785658 0.80166208 0.005118503 -0.001728625 0.0 0.0 0.0 0.0
1230009000.0 -0.013110576 0.802248448 -0.00170474 0.000900534 0.0 0.0 0.0 0.0
1245008500.0 0.013778586 0.798785664 0.000117675 -0.002259593 0.0 0.0 0.0 0.0
1260008000.0 0.041245392 0.793348672 0.000476826 -0.003052137 0.0 0.0 0.0 0.0
1275007500.0 0.07249932 0.803666496 -0.006726635 0.003251888 0.0 0.0 0.0 0.0
1290007000.0 0.1048084 0.798483456 -0.000128186 -0.001741103 0.0 0.0 0.0 0.0
1305006500.0 0.148716704 0.769641408 -0.005657635 -0.001875075 0.0 0.0 0.0 0.0
1320006000.0 0.181230016 0.778806528 -0.000599076 0.002045563 0.0 0.0 0.0 0.0
1335005500.0 0.207366112 0.763865536 0.004757831 0.002273462 0.0 0.0 0.0 0.0
1350005000.0 0.240153232 0.762131008 0.001910658 -0.000155277 0.0 0.0 0.0 0.0
1365004500.0 0.261708912 0.769461632 0.001319876 0.000647428 0.0 0.0 0.0 0.0
1380004000.0 0.301129536 0.750622528 0.001666516 0.001043292 0.0 0.0 0.0 0.0
1395003500.0 0.318668736 0.731588608 -0.005390571 0.004515072 0.0 0.0 0.0 0.0
1410003000.0 0.34922016 0.70936128 0.005337877 0.009883766 0.0 0.0 0.0 0.0
1425002500.0 0.37541456 0.682424256 0.005664253 -0.001769249 0.0 0.0 0.0 0.0
1440002000.0 0.395386016 0.678056192 0.001711257 0.007311679 0.0 0.0 0.0 0.0
1455001500.0 0.415134176 0.646315456 -0.01181693 -0.004071243 0.0 0.0 0.0 0.0
1470001000.0 0.467502112 0.612850944 0.006480539 0.000499373 0.0 0.0 0.0 0.0
1485000500.0 0.479833856 0.621336384 0.010807994 -0.002383497 0.0 0.0 0.0 0.0
1500000000.0 0.474237472 0.611409728 0.008650556 0.001358794 0.0 0.0 0.0 0.0
