! Created with skrf 1.8.0 (http://scikit-rf.org).
# Hz S RI R 50.0 
!freq ReS11 ImS11 ReS21 ImS21 ReS12 ImS12 ReS22 ImS22
50000.0 0.996604544 0.000568059 -1.0117e-05 -6.1267e-05 0.0 0.0 0.0 0.0
15049500.0 0.938754944 0.360393856 -2.5979e-05 8.503e-06 0.0 0.0 0.0 0.0
30049000.0 0.749130048 0.672438976 -2.5798e-05 1.3129e-05 0.0 0.0 0.0 0.0
45048500.0 0.461206624 0.891678144 -1.5692e-05 -1.2319e-05 0.0 0.0 0.0 0.0
60048000.0 0.103277728 1.012800336 -4.707e-05 1.0171e-05 0.0 0.0 0.0 0.0
75047500.0 -0.27300464 0.987355968 -7.2529e-05 -3.7576e-05 0.0 0.0 0.0 0.0
90047000.0 -0.618921856 0.819272064 -3.6587e-05 2.2999e-05 0.0 0.0 0.0 0.0
105046500.0 -0.890468224 0.545709952 -1.5643e-05 5e-09 0.0 0.0 0.0 0.0
120046000.0 -1.040975212 0.185327808 -3.6665e-05 2.7291e-05 0.0 0.0 0.0 0.0
135045500.0 -1.04329562 -0.20862264 -6.487e-05 3.0056e-05 0.0 0.0 0.0 0.0
150045000.0 -0.914243968 -0.585500288 -1.9736e-05 2.1741e-05 0.0 0.0 0.0 0.0
165044500.0 -0.647832448 -0.883011136 2.724e-06 5.7867e-05 0.0 0.0 0.0 0.0
180044000.0 -0.314746144 -1.04325342 -1.2082e-05 -9.366e-06 0.0 0.0 0.0 0.0
195043500.0 0.06295526 -1.100369808 2.3627e-05 5.2636e-05 0.0 0.0 0.0 0.0
210043000.0 0.432999584 -1.022030712 6.039e-06 4.6503e-05 0.0 0.0 0.0 0.0
225042500.0 0.75061056 -0.822304256 -7.366e-06 -1.899e-06 0.0 0.0 0.0 0.0
240042000.0 0.993063232 -0.54080416 -4.2611e-05 2.1936e-05 0.0 0.0 0.0 0.0
255041500.0 1.13428104 -0.18868576 2.747e-05 4.8404e-05 0.0 0.0 0.0 0.0
270041000.0 1.149789216 0.220217472 3.2352e-05 3.938e-05 0.0 0.0 0.0 0.0
285040500.0 1.023723126 0.630845696 4.8019e-05 2.6473e-05 0.0 0.0 0.0 0.0
300040000.0 0.688227584 0.95669728 0.000562591 1.1949e-05 0.0 0.0 0.0 0.0
315039500.0 0.320963136 1.190490128 -2.2604e-05 1.9341e-05 0.0 0.0 0.0 0.0
330039000.0 -0.135712816 1.254519232 -0.000168043 0.000176728 0.0 0.0 0.0 0.0
345038500.0 -0.591009216 1.142343648 -0.000137487 -0.000187695 0.0 0.0 0.0 0.0
360038000.0 -0.968913856 0.873691584 -2.3276e-05 0.00020501 0.0 0.0 0.0 0.0
375037500.0 -1.252965088 0.47552016 0.000161794 -0.000187495 0.0 0.0 0.0 0.0
390037000.0 -1.354907168 -0.011028226 0.000117983 5.0541e-05 0.0 0.0 0.0 0.0
405036500.0 -1.289310464 -0.515417408 0.0001105 0.000320602 0.0 0.0 0.0 0.0
420036000.0 -1.034941196 -0.96307136 0.000581054 4.96e-05 0.0 0.0 0.0 0.0
435035500.0 -0.630572224 -1.264506816 0.000296556 0.000282536 0.0 0.0 0.0 0.0
450035000.0 -0.163757104 -1.408508064 0.000194646 -0.000123458 0.0 0.0 0.0 0.0
465034500.0 0.296858016 -1.379774944 0.000111275 0.000311757 0.0 0.0 0.0 0.0
480034000.0 0.724264384 -1.212074992 0.000506692 -0.000516648 0.0 0.0 0.0 0.0
495033500.0 1.072584392 -0.917469376 0.000321828 -0.000320425 0.0 0.0 0.0 0.0
510033000.0 1.312485088 -0.529138336 0.000105561 2.7443e-05 0.0 0.0 0.0 0.0
525032500.0 1.405383936 -0.069646728 3.373e-06 -6.3373e-05 0.0 0.0 0.0 0.0
540032000.0 1.357733728 0.383597984 0.000257982 -0.000153118 0.0 0.0 0.0 0.0
555031500.0 1.149281744 0.796440832 4.6095e-05 -0.000438966 0.0 0.0 0.0 0.0
570031000.0 0.814000576 1.109468224 -2.1375e-05 -0.00052156 0.0 0.0 0.0 0.0
585030500.0 0.397589632 1.286509856 6.3316e-05 -0.000206635 0.0 0.0 0.0 0.0
600030000.0 -0.045622256 1.33602096 0.000455622 -0.000549627 0.0 0.0 0.0 0.0
615029500.0 -0.497030976 1.222497232 -0.000231288 -0.000488753 0.0 0.0 0.0 0.0
630029000.0 -0.873392384 0.959529408 0.000416852 -0.000780633 0.0 0.0 0.0 0.0
645028500.0 -1.164445408 0.577796288 5.7411e-05 -0.000179011 0.0 0.0 0.0 0.0
660028000.0 -1.303622016 0.102573016 3.409e-06 -0.000785423 0.0 0.0 0.0 0.0
675027500.0 -1.263582224 -0.385099392 0.000184378 -8.7944e-05 0.0 0.0 0.0 0.0
690027000.0 -1.010781766 -0.86144128 8.8536e-05 -0.000477836 0.0 0.0 0.0 0.0
705026500.0 -0.606804544 -1.164138192 -7.7286e-05 -0.00054806 0.0 0.0 0.0 0.0
720026000.0 -0.13342424 -1.268443232 0.000315706 -0.000350933 0.0 0.0 0.0 0.0
735025500.0 0.31311392 -1.211198208 3.7664e-05 -0.000537002 0.0 0.0 0.0 0.0
750025000.0 0.707929984 -0.996231936 -0.000327464 -0.000122632 0.0 0.0 0.0 0.0
765024500.0 1.00332439 -0.656280512 -0.000193411 -0.000601317 0.0 0.0 0.0 0.0
780024000.0 1.157579424 -0.214716688 0.000102735 -0.000394525 0.0 0.0 0.0 0.0
795023500.0 1.10295808 0.213988176 0.000354488 -0.000249268 0.0 0.0 0.0 0.0
810023000.0 0.865298368 0.550924928 -0.000137288 1.6906e-05 0.0 0.0 0.0 0.0
825022500.0 0.555499712 0.736023744 -0.000160815 -0.000418575 0.0 0.0 0.0 0.0
840022000.0 0.27520128 0.782418816 -1.7426e-05 -0.000592291 0.0 0.0 0.0 0.0
855021500.0 0.053610428 0.763149376 -0.000183537 -0.000488262 0.0 0.0 0.0 0.0
870021000.0 -0.125291064 0.73698816 -0.000263068 -0.000231816 0.0 0.0 0.0 0.0
885020500.0 -0.300919936 0.71582464 -0.00057687 -0.000150286 0.0 0.0 0.0 0.0
900020000.0 -0.5278296 0.736284416 0.003922839 -0.000331146 0.0 0.0 0.0 0.0
915019500.0 -0.510705888 0.74171168 -0.000256643 -0.00056981 0.0 0.0 0.0 0.0
930019000.0 -0.489257952 0.7432384 -0.001525412 -0.002223405 0.0 0.0 0.0 0.0
945018500.0 -0.47101296 0.742170048 -0.001205365 0.000163145 0.0 0.0 0.0 0.0
960018000.0 -0.457079808 0.752649216 1.9084e-05 -0.001561872 0.0 0.0 0.0 0.0
975017500.0 -0.437004096 0.755293888 0.000513283 -0.000251008 0.0 0.0 0.0 0.0
990017000.0 -0.41993248 0.75832032 0.001365534 -0.000474741 0.0 0.0 0.0 0.0
1005016500.0 -0.397496288 0.775637504 0.001120315 -0.000126646 0.0 0.0 0.0 0.0
1020016000.0 -0.3718408 0.785334912 0.002191509 0.001508476 0.0 0.0 0.0 0.0
1035015500.0 -0.356794112 0.784872832 -0.00157623 -0.002982555 0.0 0.0 0.0 0.0
1050015000.0 -0.338968096 0.776020416 0.00170672 0.000287955 0.0 0.0 0.0 0.0
1065014500.0 -0.311076768 0.799790784 -0.001838238 -0.002567378 0.0 0.0 0.0 0.0
1080014000.0 -0.289757472 0.807231552 0.004235797 -0.002365949 0.0 0.0 0.0 0.0
1095013500.0 -0.256995968 0.808813952 -0.000515423 -0.003322563 0.0 0.0 0.0 0.0
1110013000.0 -0.23602896 0.810711296 -0.000119809 0.00045478 0.0 0.0 0.0 0.0
1125012500.0 -0.223269552 0.804793984 -0.000709217 0.001098859 0.0 0.0 0.0 0.0
1140012000.0 -0.17715904 0.821839616 0.001623497 4.2188e-05 0.0 0.0 0.0 0.0
1155011500.0 -0.168832032 0.852247872 0.00322577 0.000804892 0.0 0.0 0.0 0.0
1170011000.0 -0.139084192 0.826108096 -0.003373222 -0.000529392 0.0 0.0 0.0 0.0
1185010500.0 -0.093052064 0.835400128 0.000476966 0.003416099 0.0 0.0 0.0 0.0
1200010000.0 -0.066251292 0.826071488 -0.002891841 -0.00162522 0.0 0.0 0.0 0.0
1215009500.0 -0.04063202 0.83618784 0.001541951 0.002768384 0.0 0.0 0.0 0.0
1230009000.0 -0.00746133 0.836365376 0.001053516 -0.000443944 0.0 0.0 0.0 0.0
1245008500.0 0.021066474 0.829273088 -0.005637205 0.002310427 0.0 0.0 0.0 0.0
1260008000.0 0.061359844 0.83414144 1.1073e-05 0.004192881 0.0 0.0 0.0 0.0
1275007500.0 0.08712804 0.822907712 -0.003035128 0.00889217 0.0 0.0 0.0 0.0
1290007000.0 0.121030616 0.815763456 0.003501141 0.000652361 0.0 0.0 0.0 0.0
1305006500.0 0.155256816 0.828553088 0.00406394 0.007287298 0.0 0.0 0.0 0.0
1320006000.0 0.18023272 0.800628608 0.002964775 0.006696382 0.0 0.0 0.0 0.0
1335005500.0 0.213963728 0.793057024 -0.01271648 -0.004452054 0.0 0.0 0.0 0.0
1350005000.0 0.242445408 0.796326848 0.00783989 0.003791929 0.0 0.0 0.0 0.0
1365004500.0 0.28232304 0.829636288 0.005978717 0.007059928 0.0 0.0 0.0 0.0
1380004000.0 0.30338176 0.783996032 0.005877561 0.000319338 0.0 0.0 0.0 0.0
1395003500.0 0.326183744 0.728942656 -0.000965096 -0.003645625 0.0 0.0 0.0 0.0
1410003000.0 0.348922944 0.742267264 -0.005930358 0.0116232 0.0 0.0 0.0 0.0
1425002500.0 0.354550336 0.702218112 0.004060625 0.025558718 0.0 0.0 0.0 0.0
1440002000.0 0.384637728 0.709432192 -0.004971872 0.013469106 0.0 0.0 0.0 0.0
1455001500.0 0.385938336 0.6791392 0.01042043 0.004878422 0.0 0.0 0.0 0.0
1470001000.0 0.417582688 0.670618624 0.015911602 -0.000779682 0.0 0.0 0.0 0.0
1485000500.0 0.46476256 0.653908608 0.01376468 0.000169283 0.0 0.0 0.0 0.0
1500000000.0 0.473105728 0.643051456 0.000140586 0.00848477 0.0 0.0 0.0 0.0
