! Created with skrf 1.8.0 (http://scikit-rf.org).
# Hz S RI R 50.0 
!freq ReS11 ImS11 ReS21 ImS21 ReS12 ImS12 ReS22 ImS22
50000.0 0.996901696 0.000677108 -8.571e-06 -2.542e-05 0.0 0.0 0.0 0.0
15049500.0 0.93991904 0.360913344 -7.43e-06 2.1534e-05 0.0 0.0 0.0 0.0
30049000.0 0.749987136 0.672699712 -2.7613e-05 1.052e-06 0.0 0.0 0.0 0.0
45048500.0 0.462077664 0.8922656 -4.0184e-05 -2.9319e-05 0.0 0.0 0.0 0.0
60048000.0 0.10345388 1.013780952 -3.4493e-05 -3.1886e-05 0.0 0.0 0.0 0.0
75047500.0 -0.273249312 0.988068352 -6.1995e-05 -3.909e-06 0.0 0.0 0.0 0.0
90047000.0 -0.619358336 0.820068864 -2.6223e-05 -1.3532e-05 0.0 0.0 0.0 0.0
105046500.0 -0.891246592 0.546147648 -3.5569e-05 1.3302e-05 0.0 0.0 0.0 0.0
120046000.0 -1.042173384 0.185197104 -4.0669e-05 5.511e-06 0.0 0.0 0.0 0.0
135045500.0 -1.045402528 -0.209363376 -8.4498e-05 1.0299e-05 0.0 0.0 0.0 0.0
150045000.0 -0.91453408 -0.585696576 -2.2378e-05 7.773e-06 0.0 0.0 0.0 0.0
165044500.0 -0.648576576 -0.884616192 -5.3348e-05 5.2879e-05 0.0 0.0 0.0 0.0
180044000.0 -0.314831776 -1.043861864 -3.208e-05 3.8945e-05 0.0 0.0 0.0 0.0
195043500.0 0.064192512 -1.100815536 5.654e-06 -4.833e-06 0.0 0.0 0.0 0.0
210043000.0 0.434247392 -1.0225358 -1.8385e-05 5.7597e-05 0.0 0.0 0.0 0.0
225042500.0 0.752042816 -0.821710336 -2.7267e-05 3.3997e-05 0.0 0.0 0.0 0.0
240042000.0 0.994969152 -0.540085248 -1.2704e-05 4.4719e-05 0.0 0.0 0.0 0.0
255041500.0 1.135737424 -0.187464224 2.1709e-05 4.2521e-05 0.0 0.0 0.0 0.0
270041000.0 1.150498752 0.220695488 -9.121e-06 1.5984e-05 0.0 0.0 0.0 0.0
285040500.0 1.022563458 0.633125632 3.0408e-05 1.7696e-05 0.0 0.0 0.0 0.0
300040000.0 0.689127104 0.955875008 -0.000403719 7.4901e-05 0.0 0.0 0.0 0.0
315039500.0 0.32105872 1.191242336 0.000116593 -3.9447e-05 0.0 0.0 0.0 0.0
330039000.0 -0.140098336 1.256690384 0.000352902 0.000162998 0.0 0.0 0.0 0.0
345038500.0 -0.594439296 1.14257216 0.00017787 -0.000186398 0.0 0.0 0.0 0.0
360038000.0 -0.967985664 0.869765632 0.000317272 0.000300556 0.0 0.0 0.0 0.0
375037500.0 -1.254710912 0.47730816 0.000527749 -6.4194e-05 0.0 0.0 0.0 0.0
390037000.0 -1.364797248 -0.020742608 5.702e-06 7.5784e-05 0.0 0.0 0.0 0.0
405036500.0 -1.291026816 -0.515736096 0.00012349 0.00010162 0.0 0.0 0.0 0.0
420036000.0 -1.034474492 -0.97018112 0.000533044 0.000396957 0.0 0.0 0.0 0.0
435035500.0 -0.630515712 -1.273123264 0.000627469 -0.000193808 0.0 0.0 0.0 0.0
450035000.0 -0.149445328 -1.399288896 0.000516566 -0.000166927 0.0 0.0 0.0 0.0
465034500.0 0.30410448 -1.384093632 0.000498656 0.000102649 0.0 0.0 0.0 0.0
480034000.0 0.729013248 -1.212760448 0.000629586 8.6751e-05 0.0 0.0 0.0 0.0
495033500.0 1.074326392 -0.91688864 0.000230601 0.000404247 0.0 0.0 0.0 0.0
510033000.0 1.317424064 -0.529241312 0.000403718 -8.851e-06 0.0 0.0 0.0 0.0
525032500.0 1.40909456 -0.06823372 0.00038132 -0.000597558 0.0 0.0 0.0 0.0
540032000.0 1.358735072 0.38149888 -0.000262454 -0.000413082 0.0 0.0 0.0 0.0
555031500.0 1.157132512 0.799593984 8.2283e-05 -0.000482907 0.0 0.0 0.0 0.0
570031000.0 0.812261312 1.11331904 0.00043374 -0.000928485 0.0 0.0 0.0 0.0
585030500.0 0.38768272 1.286351552 -0.000126831 -0.000303642 0.0 0.0 0.0 0.0
600030000.0 -0.057596824 1.342501408 0.000701856 -0.000587731 0.0 0.0 0.0 0.0
615029500.0 -0.49458272 1.224469536 7.9509e-05 -0.000772177 0.0 0.0 0.0 0.0
630029000.0 -0.868014784 0.963877696 0.000283642 -0.000367542 0.0 0.0 0.0 0.0
645028500.0 -1.168050528 0.585308608 0.000114038 -0.000265887 0.0 0.0 0.0 0.0
660028000.0 -1.311677088 0.1047122 0.000540935 -0.000489449 0.0 0.0 0.0 0.0
675027500.0 -1.266843552 -0.393612032 -0.000600441 -0.00050589 0.0 0.0 0.0 0.0
690027000.0 -1.012812972 -0.869023232 0.000265646 -0.000462558 0.0 0.0 0.0 0.0
705026500.0 -0.6115968 -1.166615968 1.542e-06 8.6017e-05 0.0 0.0 0.0 0.0
720026000.0 -0.13715136 -1.265057808 0.000203135 -0.000442987 0.0 0.0 0.0 0.0
735025500.0 0.313457152 -1.20772744 0.00023467 -0.000350406 0.0 0.0 0.0 0.0
750025000.0 0.711390208 -0.99706944 2.4892e-05 0.000194243 0.0 0.0 0.0 0.0
765024500.0 1.002204895 -0.657934848 1.3859e-05 -0.000453318 0.0 0.0 0.0 0.0
780024000.0 1.134938832 -0.221722912 -7.965e-06 -0.000276344 0.0 0.0 0.0 0.0
795023500.0 1.103274584 0.2122024 3.0406e-05 -0.00064293 0.0 0.0 0.0 0.0
810023000.0 0.860624384 0.553637632 -0.00077441 -0.000553591 0.0 0.0 0.0 0.0
825022500.0 0.55787712 0.735881408 0.000311069 -0.00068857 0.0 0.0 0.0 0.0
840022000.0 0.27396048 0.779811392 -0.000438797 -0.000632323 0.0 0.0 0.0 0.0
855021500.0 0.055549984 0.762100736 0.000115725 -0.000273839 0.0 0.0 0.0 0.0
870021000.0 -0.129501848 0.731612544 -2.006e-05 -0.000198282 0.0 0.0 0.0 0.0
885020500.0 -0.300613408 0.722419008 -0.00018463 -0.000597194 0.0 0.0 0.0 0.0
900020000.0 -0.524531968 0.741393792 0.00162389 -0.002661969 0.0 0.0 0.0 0.0
915019500.0 -0.504936224 0.734617664 -0.001434444 -0.001703815 0.0 0.0 0.0 0.0
930019000.0 -0.48846464 0.746672832 -3.8025e-05 0.000798502 0.0 0.0 0.0 0.0
945018500.0 -0.477300064 0.742050368 -0.000643076 0.000186441 0.0 0.0 0.0 0.0
960018000.0 -0.453972992 0.741694272 0.002711695 -0.000412346 0.0 0.0 0.0 0.0
975017500.0 -0.439554816 0.747779008 0.001211131 -0.002200164 0.0 0.0 0.0 0.0
990017000.0 -0.41661088 0.754804864 0.002323398 -0.00117009 0.0 0.0 0.0 0.0
1005016500.0 -0.392257344 0.763178816 0.002363923 0.002000686 0.0 0.0 0.0 0.0
1020016000.0 -0.366198016 0.773337152 0.000910891 -0.00043365 0.0 0.0 0.0 0.0
1035015500.0 -0.359285536 0.778102592 -0.000177462 -0.000651529 0.0 0.0 0.0 0.0
1050015000.0 -0.320961312 0.794942784 0.003547566 -0.001301258 0.0 0.0 0.0 0.0
1065014500.0 -0.310928576 0.791217984 0.001062388 0.001436997 0.0 0.0 0.0 0.0
1080014000.0 -0.287630752 0.80324096 0.000981931 -0.002771704 0.0 0.0 0.0 0.0
1095013500.0 -0.270917376 0.796233152 0.000536407 -0.001124417 0.0 0.0 0.0 0.0
1110013000.0 -0.24607792 0.80853568 0.000414518 0.000778894 0.0 0.0 0.0 0.0
1125012500.0 -0.22364936 0.7968672 -0.004079973 0.000607481 0.0 0.0 0.0 0.0
1140012000.0 -0.179634864 0.804533696 -0.001592626 -0.003424109 0.0 0.0 0.0 0.0
1155011500.0 -0.17705528 0.79400768 -0.000796485 -0.002374044 0.0 0.0 0.0 0.0
1170011000.0 -0.122102248 0.826029184 -0.000530778 -0.001483718 0.0 0.0 0.0 0.0
1185010500.0 -0.092194624 0.805273472 -0.000848139 0.001053127 0.0 0.0 0.0 0.0
1200010000.0 -0.072916616 0.814621952 0.001122599 0.001972189 0.0 0.0 0.0 0.0
1215009500.0 -0.041364484 0.8062208 -0.000239698 2.8352e-05 0.0 0.0 0.0 0.0
1230009000.0 -0.01430148 0.82122624 -0.00307174 -0.000774285 0.0 0.0 0.0 0.0
1245008500.0 0.011995876 0.829401536 -0.003957076 -0.000128481 0.0 0.0 0.0 0.0
1260008000.0 0.056886648 0.8251504 -0.001071157 0.000905041 0.0 0.0 0.0 0.0
1275007500.0 0.093702896 0.81620448 0.006221717 0.000569439 0.0 0.0 0.0 0.0
1290007000.0 0.119336096 0.811239232 -0.001189851 0.007719282 0.0 0.0 0.0 0.0
1305006500.0 0.151519872 0.802019392 0.004221414 0.003140569 0.0 0.0 0.0 0.0
1320006000.0 0.188177712 0.799619584 4.2544e-05 -0.001811053 0.0 0.0 0.0 0.0
1335005500.0 0.20636808 0.793295424 -0.002369414 0.005502106 0.0 0.0 0.0 0.0
1350005000.0 0.237204736 0.77051392 -0.00029183 0.009845796 0.0 0.0 0.0 0.0
1365004500.0 0.236202624 0.72384768 -0.002260781 0.008461154 0.0 0.0 0.0 0.0
1380004000.0 0.299995584 0.742491776 -0.001548448 0.001434125 0.0 0.0 0.0 0.0
1395003500.0 0.340712128 0.735688832 -0.007296336 -0.005077596 0.0 0.0 0.0 0.0
1410003000.0 0.355678752 0.717915968 0.002214797 -0.000707079 0.0 0.0 0.0 0.0
1425002500.0 0.387828224 0.694224512 -0.001876154 -0.004144061 0.0 0.0 0.0 0.0
1440002000.0 0.403170272 0.691019712 0.000390734 0.010552056 0.0 0.0 0.0 0.0
1455001500.0 0.430686624 0.671054272 0.004978359 -0.000193837 0.0 0.0 0.0 0.0
1470001000.0 0.420066528 0.662034368 0.016034538 0.007492862 0.0 0.0 0.0 0.0
1485000500.0 0.45150992 0.639672896 0.006130396 0.001684321 0.0 0.0 0.0 0.0
1500000000.0 0.479575104 0.61891136 0.014400728 -0.003552968 0.0 0.0 0.0 0.0
