! Created with skrf 1.8.0 (http://scikit-rf.org).
# Hz S RI R 50.0 
!freq ReS11 ImS11 ReS21 ImS21 ReS12 ImS12 ReS22 ImS22
50000.0 0.996423872 0.001459599 4.3437e-05 -1.3213e-05 0.0 0.0 0.0 0.0
15049500.0 0.939651584 0.360926528 -1.4021e-05 1.559e-06 0.0 0.0 0.0 0.0
30049000.0 0.749828864 0.672539392 -2.091e-05 2.5893e-05 0.0 0.0 0.0 0.0
45048500.0 0.461830208 0.892265408 -8.14e-06 -2.4125e-05 0.0 0.0 0.0 0.0
60048000.0 0.103428944 1.01353705 -1.5352e-05 1.7991e-05 0.0 0.0 0.0 0.0
75047500.0 -0.273142464 0.987883136 -7.0296e-05 2.736e-06 0.0 0.0 0.0 0.0
90047000.0 -0.619238464 0.819846336 -4.0617e-05 1.691e-05 0.0 0.0 0.0 0.0
105046500.0 -0.890665408 0.546161792 -4.5068e-05 -2.3226e-05 0.0 0.0 0.0 0.0
120046000.0 -1.041758536 0.185454976 -4.4601e-05 9.214e-06 0.0 0.0 0.0 0.0
135045500.0 -1.045154096 -0.208352688 -3.9182e-05 1.1603e-05 0.0 0.0 0.0 0.0
150045000.0 -0.914451392 -0.585639872 -3.4042e-05 1.9091e-05 0.0 0.0 0.0 0.0
165044500.0 -0.648661632 -0.884485632 -2.255e-05 4.7864e-05 0.0 0.0 0.0 0.0
180044000.0 -0.314719136 -1.044314028 3.0582e-05 3.9624e-05 0.0 0.0 0.0 0.0
195043500.0 0.063429252 -1.101259472 -2.427e-06 -2.893e-06 0.0 0.0 0.0 0.0
210043000.0 0.43433904 -1.022802948 -2.9214e-05 3.922e-05 0.0 0.0 0.0 0.0
225042500.0 0.75191296 -0.822094784 -3.786e-06 3.2377e-05 0.0 0.0 0.0 0.0
240042000.0 0.994930048 -0.540300096 2.179e-06 5.707e-05 0.0 0.0 0.0 0.0
255041500.0 1.13725448 -0.18858688 1.8813e-05 4.6278e-05 0.0 0.0 0.0 0.0
270041000.0 1.151288752 0.221509344 2.1589e-05 1.6036e-05 0.0 0.0 0.0 0.0
285040500.0 1.021646976 0.633084672 8.1624e-05 1.712e-06 0.0 0.0 0.0 0.0
300040000.0 0.689041472 0.958267264 -0.000173534 -3.9792e-05 0.0 0.0 0.0 0.0
315039500.0 0.319380832 1.1922524 -0.00018248 0.000153332 0.0 0.0 0.0 0.0
330039000.0 -0.136457072 1.254150512 1.994e-05 -0.00014843 0.0 0.0 0.0 0.0
345038500.0 -0.594617472 1.140305632 0.000266424 0.000363216 0.0 0.0 0.0 0.0
360038000.0 -0.965164032 0.87313888 0.000293633 6.71e-06 0.0 0.0 0.0 0.0
375037500.0 -1.254116896 0.475671008 0.000322475 -7.3323e-05 0.0 0.0 0.0 0.0
390037000.0 -1.370596416 -0.02182901 4.2738e-05 -6.4592e-05 0.0 0.0 0.0 0.0
405036500.0 -1.290520416 -0.520129856 0.000284097 0.000422142 0.0 0.0 0.0 0.0
420036000.0 -1.03801 -0.964134784 0.000314477 4.9285e-05 0.0 0.0 0.0 0.0
435035500.0 -0.63337184 -1.268547648 0.000327327 0.000287525 0.0 0.0 0.0 0.0
450035000.0 -0.15271136 -1.398763648 0.000139811 -0.000176407 0.0 0.0 0.0 0.0
465034500.0 0.302496544 -1.381431936 -0.000272985 -5.74e-07 0.0 0.0 0.0 0.0
480034000.0 0.7258576 -1.212095376 0.0003838 -0.000245227 0.0 0.0 0.0 0.0
495033500.0 1.076445464 -0.916917632 0.00016472 8.6603e-05 0.0 0.0 0.0 0.0
510033000.0 1.318732512 -0.530861632 0.000505662 -0.000213062 0.0 0.0 0.0 0.0
525032500.0 1.407129056 -0.069088272 0.000181152 -0.000308029 0.0 0.0 0.0 0.0
540032000.0 1.356717344 0.382531872 9.891e-05 -0.000419004 0.0 0.0 0.0 0.0
555031500.0 1.155157328 0.797343232 0.000131214 -0.000141369 0.0 0.0 0.0 0.0
570031000.0 0.815532544 1.112436416 0.000804634 -0.000470783 0.0 0.0 0.0 0.0
585030500.0 0.392420832 1.28557968 -1.6131e-05 -0.000754442 0.0 0.0 0.0 0.0
600030000.0 -0.048797728 1.343638304 -0.000241783 -0.000752652 0.0 0.0 0.0 0.0
615029500.0 -0.4961552 1.228493696 0.000170905 -0.000667721 0.0 0.0 0.0 0.0
630029000.0 -0.873060288 0.964519296 7.905e-06 -0.000409168 0.0 0.0 0.0 0.0
645028500.0 -1.172668816 0.577255616 0.000265569 -0.000293251 0.0 0.0 0.0 0.0
660028000.0 -1.304266688 0.106904176 0.000324813 -0.000413011 0.0 0.0 0.0 0.0
675027500.0 -1.269706976 -0.383731424 -7.0378e-05 -0.000503745 0.0 0.0 0.0 0.0
690027000.0 -1.01604116 -0.861535808 -9.8713e-05 -0.000341577 0.0 0.0 0.0 0.0
705026500.0 -0.607773888 -1.167887568 -0.000211597 -0.000182494 0.0 0.0 0.0 0.0
720026000.0 -0.13843024 -1.270068896 -0.000217313 -0.000382903 0.0 0.0 0.0 0.0
735025500.0 0.310200704 -1.211703296 1.9978e-05 -0.000315772 0.0 0.0 0.0 0.0
750025000.0 0.70266944 -1.000352383 2.7168e-05 -0.000290906 0.0 0.0 0.0 0.0
765024500.0 1.003129959 -0.65995072 -0.000316263 -0.000324042 0.0 0.0 0.0 0.0
780024000.0 1.153067712 -0.203584192 5.7544e-05 -0.00066782 0.0 0.0 0.0 0.0
795023500.0 1.101647736 0.208759072 5.8413e-05 -0.000388391 0.0 0.0 0.0 0.0
810023000.0 0.864292672 0.547747584 4.0155e-05 -0.0007428 0.0 0.0 0.0 0.0
825022500.0 0.559274176 0.735333056 3.5425e-05 -0.000648275 0.0 0.0 0.0 0.0
840022000.0 0.281304032 0.779744448 -0.000176183 -0.000516952 0.0 0.0 0.0 0.0
855021500.0 0.056357488 0.759760448 -0.000131348 -0.000846124 0.0 0.0 0.0 0.0
870021000.0 -0.12637064 0.733540096 -0.000292565 -0.000526941 0.0 0.0 0.0 0.0
885020500.0 -0.292653504 0.721099648 0.000333694 -0.000463348 0.0 0.0 0.0 0.0
900020000.0 -0.51706992 0.74164928 -0.000998702 0.000672686 0.0 0.0 0.0 0.0
915019500.0 -0.504996256 0.748008512 -0.000928994 -0.002142318 0.0 0.0 0.0 0.0
930019000.0 -0.480895552 0.74211872 0.000949975 -0.001096233 0.0 0.0 0.0 0.0
945018500.0 -0.477815424 0.739728 0.000341241 0.001087424 0.0 0.0 0.0 0.0
960018000.0 -0.451149792 0.748694208 -0.001506787 -0.001572462 0.0 0.0 0.0 0.0
975017500.0 -0.43228368 0.752021824 0.00015162 -0.000236845 0.0 0.0 0.0 0.0
990017000.0 -0.418133952 0.756880256 0.000261429 -3.0531e-05 0.0 0.0 0.0 0.0
1005016500.0 -0.391115552 0.764609792 -0.000317275 -0.000698958 0.0 0.0 0.0 0.0
1020016000.0 -0.37061424 0.765763712 0.001080928 -0.001866375 0.0 0.0 0.0 0.0
1035015500.0 -0.353438112 0.776468416 0.00111546 -0.002430132 0.0 0.0 0.0 0.0
1050015000.0 -0.341526272 0.780699136 -8.157e-05 0.00021883 0.0 0.0 0.0 0.0
1065014500.0 -0.311262944 0.792002176 0.001203251 -0.000881404 0.0 0.0 0.0 0.0
1080014000.0 -0.288414784 0.796759232 0.003422761 -0.003439368 0.0 0.0 0.0 0.0
1095013500.0 -0.25912768 0.804325632 0.000580194 -0.000703885 0.0 0.0 0.0 0.0
1110013000.0 -0.232346496 0.807278912 -0.000746536 -0.001017333 0.0 0.0 0.0 0.0
1125012500.0 -0.216703888 0.800867968 -0.001776907 -0.003441246 0.0 0.0 0.0 0.0
1140012000.0 -0.173309728 0.812080704 -0.002189487 0.001413517 0.0 0.0 0.0 0.0
1155011500.0 -0.13753696 0.82503552 -0.002085536 0.000441247 0.0 0.0 0.0 0.0
1170011000.0 -0.110050352 0.842649472 -0.001985616 -0.004087943 0.0 0.0 0.0 0.0
1185010500.0 -0.104407808 0.818213056 0.000574495 0.000730885 0.0 0.0 0.0 0.0
1200010000.0 -0.067414872 0.81496064 0.002370145 0.004397125 0.0 0.0 0.0 0.0
1215009500.0 -0.038770336 0.805001088 -0.001128672 0.0027834 0.0 0.0 0.0 0.0
1230009000.0 -0.011188856 0.821529408 -0.001281216 0.003704502 0.0 0.0 0.0 0.0
1245008500.0 0.018612366 0.82044736 0.001188965 0.00240916 0.0 0.0 0.0 0.0
1260008000.0 0.0434601 0.815334528 0.003248384 0.005305338 0.0 0.0 0.0 0.0
1275007500.0 0.083792696 0.82005088 -0.005008789 -0.002131616 0.0 0.0 0.0 0.0
1290007000.0 0.114788744 0.797425984 0.002042867 -0.000494457 0.0 0.0 0.0 0.0
1305006500.0 0.1619552 0.799563264 0.002610542 -0.001871953 0.0 0.0 0.0 0.0
1320006000.0 0.186584272 0.788891712 0.000482724 0.004530922 0.0 0.0 0.0 0.0
1335005500.0 0.215182752 0.787666816 0.005013003 0.00089176 0.0 0.0 0.0 0.0
1350005000.0 0.257143792 0.774667648 -0.000576888 0.001953629 0.0 0.0 0.0 0.0
1365004500.0 0.27767984 0.76609888 0.003032699 -0.001337595 0.0 0.0 0.0 0.0
1380004000.0 0.29233056 0.77291584 0.00272737 0.001678338 0.0 0.0 0.0 0.0
1395003500.0 0.329952832 0.74811744 -0.002944312 0.018514916 0.0 0.0 0.0 0.0
1410003000.0 0.3484336 0.732878656 -0.001012611 -0.00488918 0.0 0.0 0.0 0.0
1425002500.0 0.37645808 0.700397056 0.006530207 -0.002945796 0.0 0.0 0.0 0.0
1440002000.0 0.397979584 0.6863072 0.00334707 0.002237607 0.0 0.0 0.0 0.0
1455001500.0 0.409130656 0.671412096 0.005045347 0.009930226 0.0 0.0 0.0 0.0
1470001000.0 0.430393056 0.635938176 -0.01071208 -0.001655714 0.0 0.0 0.0 0.0
1485000500.0 0.453009696 0.62824096 0.002835385 0.007966778 0.0 0.0 0.0 0.0
1500000000.0 0.473516 0.607245824 -0.001499488 0.003323112 0.0 0.0 0.0 0.0
