! Created with skrf 1.8.0 (http://scikit-rf.org).
# Hz S RI R 50.0 
!freq ReS11 ImS11 ReS21 ImS21 ReS12 ImS12 ReS22 ImS22
50000.0 0.0 0.0 -0.817709376 -0.011856708 0.0 0.0 0.0 0.0
15049500.0 0.0 0.0 -0.78584352 0.201237488 0.0 0.0 0.0 0.0
30049000.0 0.0 0.0 -0.715624128 0.376519328 0.0 0.0 0.0 0.0
45048500.0 0.0 0.0 -0.606943936 0.530155072 0.0 0.0 0.0 0.0
60048000.0 0.0 0.0 -0.468556928 0.65280256 0.0 0.0 0.0 0.0
75047500.0 0.0 0.0 -0.308294912 0.738179648 0.0 0.0 0.0 0.0
90047000.0 0.0 0.0 -0.126084432 0.783882304 0.0 0.0 0.0 0.0
105046500.0 0.0 0.0 0.054454232 0.79125248 0.0 0.0 0.0 0.0
120046000.0 0.0 0.0 0.228334528 0.757911808 0.0 0.0 0.0 0.0
135045500.0 0.0 0.0 0.38946288 0.686320896 0.0 0.0 0.0 0.0
150045000.0 0.0 0.0 0.53180272 0.582085568 0.0 0.0 0.0 0.0
165044500.0 0.0 0.0 0.646361472 0.449322752 0.0 0.0 0.0 0.0
180044000.0 0.0 0.0 0.729397504 0.295686848 0.0 0.0 0.0 0.0
195043500.0 0.0 0.0 0.776721088 0.126984208 0.0 0.0 0.0 0.0
210043000.0 0.0 0.0 0.785139648 -0.048464368 0.0 0.0 0.0 0.0
225042500.0 0.0 0.0 0.753418176 -0.221787472 0.0 0.0 0.0 0.0
240042000.0 0.0 0.0 0.68210304 -0.383811328 0.0 0.0 0.0 0.0
255041500.0 0.0 0.0 0.576308672 -0.525958944 0.0 0.0 0.0 0.0
270041000.0 0.0 0.0 0.440906592 -0.637945792 0.0 0.0 0.0 0.0
285040500.0 0.0 0.0 0.285497888 -0.717923776 0.0 0.0 0.0 0.0
300040000.0 0.0 0.0 0.131307096 -0.759205312 0.0 0.0 0.0 0.0
315039500.0 0.0 0.0 -0.040846576 -0.767529984 0.0 0.0 0.0 0.0
330039000.0 0.0 0.0 -0.208439008 -0.735211392 0.0 0.0 0.0 0.0
345038500.0 0.0 0.0 -0.365685472 -0.672009408 0.0 0.0 0.0 0.0
360038000.0 0.0 0.0 -0.504577216 -0.572874944 0.0 0.0 0.0 0.0
375037500.0 0.0 0.0 -0.616835456 -0.4475176 0.0 0.0 0.0 0.0
390037000.0 0.0 0.0 -0.695867328 -0.305751584 0.0 0.0 0.0 0.0
405036500.0 0.0 0.0 -0.743565632 -0.141776672 0.0 0.0 0.0 0.0
420036000.0 0.0 0.0 -0.748621888 0.023813636 0.0 0.0 0.0 0.0
435035500.0 0.0 0.0 -0.713433664 0.188992448 0.0 0.0 0.0 0.0
450035000.0 0.0 0.0 -0.643847296 0.340907616 0.0 0.0 0.0 0.0
465034500.0 0.0 0.0 -0.537095232 0.470908032 0.0 0.0 0.0 0.0
480034000.0 0.0 0.0 -0.411693024 0.571703808 0.0 0.0 0.0 0.0
495033500.0 0.0 0.0 -0.269300544 0.642133632 0.0 0.0 0.0 0.0
510033000.0 0.0 0.0 -0.121808088 0.676232576 0.0 0.0 0.0 0.0
525032500.0 0.0 0.0 0.029067806 0.678847872 0.0 0.0 0.0 0.0
540032000.0 0.0 0.0 0.174539088 0.652648768 0.0 0.0 0.0 0.0
555031500.0 0.0 0.0 0.310535424 0.597230976 0.0 0.0 0.0 0.0
570031000.0 0.0 0.0 0.43185056 0.515668576 0.0 0.0 0.0 0.0
585030500.0 0.0 0.0 0.53100496 0.409597184 0.0 0.0 0.0 0.0
600030000.0 0.0 0.0 0.610370624 0.291032576 0.0 0.0 0.0 0.0
615029500.0 0.0 0.0 0.660266496 0.148857792 0.0 0.0 0.0 0.0
630029000.0 0.0 0.0 0.675894656 -0.002287758 0.0 0.0 0.0 0.0
645028500.0 0.0 0.0 0.654609664 -0.154051184 0.0 0.0 0.0 0.0
660028000.0 0.0 0.0 0.600353728 -0.295076576 0.0 0.0 0.0 0.0
675027500.0 0.0 0.0 0.513647136 -0.419920224 0.0 0.0 0.0 0.0
690027000.0 0.0 0.0 0.401828 -0.518658336 0.0 0.0 0.0 0.0
705026500.0 0.0 0.0 0.277154176 -0.587627456 0.0 0.0 0.0 0.0
720026000.0 0.0 0.0 0.140136096 -0.6278 0.0 0.0 0.0 0.0
735025500.0 0.0 0.0 0.001567084 -0.634823936 0.0 0.0 0.0 0.0
750025000.0 0.0 0.0 -0.131579768 -0.61578112 0.0 0.0 0.0 0.0
765024500.0 0.0 0.0 -0.262352384 -0.569014272 0.0 0.0 0.0 0.0
780024000.0 0.0 0.0 -0.38485072 -0.503666624 0.0 0.0 0.0 0.0
795023500.0 0.0 0.0 -0.472872672 -0.403738624 0.0 0.0 0.0 0.0
810023000.0 0.0 0.0 -0.547812352 -0.288303232 0.0 0.0 0.0 0.0
825022500.0 0.0 0.0 -0.59662944 -0.158485488 0.0 0.0 0.0 0.0
840022000.0 0.0 0.0 -0.615339328 -0.020589922 0.0 0.0 0.0 0.0
855021500.0 0.0 0.0 -0.602815936 0.118775528 0.0 0.0 0.0 0.0
870021000.0 0.0 0.0 -0.55952064 0.25160408 0.0 0.0 0.0 0.0
885020500.0 0.0 0.0 -0.4859 0.3682672 0.0 0.0 0.0 0.0
900020000.0 0.0 0.0 -0.376148896 0.470890944 0.0 0.0 0.0 0.0
915019500.0 0.0 0.0 -0.259117216 0.540901952 0.0 0.0 0.0 0.0
930019000.0 0.0 0.0 -0.140260544 0.580792064 0.0 0.0 0.0 0.0
945018500.0 0.0 0.0 -0.012315312 0.596943168 0.0 0.0 0.0 0.0
960018000.0 0.0 0.0 0.109110024 0.587513664 0.0 0.0 0.0 0.0
975017500.0 0.0 0.0 0.236948032 0.554075264 0.0 0.0 0.0 0.0
990017000.0 0.0 0.0 0.349900224 0.502342528 0.0 0.0 0.0 0.0
1005016500.0 0.0 0.0 0.451622848 0.427923456 0.0 0.0 0.0 0.0
1020016000.0 0.0 0.0 0.542843264 0.32002368 0.0 0.0 0.0 0.0
1035015500.0 0.0 0.0 0.611461824 0.19803568 0.0 0.0 0.0 0.0
1050015000.0 0.0 0.0 0.647681728 0.061672544 0.0 0.0 0.0 0.0
1065014500.0 0.0 0.0 0.663896704 -0.096490824 0.0 0.0 0.0 0.0
1080014000.0 0.0 0.0 0.634205952 -0.25287304 0.0 0.0 0.0 0.0
1095013500.0 0.0 0.0 0.56684128 -0.399949504 0.0 0.0 0.0 0.0
1110013000.0 0.0 0.0 0.457846272 -0.52934528 0.0 0.0 0.0 0.0
1125012500.0 0.0 0.0 0.327132544 -0.619609664 0.0 0.0 0.0 0.0
1140012000.0 0.0 0.0 0.175278448 -0.688189056 0.0 0.0 0.0 0.0
1155011500.0 0.0 0.0 0.028205458 -0.701455232 0.0 0.0 0.0 0.0
1170011000.0 0.0 0.0 -0.150409168 -0.696474624 0.0 0.0 0.0 0.0
1185010500.0 0.0 0.0 -0.308329472 -0.682640384 0.0 0.0 0.0 0.0
1200010000.0 0.0 0.0 -0.460762464 -0.605377984 0.0 0.0 0.0 0.0
1215009500.0 0.0 0.0 -0.602864192 -0.509701792 0.0 0.0 0.0 0.0
1230009000.0 0.0 0.0 -0.729051328 -0.37838448 0.0 0.0 0.0 0.0
1245008500.0 0.0 0.0 -0.809959552 -0.219639024 0.0 0.0 0.0 0.0
1260008000.0 0.0 0.0 -0.851990784 -0.02896923 0.0 0.0 0.0 0.0
1275007500.0 0.0 0.0 -0.869198208 0.166540016 0.0 0.0 0.0 0.0
1290007000.0 0.0 0.0 -0.829602432 0.3699176 0.0 0.0 0.0 0.0
1305006500.0 0.0 0.0 -0.713516992 0.534473728 0.0 0.0 0.0 0.0
1320006000.0 0.0 0.0 -0.588613184 0.681284032 0.0 0.0 0.0 0.0
1335005500.0 0.0 0.0 -0.437981696 0.807190272 0.0 0.0 0.0 0.0
1350005000.0 0.0 0.0 -0.24781112 0.868103296 0.0 0.0 0.0 0.0
1365004500.0 0.0 0.0 -0.052645016 0.933650432 0.0 0.0 0.0 0.0
1380004000.0 0.0 0.0 0.106711984 0.920963648 0.0 0.0 0.0 0.0
1395003500.0 0.0 0.0 0.310766272 0.89521664 0.0 0.0 0.0 0.0
1410003000.0 0.0 0.0 0.478252896 0.826294912 0.0 0.0 0.0 0.0
1425002500.0 0.0 0.0 0.632949248 0.732398272 0.0 0.0 0.0 0.0
1440002000.0 0.0 0.0 0.793871104 0.607773248 0.0 0.0 0.0 0.0
1455001500.0 0.0 0.0 0.905819328 0.452824576 0.0 0.0 0.0 0.0
1470001000.0 0.0 0.0 0.994971584 0.291898976 0.0 0.0 0.0 0.0
1485000500.0 0.0 0.0 1.014155866 0.091459 0.0 0.0 0.0 0.0
1500000000.0 0.0 0.0 1.050891996 -0.120991952 0.0 0.0 0.0 0.0
