! Created with skrf 1.8.0 (http://scikit-rf.org).
# Hz S RI R 50.0 
!freq ReS11 ImS11
50000.0 -0.001366587 9.1517e-05
10049500.0 -0.002209173 0.000264734
20049000.0 -0.003610237 0.000504893
30048500.0 -0.00554291 0.000415967
40048000.0 -0.007946342 -0.000169089
50047500.0 -0.010310208 -0.001680077
60047000.0 -0.012743812 -0.003902303
70046500.0 -0.014991202 -0.006863007
80046000.0 -0.016465958 -0.011042452
90045500.0 -0.017959932 -0.015009482
100045000.0 -0.01792976 -0.019567558
110044500.0 -0.01713307 -0.02426451
120044000.0 -0.015250136 -0.028746462
130043500.0 -0.011490074 -0.032552746
140043000.0 -0.008424538 -0.036417584
150042500.0 -0.003850663 -0.038996476
160042000.0 0.001232563 -0.04037846
170041500.0 0.006487037 -0.040405864
180041000.0 0.010461806 -0.03794626
190040500.0 0.014698798 -0.035675908
200040000.0 0.017728026 -0.032265506
210039500.0 0.019664272 -0.028077578
220039000.0 0.020097668 -0.02351156
230038500.0 0.018910132 -0.019212186
240038000.0 0.01615902 -0.015377332
250037500.0 0.01192637 -0.012662058
260037000.0 0.006640968 -0.011355384
270036500.0 0.000503221 -0.01193123
280036000.0 -0.005597709 -0.014241402
290035500.0 -0.011653554 -0.019079392
300035000.0 -0.015623494 -0.024104676
310034500.0 -0.02105688 -0.03373774
320034000.0 -0.022044862 -0.043608888
330033500.0 -0.021253346 -0.055459852
340033000.0 -0.016402864 -0.067540616
350032500.0 -0.009771226 -0.079094616
360032000.0 -0.00042397 -0.090538696
370031500.0 0.013095234 -0.099440384
380031000.0 0.028612856 -0.106944472
390030500.0 0.048232592 -0.109871488
400030000.0 0.067660176 -0.11043156
410029500.0 0.086405408 -0.105365024
420029000.0 0.105831016 -0.095264264
430028500.0 0.123523776 -0.082091176
440028000.0 0.13837024 -0.064237112
450027500.0 0.148666512 -0.043202524
460027000.0 0.156186 -0.01844183
470026500.0 0.158110896 0.007072644
480026000.0 0.15408776 0.033455222
490025500.0 0.144629552 0.057830176
500025000.0 0.127536016 0.080588024
510024500.0 0.105454224 0.099061288
520024000.0 0.080240336 0.111902624
530023500.0 0.052631896 0.118392408
540023000.0 0.020220052 0.117330864
550022500.0 -0.007511157 0.110221664
560022000.0 -0.033414994 0.096912608
570021500.0 -0.054566772 0.07840904
580021000.0 -0.071000584 0.054042732
590020500.0 -0.080212624 0.02619205
600020000.0 -0.084914256 -0.003467028
610019500.0 -0.083868536 -0.035576476
620019000.0 -0.072784376 -0.066169948
630018500.0 -0.053236388 -0.0950876
640018000.0 -0.028086382 -0.1156196
650017500.0 0.040925088 -0.21180464
660017000.0 0.033809768 -0.141409792
670016500.0 0.067272368 -0.144797952
680016000.0 0.098611712 -0.139699152
690015500.0 0.128430856 -0.127270848
700015000.0 0.153079664 -0.109577584
710014500.0 0.17335968 -0.08110204
720014000.0 0.191741072 -0.046425636
730013500.0 0.201186624 -0.0076086
740013000.0 0.20281368 0.03310848
750012500.0 0.193261312 0.077783672
760012000.0 0.173581728 0.121294816
770011500.0 0.139456 0.160880512
780011000.0 0.086737688 0.186227808
790010500.0 0.038920608 0.20389424
800010000.0 -0.019033 0.19622488
810009500.0 -0.068226728 0.175881792
820009000.0 -0.108947976 0.147821616
830008500.0 -0.145882096 0.112936888
840008000.0 -0.170264976 0.067807032
850007500.0 -0.18677672 0.022830964
860007000.0 -0.197469488 -0.024669534
870006500.0 -0.205650912 -0.07668284
880006000.0 -0.207028816 -0.134427488
890005500.0 -0.206733696 -0.20381016
900005000.0 -0.194711632 -0.273019456
910004500.0 -0.206337888 -0.265468208
920004000.0 -0.206223136 -0.278729376
930003500.0 -0.219459824 -0.268770368
940003000.0 -0.221364448 -0.257056176
950002500.0 -0.230586496 -0.258635312
960002000.0 -0.239142272 -0.245030464
970001500.0 -0.240171904 -0.236552384
980001000.0 -0.245620416 -0.232409584
990000500.0 -0.246366944 -0.215916528
1000000000.0 -0.249156384 -0.196266192
