! Created with skrf 1.8.0 (http://scikit-rf.org).
# Hz S RI R 50.0 
!freq ReS11 ImS11
50000.0 0.99824352 0.000800277
10049500.0 0.973497536 0.24269696
20049000.0 0.888804544 0.471782208
30048500.0 0.75067328 0.673959488
40048000.0 0.569501312 0.83599968
50047500.0 0.350249408 0.95483904
60047000.0 0.102922752 1.014878392
70046500.0 -0.149576656 1.011693478
80046000.0 -0.396089664 0.946266368
90045500.0 -0.620422848 0.82063488
100045000.0 -0.811700544 0.648828736
110044500.0 -0.956223424 0.432012064
120044000.0 -1.043656944 0.184910528
130043500.0 -1.034148812 -0.08190848
140043000.0 -1.024781584 -0.342239264
150042500.0 -0.91564224 -0.587430144
160042000.0 -0.747717504 -0.797658624
170041500.0 -0.53533648 -0.95857632
180041000.0 -0.313945184 -1.046535016
190040500.0 -0.061986992 -1.097852472
200040000.0 0.192508336 -1.08960652
210039500.0 0.43789824 -1.024601698
220039000.0 0.660924864 -0.905087488
230038500.0 0.850328448 -0.740650432
240038000.0 0.999068928 -0.538632512
250037500.0 1.103185176 -0.308738752
260037000.0 1.157410272 -0.052838968
270036500.0 1.154168016 0.224739776
280036000.0 1.081178664 0.503381536
290035500.0 0.944020224 0.759076032
300035000.0 0.6862224 0.961760256
310034500.0 0.462230176 1.147923712
320034000.0 0.169639536 1.242213008
330033500.0 -0.143396752 1.258652928
340033000.0 -0.45262992 1.20011472
350032500.0 -0.740552128 1.05989468
360032000.0 -0.973219136 0.869115968
370031500.0 -1.17690456 0.621318592
380031000.0 -1.316612128 0.317912832
390030500.0 -1.396452192 -0.020249626
400030000.0 -1.34580768 -0.360521088
410029500.0 -1.236932272 -0.690302528
420029000.0 -1.032680274 -0.976159552
430028500.0 -0.773007424 -1.193556544
440028000.0 -0.472451136 -1.338459616
450027500.0 -0.156291424 -1.404166816
460027000.0 0.157840608 -1.40490544
470026500.0 0.458119168 -1.345013632
480026000.0 0.736692352 -1.216636304
490025500.0 0.98278208 -1.034884096
500025000.0 1.182392832 -0.797351424
510024500.0 1.32681776 -0.526696736
520024000.0 1.398495904 -0.2179432
530023500.0 1.40353536 0.095296744
540023000.0 1.369901408 0.390763968
550022500.0 1.247474672 0.676474944
560022000.0 1.05523026 0.9265072
570021500.0 0.81906208 1.12275076
580021000.0 0.540523392 1.262759216
590020500.0 0.240039888 1.320302144
600020000.0 -0.05647248 1.355476736
610019500.0 -0.3567488 1.28706528
620019000.0 -0.638060032 1.16214872
630018500.0 -0.892165504 0.9677888
640018000.0 -1.08698344 0.732770048
650017500.0 -2.289791584 -0.295246944
660017000.0 -1.315571424 0.10352792
670016500.0 -1.322578656 -0.23222672
680016000.0 -1.220716592 -0.56778816
690015500.0 -1.03012991 -0.870180032
700015000.0 -0.76178592 -1.094472408
710014500.0 -0.456997088 -1.229805344
720014000.0 -0.139452736 -1.275526656
730013500.0 0.168769728 -1.251999504
740013000.0 0.453871584 -1.163566704
750012500.0 0.711825024 -1.007438421
760012000.0 0.923212096 -0.7931616
770011500.0 1.079160096 -0.531878656
780011000.0 1.192480928 -0.21284808
790010500.0 1.148666384 0.063542292
800010000.0 1.04380846 0.336896064
810009500.0 0.871791744 0.552717184
820009000.0 0.66907904 0.689192064
830008500.0 0.463818208 0.762454656
840008000.0 0.278963552 0.78252992
850007500.0 0.127003912 0.7750464
860007000.0 -0.004449766 0.755726912
870006500.0 -0.123938888 0.732025536
880006000.0 -0.2360832 0.72379968
890005500.0 -0.35184848 0.71456128
900005000.0 -0.517601184 0.73533408
910004500.0 -0.538211648 0.71091904
920004000.0 -0.501698496 0.735831232
930003500.0 -0.48433472 0.743930752
940003000.0 -0.463819648 0.740833152
950002500.0 -0.46143728 0.740355072
960002000.0 -0.446996992 0.74416576
970001500.0 -0.431066432 0.742232
980001000.0 -0.424063488 0.750891136
990000500.0 -0.412386464 0.753096704
1000000000.0 -0.39907872 0.757711616
