! Created with skrf 1.8.0 (http://scikit-rf.org).
# Hz S RI R 50.0 
!freq ReS11 ImS11
50000.0 -0.004849433898925781 0.0029956549406051636
30049500.0 0.014835309237241745 -0.003023114986717701
60049000.0 0.009014811366796494 -0.006419922225177288
90048500.0 0.004028726369142532 -0.005019930191338062
120048000.0 0.0028907954692840576 0.00025972072035074234
150047500.0 0.008300598710775375 0.0027345307171344757
180047000.0 0.014561265707015991 -0.0001618415117263794
210046500.0 0.017646949738264084 -0.00815279595553875
240046000.0 0.012986481189727783 -0.01626071147620678
270045500.0 0.00454692542552948 -0.018450656905770302
300045000.0 -0.0014743506908416748 -0.013584093190729618
330044500.0 -0.0006884261965751648 -0.005677826702594757
360044000.0 0.005636196583509445 -0.0016764430329203606
390043500.0 0.013543568551540375 -0.0064958371222019196
420043000.0 0.015013448894023895 -0.016471991315484047
450042500.0 0.008311226963996887 -0.024711690843105316
480042000.0 -0.002967342734336853 -0.025331230834126472
510041500.0 -0.010124891996383667 -0.016860660165548325
540041000.0 -0.00866735726594925 -0.006059786304831505
570040500.0 0.0013185888528823853 0.00044928956776857376
600040000.0 0.012062013149261475 -0.0024632085114717484
630039500.0 0.017286483198404312 -0.01219877414405346
660039000.0 0.013979781419038773 -0.023027384653687477
690038500.0 0.004449654370546341 -0.026369651779532433
720038000.0 -0.0033542215824127197 -0.02143053337931633
750037500.0 -0.004314247518777847 -0.010322175920009613
780037000.0 0.0034603141248226166 -0.0032551847398281097
810036500.0 0.01569749042391777 -0.0037092547863721848
840036000.0 0.025017501786351204 -0.012298677116632462
870035500.0 0.026169683784246445 -0.024025343358516693
900035000.0 0.01975187286734581 -0.033675625920295715
930034500.0 0.009121909737586975 -0.03481745719909668
960034000.0 0.0036972053349018097 -0.02823053114116192
990033500.0 0.0052145905792713165 -0.018869474530220032
1020033000.0 0.015179483219981194 -0.013780858367681503
1050032500.0 0.02748033031821251 -0.01736031472682953
1080032000.0 0.03550420701503754 -0.029605433344841003
1110031500.0 0.03390950709581375 -0.045394930988550186
1140031000.0 0.022992229089140892 -0.0559256412088871
1170030500.0 0.008934203535318375 -0.054823026061058044
1200030000.0 -0.0007919799536466599 -0.04386921972036362
1230029500.0 0.0028229746967554092 -0.030118539929389954
1260029000.0 0.018748166039586067 -0.023831553757190704
1290028500.0 0.03635891154408455 -0.032386668026447296
1320028000.0 0.04693633317947388 -0.05281974747776985
1350027500.0 0.040266938507556915 -0.07655145227909088
1380027000.0 0.017266293987631798 -0.09026384353637695
1410026500.0 -0.0056855930015444756 -0.08558733761310577
1440026000.0 -0.015597598627209663 -0.06652043759822845
1470025500.0 -0.009812465868890285 -0.048172738403081894
1500025000.0 0.012081483379006386 -0.04611970856785774
1530024500.0 0.02957860194146633 -0.06275366991758347
1560024000.0 0.02574222907423973 -0.0917624831199646
1590023500.0 0.0014642607420682907 -0.1111658364534378
1620023000.0 -0.03130336105823517 -0.10701394081115723
1650022500.0 -0.053420789539813995 -0.07947824150323868
1680022000.0 -0.049074314534664154 -0.0448751263320446
1710021500.0 -0.020569663494825363 -0.027111973613500595
1740021000.0 0.011578064411878586 -0.04042757302522659
1770020500.0 0.019411101937294006 -0.07124936580657959
1800020000.0 0.0002590864896774292 -0.0995294377207756
1830019500.0 -0.03797346353530884 -0.10435367375612259
1860019000.0 -0.06486105918884277 -0.07970084249973297
1890018500.0 -0.06387326121330261 -0.039588287472724915
1920018000.0 -0.034481704235076904 -0.01313704438507557
1950017500.0 0.004876524209976196 -0.0218298751860857
1980017000.0 0.023939482867717743 -0.05746375396847725
2010016500.0 0.008397705852985382 -0.09690991789102554
2040016000.0 -0.033636510372161865 -0.10869569331407547
2070015500.0 -0.07399636507034302 -0.08493296802043915
2100015000.0 -0.08571553975343704 -0.035888753831386566
2130014500.0 -0.05466404929757118 0.00703953392803669
2160014000.0 -0.0002888292074203491 0.014079862274229527
2190013500.0 0.04167497903108597 -0.020709747448563576
2220013000.0 0.04344581067562103 -0.07033400237560272
2250012500.0 0.004553735256195068 -0.10484347492456436
2280012000.0 -0.04070261865854263 -0.09302139282226562
2310011500.0 -0.07158007472753525 -0.04997725039720535
2340011000.0 -0.04903968423604965 -0.0030751610174775124
2370010500.0 0.0060751065611839294 0.013732773251831532
2400010000.0 0.05646313726902008 -0.02097764052450657
2430009500.0 0.06807208061218262 -0.08048555999994278
2460009000.0 0.029443472623825073 -0.13003084063529968
2490008500.0 -0.028923794627189636 -0.13619951903820038
2520008000.0 -0.06915879249572754 -0.09177577495574951
2550007500.0 -0.06099876016378403 -0.03441127762198448
2580007000.0 -0.009096167981624603 -0.007524905726313591
2610006500.0 0.0505964457988739 -0.027851203456521034
2640006000.0 0.07046862691640854 -0.09460847079753876
2670005500.0 0.044251054525375366 -0.1520969420671463
2700005000.0 -0.0228012315928936 -0.17942142486572266
2730004500.0 -0.07674740254878998 -0.14791737496852875
2760004000.0 -0.08669190108776093 -0.09487390518188477
2790003500.0 -0.05488517880439758 -0.05469784513115883
2820003000.0 -0.000946342945098877 -0.05851460248231888
2850002500.0 0.026670560240745544 -0.10761307179927826
2880002000.0 0.009424068033695221 -0.16573604941368103
2910001500.0 -0.04743855446577072 -0.19353210926055908
2940001000.0 -0.10022452473640442 -0.17601215839385986
2970000500.0 -0.12775082886219025 -0.13034707307815552
3000000000.0 -0.11699511110782623 -0.08149200677871704
