! Created with skrf 1.8.0 (http://scikit-rf.org).
# Hz S RI R 50.0 
!freq ReS11 ImS11
99000.0 -0.004844486713409424 0.011009037494659424
30098010.0 0.014894172549247742 -0.00239607784897089
60097020.0 0.009204637259244919 -0.006965951062738895
90096030.0 0.003753405064344406 -0.005141622386872768
120095040.0 0.0030590221285820007 0.0006342297419905663
150094050.0 0.00782138854265213 0.002668202854692936
180093060.0 0.014730989933013916 -0.00013852864503860474
210092070.0 0.01744229719042778 -0.008248275145888329
240091080.0 0.013794586062431335 -0.016292788088321686
270090090.0 0.0048208944499492645 -0.019316362217068672
300089100.0 -0.002245090901851654 -0.014135900884866714
330088110.0 -0.0024011656641960144 -0.0059494636952877045
360087120.0 0.0051131173968315125 -0.0018582725897431374
390086130.0 0.013310320675373077 -0.0058975620195269585
420085140.0 0.015408869832754135 -0.01536546740680933
450084150.0 0.009329818189144135 -0.024536017328500748
480083160.0 -0.0021020323038101196 -0.025405753403902054
510082170.0 -0.009754694998264313 -0.0175202377140522
540081180.0 -0.008779078722000122 -0.005515530705451965
570080190.0 0.00024513155221939087 0.0009446218609809875
600079200.0 0.011859793215990067 -0.001745656132698059
630078210.0 0.017910346388816833 -0.011799941770732403
660077220.0 0.014875806868076324 -0.022318340837955475
690076230.0 0.005139227956533432 -0.026205608621239662
720075240.0 -0.0034092366695404053 -0.021528247743844986
750074250.0 -0.0047497861087322235 -0.011401740834116936
780073260.0 0.003065202385187149 -0.0035166628658771515
810072270.0 0.015317007899284363 -0.0025862734764814377
840071280.0 0.024885328486561775 -0.01159055344760418
870070290.0 0.027014343068003654 -0.02371150627732277
900069300.0 0.020140836015343666 -0.03370966389775276
930068310.0 0.009144127368927002 -0.035017598420381546
960067320.0 0.00305112823843956 -0.02918192371726036
990066330.0 0.004215892404317856 -0.01978859305381775
1020065340.0 0.013547403737902641 -0.013042069971561432
1050064350.0 0.027143694460392 -0.016586899757385254
1080063360.0 0.0356462299823761 -0.02886667102575302
1110062370.0 0.03430585563182831 -0.04559997469186783
1140061380.0 0.02369694784283638 -0.05642137676477432
1170060390.0 0.008920454420149326 -0.05604639649391174
1200059400.0 -0.0010169446468353271 -0.04514024779200554
1230058410.0 0.0023185256868600845 -0.02928672730922699
1260057420.0 0.018833737820386887 -0.022740274667739868
1290056430.0 0.03816777095198631 -0.031448863446712494
1320055440.0 0.04777836427092552 -0.052759312093257904
1350054450.0 0.03953428938984871 -0.07750751823186874
1380053460.0 0.018981430679559708 -0.09070578217506409
1410052470.0 -0.007424316368997097 -0.08608130365610123
1440051480.0 -0.01760259084403515 -0.06671472638845444
1470050490.0 -0.008538104593753815 -0.046606384217739105
1500049500.0 0.012335852719843388 -0.044103141874074936
1530048510.0 0.03072023205459118 -0.06330227851867676
1560047520.0 0.025773942470550537 -0.09239605069160461
1590046530.0 0.0006290525197982788 -0.1113356500864029
1620045540.0 -0.03257625550031662 -0.1074988916516304
1650044550.0 -0.05500390753149986 -0.0796942412853241
1680043560.0 -0.04944351315498352 -0.04530033469200134
1710042570.0 -0.019290629774332047 -0.027784448117017746
1740041580.0 0.010305047035217285 -0.040951140224933624
1770040590.0 0.018874548375606537 -0.0731814056634903
1800039600.0 -0.0001531951129436493 -0.10104950517416
1830038610.0 -0.03854507952928543 -0.10429322719573975
1860037620.0 -0.06627444177865982 -0.07972851395606995
1890036630.0 -0.06491708755493164 -0.03951665014028549
1920035640.0 -0.035201139748096466 -0.013317594304680824
1950034650.0 0.0051360949873924255 -0.022186893969774246
1980033660.0 0.024589382112026215 -0.05628108233213425
2010032670.0 0.007623694837093353 -0.09652271866798401
2040031680.0 -0.03248896449804306 -0.10923492908477783
2070030690.0 -0.07573011517524719 -0.08530760556459427
2100029700.0 -0.08517767488956451 -0.03521457314491272
2130028710.0 -0.054524581879377365 0.00731107871979475
2160027720.0 -0.0005137398838996887 0.012886777520179749
2190026730.0 0.04032031446695328 -0.02125059999525547
2220025740.0 0.0433817058801651 -0.0723581612110138
2250024750.0 0.002545006573200226 -0.1072901263833046
2280023760.0 -0.04735536873340607 -0.09719181805849075
2310022770.0 -0.07194873690605164 -0.050526030361652374
2340021780.0 -0.0499018058180809 -0.001456952653825283
2370020790.0 0.00656428188085556 0.012286938726902008
2400019800.0 0.05703020840883255 -0.02002796158194542
2430018810.0 0.06690122932195663 -0.07989247888326645
2460017820.0 0.02630510926246643 -0.1299990713596344
2490016830.0 -0.030550412833690643 -0.13395555317401886
2520015840.0 -0.0691005289554596 -0.0884590595960617
2550014850.0 -0.06098487973213196 -0.03430117294192314
2580013860.0 -0.009516201913356781 -0.00645097903907299
2610012870.0 0.05089356005191803 -0.03270724415779114
2640011880.0 0.07106178998947144 -0.09343072772026062
2670010890.0 0.04274338483810425 -0.15419702231884003
2700009900.0 -0.02033592015504837 -0.17602227628231049
2730008910.0 -0.0716196671128273 -0.14678777754306793
2760007920.0 -0.08106453716754913 -0.0922602117061615
2790006930.0 -0.052576228976249695 -0.054820481687784195
2820005940.0 0.0006534978747367859 -0.05779154971241951
2850004950.0 0.03038898855447769 -0.10695507377386093
2880003960.0 0.021886929869651794 -0.16204890608787537
2910002970.0 -0.039240069687366486 -0.1987617015838623
2940001980.0 -0.09796939790248871 -0.18265818059444427
2970000990.0 -0.12514746189117432 -0.13687577843666077
3000000000.0 -0.11811210215091705 -0.08863021433353424
