! Created with skrf 1.8.0 (http://scikit-rf.org).
# Hz S RI R 50.0 
!freq ReS11 ImS11
50000.0 0.99670016 0.000799933
15049500.0 0.93947616 0.360080064
30049000.0 0.749500032 0.672564864
45048500.0 0.461553984 0.891864128
60048000.0 0.103148792 1.013395072
75047500.0 -0.273336896 0.988136576
90047000.0 -0.619195584 0.819698304
105046500.0 -0.890640064 0.545882048
120046000.0 -1.04145992 0.185246704
135045500.0 -1.045758248 -0.20936096
150045000.0 -0.914688576 -0.585821184
165044500.0 -0.648245568 -0.884176448
180044000.0 -0.314243712 -1.043619512
195043500.0 0.06405788 -1.101005432
210043000.0 0.43445216 -1.022190928
225042500.0 0.751551936 -0.82189792
240042000.0 0.994685056 -0.540246336
255041500.0 1.135253904 -0.187381232
270041000.0 1.150482656 0.220785696
285040500.0 1.02218175 0.631662528
300040000.0 0.688771264 0.957988928
315039500.0 0.31922208 1.192053552
330039000.0 -0.133741784 1.257180448
345038500.0 -0.596456832 1.141219728
360038000.0 -0.967137216 0.87129664
375037500.0 -1.255183456 0.479553088
390037000.0 -1.362964384 -0.0297691
405036500.0 -1.288784864 -0.517018848
420036000.0 -1.035820244 -0.966630336
435035500.0 -0.630265536 -1.272681824
450035000.0 -0.15688944 -1.406820288
465034500.0 0.301612704 -1.378409728
480034000.0 0.730179776 -1.213604208
495033500.0 1.073182704 -0.92071232
510033000.0 1.32300688 -0.527143648
525032500.0 1.406307328 -0.067679328
540032000.0 1.358464 0.381848864
555031500.0 1.15644264 0.799293632
570031000.0 0.812349568 1.11315048
585030500.0 0.398682944 1.288539872
600030000.0 -0.049530368 1.343481312
615029500.0 -0.494285824 1.22380864
630029000.0 -0.8716304 0.96124768
645028500.0 -1.170374752 0.580936384
660028000.0 -1.31405616 0.109219104
675027500.0 -1.265029424 -0.394133536
690027000.0 -1.017609358 -0.865393664
705026500.0 -0.610313472 -1.167875888
720026000.0 -0.141125872 -1.270006048
735025500.0 0.320161536 -1.209684368
750025000.0 0.713227712 -1.000784874
765024500.0 1.00304687 -0.655369344
780024000.0 1.160094976 -0.266773872
795023500.0 1.102824808 0.208222848
810023000.0 0.859888192 0.55279744
825022500.0 0.55642752 0.736845952
840022000.0 0.27653216 0.785743104
855021500.0 0.053812516 0.759000512
870021000.0 -0.126808912 0.734829248
885020500.0 -0.29592576 0.712989184
900020000.0 -0.526482176 0.736953728
915019500.0 -0.512103424 0.736924416
930019000.0 -0.497068032 0.740121344
945018500.0 -0.472888832 0.743871936
960018000.0 -0.44639856 0.746836672
975017500.0 -0.438172128 0.751841984
990017000.0 -0.415585664 0.76281504
1005016500.0 -0.399123904 0.76460832
1020016000.0 -0.382298336 0.76866112
1035015500.0 -0.349646592 0.778430144
1050015000.0 -0.336943392 0.790387392
1065014500.0 -0.314284416 0.787103936
1080014000.0 -0.285935936 0.798083008
1095013500.0 -0.26402176 0.803611072
1110013000.0 -0.232266208 0.810138304
1125012500.0 -0.2318316 0.796203648
1140012000.0 -0.174517072 0.820838208
1155011500.0 -0.134132784 0.827039744
1170011000.0 -0.109263136 0.81819776
1185010500.0 -0.101104864 0.813651072
1200010000.0 -0.072334744 0.821158592
1215009500.0 -0.04083394 0.819625536
1230009000.0 -0.013843698 0.820613184
1245008500.0 0.016020134 0.823793664
1260008000.0 0.044824496 0.815035456
1275007500.0 0.086451584 0.813222208
1290007000.0 0.119527264 0.816321088
1305006500.0 0.161382816 0.801544
1320006000.0 0.178031824 0.794969216
1335005500.0 0.20698408 0.77976864
1350005000.0 0.237877056 0.788911808
1365004500.0 0.216618992 0.76777952
1380004000.0 0.289224672 0.750116736
1395003500.0 0.3205472 0.74892768
1410003000.0 0.350410848 0.719536576
1425002500.0 0.3782408 0.7075472
1440002000.0 0.392992384 0.684306816
1455001500.0 0.429122144 0.671448832
1470001000.0 0.420406688 0.66155776
1485000500.0 0.4596808 0.634561856
1500000000.0 0.476600704 0.628477184
