! Created with skrf 1.8.0 (http://scikit-rf.org).
# Hz S RI R 50.0 
!freq ReS11 ImS11
50000.0 -0.00656908 -0.004676547
15049500.0 -0.005629492 0.002950674
30049000.0 -0.008340001 0.004015046
45048500.0 -0.013002996 0.003677118
60048000.0 -0.01838852 0.001213103
75047500.0 -0.024033302 -0.002946149
90047000.0 -0.029120822 -0.008611692
105046500.0 -0.03243358 -0.014914008
120046000.0 -0.03358642 -0.021281214
135045500.0 -0.032378264 -0.026437598
150045000.0 -0.029779104 -0.03009176
165044500.0 -0.025655548 -0.031311226
180044000.0 -0.021919152 -0.027943684
195043500.0 -0.018685986 -0.0236981
210043000.0 -0.017266294 -0.017132804
225042500.0 -0.018235268 -0.009667234
240042000.0 -0.022286776 -0.002564588
255041500.0 -0.028807524 0.002391552
270041000.0 -0.036729196 0.003071316
285040500.0 -0.044720436 -0.000628272
300040000.0 -0.048048264 -0.009466792
315039500.0 -0.052041268 -0.020667852
330039000.0 -0.047643952 -0.036404972
345038500.0 -0.033852472 -0.05129204
360038000.0 -0.014442896 -0.065558344
375037500.0 0.013720612 -0.0755114
390037000.0 0.049103352 -0.077845496
405036500.0 0.086032376 -0.070266744
420036000.0 0.123450104 -0.0517318
435035500.0 0.156818016 -0.023601936
450035000.0 0.18289952 0.01094842
465034500.0 0.199464016 0.053979296
480034000.0 0.20303776 0.099211672
495033500.0 0.19222904 0.14124104
510033000.0 0.17010384 0.176326784
525032500.0 0.136291728 0.199504432
540032000.0 0.093640416 0.204413744
555031500.0 0.060232372 0.193333952
570031000.0 0.032849736 0.16757496
585030500.0 0.01283286 0.13130084
600030000.0 0.006949278 0.089717352
615029500.0 0.01445331 0.04247202
630029000.0 0.039286336 0.00030605
645028500.0 0.076781272 -0.033144646
660028000.0 0.122161936 -0.053807796
675027500.0 0.169594512 -0.059777208
690027000.0 0.213720272 -0.050795772
705026500.0 0.248934928 -0.026010212
720026000.0 0.272207168 0.014400224
735025500.0 0.283612736 0.068617032
750025000.0 0.268887296 0.125470784
765024500.0 0.22766344 0.18313304
780024000.0 0.157447872 0.221970544
795023500.0 0.066636564 0.22663136
810023000.0 -0.017258116 0.188366224
825022500.0 -0.083025336 0.131385264
840022000.0 -0.124935896 0.05568748
855021500.0 -0.148163488 -0.028285118
870021000.0 -0.16502232 -0.11661028
885020500.0 -0.16784216 -0.224712736
900020000.0 -0.154825504 -0.355522528
915019500.0 -0.205559056 -0.373771584
930019000.0 -0.257276208 -0.36941168
945018500.0 -0.31603488 -0.33678192
960018000.0 -0.35792496 -0.281881408
975017500.0 -0.381505632 -0.217203312
990017000.0 -0.370407232 -0.149864416
1005016500.0 -0.344640864 -0.089842256
1020016000.0 -0.30557488 -0.035441816
1035015500.0 -0.255096288 -0.00854458
1050015000.0 -0.189078512 -0.000700883
1065014500.0 -0.132558536 0.005619543
1080014000.0 -0.089730408 -0.018849454
1095013500.0 -0.051751552 -0.049696648
1110013000.0 -0.02173331 -0.090791264
1125012500.0 -0.021298588 -0.136461184
1140012000.0 -0.025680138 -0.165330304
1155011500.0 -0.067706352 -0.205795856
1170011000.0 -0.091607664 -0.201855376
1185010500.0 -0.128663376 -0.188553296
1200010000.0 -0.155976064 -0.160332416
1215009500.0 -0.15428184 -0.122954568
1230009000.0 -0.15097416 -0.07446572
1245008500.0 -0.115930216 -0.06542232
1260008000.0 -0.079418344 -0.04175586
1275007500.0 -0.030998584 -0.042321392
1290007000.0 0.001756316 -0.056752784
1305006500.0 0.023347062 -0.0886014
1320006000.0 0.03180734 -0.125609352
1335005500.0 0.029704478 -0.151359904
1350005000.0 0.006530129 -0.179750704
1365004500.0 -0.063598128 -0.166187392
1380004000.0 -0.115971136 -0.176398384
1395003500.0 -0.1285592 -0.118476824
1410003000.0 -0.157437632 -0.065113984
1425002500.0 -0.13434312 0.016774824
1440002000.0 -0.107526968 0.0747278
1455001500.0 -0.09330244 0.109285248
1470001000.0 -0.001257272 0.131796272
1485000500.0 0.068987352 0.143676464
1500000000.0 0.135330528 0.16908024
