! Created with skrf 1.8.0 (http://scikit-rf.org).
# Hz S RI R 50.0 
!freq ReS11 ImS11
50000.0 0.996464576 0.001045841
15049500.0 0.939190976 0.360239968
30049000.0 0.749050432 0.672191616
45048500.0 0.461280768 0.891660224
60048000.0 0.103266552 1.013139486
75047500.0 -0.273217728 0.98765856
90047000.0 -0.619175424 0.818971776
105046500.0 -0.890580224 0.545680256
120046000.0 -1.041089416 0.185173632
135045500.0 -1.045483588 -0.20879816
150045000.0 -0.914044352 -0.585598592
165044500.0 -0.647841728 -0.88367808
180044000.0 -0.314687168 -1.042961836
195043500.0 0.063472652 -1.100254536
210043000.0 0.433479552 -1.021949768
225042500.0 0.750395264 -0.82096
240042000.0 0.994121856 -0.540467136
255041500.0 1.135200144 -0.188294656
270041000.0 1.150167584 0.220744368
285040500.0 1.022731184 0.63222976
300040000.0 0.687126592 0.955606592
315039500.0 0.318230944 1.190256832
330039000.0 -0.137736192 1.258153312
345038500.0 -0.594850176 1.139352672
360038000.0 -0.969488 0.873654336
375037500.0 -1.25247192 0.476172672
390037000.0 -1.358934528 0.003059901
405036500.0 -1.291009792 -0.512297376
420036000.0 -1.033193708 -0.964756224
435035500.0 -0.629524032 -1.270240416
450035000.0 -0.169346384 -1.404137504
465034500.0 0.299873056 -1.376964928
480034000.0 0.72765984 -1.2128464
495033500.0 1.069313288 -0.914482752
510033000.0 1.312419424 -0.525829312
525032500.0 1.403349152 -0.066266208
540032000.0 1.356187328 0.38207136
555031500.0 1.150240064 0.797533696
570031000.0 0.814318912 1.111494424
585030500.0 0.37937696 1.293611296
600030000.0 -0.0525343 1.342371712
615029500.0 -0.49371872 1.225851536
630029000.0 -0.867704896 0.963657088
645028500.0 -1.165119408 0.579214592
660028000.0 -1.306395168 0.09665516
675027500.0 -1.266605856 -0.393555264
690027000.0 -1.006518483 -0.856166912
705026500.0 -0.60250176 -1.159960384
720026000.0 -0.12847276 -1.272445664
735025500.0 0.317099552 -1.205621952
750025000.0 0.708259136 -0.997254912
765024500.0 0.999589376 -0.651713472
780024000.0 1.138236768 -0.254478576
795023500.0 1.10205996 0.21115272
810023000.0 0.863567424 0.55833248
825022500.0 0.555881472 0.736102656
840022000.0 0.277460704 0.781264192
855021500.0 0.053899128 0.762824832
870021000.0 -0.128628464 0.734096448
885020500.0 -0.303303168 0.719006272
900020000.0 -0.523963456 0.742508928
915019500.0 -0.509714304 0.744093888
930019000.0 -0.496910048 0.74355648
945018500.0 -0.475048608 0.742732352
960018000.0 -0.462157728 0.748056192
975017500.0 -0.440261312 0.758640512
990017000.0 -0.421989504 0.753894912
1005016500.0 -0.402981344 0.763351744
1020016000.0 -0.371771136 0.769460608
1035015500.0 -0.357986048 0.78391296
1050015000.0 -0.35181696 0.806507904
1065014500.0 -0.31276 0.794020544
1080014000.0 -0.295744736 0.798309888
1095013500.0 -0.263049872 0.811116096
1110013000.0 -0.24269288 0.820222016
1125012500.0 -0.223497936 0.80001312
1140012000.0 -0.18359824 0.826147712
1155011500.0 -0.136349536 0.844467328
1170011000.0 -0.136088304 0.815097152
1185010500.0 -0.100159656 0.822847104
1200010000.0 -0.065402216 0.827547776
1215009500.0 -0.04234544 0.833880448
1230009000.0 -0.008050124 0.838970176
1245008500.0 0.020312624 0.843392448
1260008000.0 0.047834628 0.848967168
1275007500.0 0.078223328 0.83423776
1290007000.0 0.122052144 0.818688
1305006500.0 0.14850168 0.81276704
1320006000.0 0.184271984 0.807993536
1335005500.0 0.2179892 0.796844928
1350005000.0 0.229056816 0.779573376
1365004500.0 0.279761728 0.73747648
1380004000.0 0.295076864 0.768463936
1395003500.0 0.322215328 0.748168576
1410003000.0 0.349319104 0.737539904
1425002500.0 0.363231744 0.702695488
1440002000.0 0.387310272 0.702569216
1455001500.0 0.409851264 0.684337152
1470001000.0 0.429578912 0.660124352
1485000500.0 0.447730592 0.650787776
1500000000.0 0.475050144 0.618655424
