! Created with skrf 1.8.0 (http://scikit-rf.org).
# Hz S RI R 50.0 
!freq ReS11 ImS11
50000.0 0.996465984 0.000963025
15049500.0 0.938735616 0.360597088
30049000.0 0.749397632 0.672201152
45048500.0 0.461434688 0.891533312
60048000.0 0.103245168 1.012980342
75047500.0 -0.273326816 0.9871264
90047000.0 -0.618616448 0.819307072
105046500.0 -0.890437632 0.545772416
120046000.0 -1.041066408 0.185117152
135045500.0 -1.044749616 -0.208099712
150045000.0 -0.914192064 -0.585096448
165044500.0 -0.64844224 -0.883754432
180044000.0 -0.314908128 -1.043300152
195043500.0 0.063171944 -1.100215552
210043000.0 0.433064128 -1.02159965
225042500.0 0.75051936 -0.821572544
240042000.0 0.993459648 -0.540418944
255041500.0 1.134841328 -0.18921664
270041000.0 1.150377632 0.220020128
285040500.0 1.022444128 0.63123552
300040000.0 0.68705472 0.954874304
315039500.0 0.319378688 1.19138264
330039000.0 -0.134818464 1.259542944
345038500.0 -0.594580672 1.139020912
360038000.0 -0.965639808 0.871011392
375037500.0 -1.249802 0.479429216
390037000.0 -1.361980672 -0.030224714
405036500.0 -1.28938352 -0.514424448
420036000.0 -1.035195708 -0.962309952
435035500.0 -0.63057344 -1.267737632
450035000.0 -0.156539008 -1.394740928
465034500.0 0.300183936 -1.377240768
480034000.0 0.719468544 -1.213856816
495033500.0 1.071821928 -0.918345024
510033000.0 1.316443552 -0.528421984
525032500.0 1.405601024 -0.071667128
540032000.0 1.357748032 0.3842496
555031500.0 1.153557776 0.79804512
570031000.0 0.813376512 1.108296992
585030500.0 0.39617648 1.291571136
600030000.0 -0.050817076 1.344684736
615029500.0 -0.493512128 1.2209996
630029000.0 -0.872359616 0.961555648
645028500.0 -1.17059744 0.578588608
660028000.0 -1.309407936 0.103724632
675027500.0 -1.257913584 -0.389530944
690027000.0 -1.018125772 -0.859496448
705026500.0 -0.606317824 -1.16358304
720026000.0 -0.132075104 -1.270405888
735025500.0 0.317603296 -1.208352928
750025000.0 0.704126464 -0.995675328
765024500.0 1.002934575 -0.654656192
780024000.0 1.153729792 -0.25077536
795023500.0 1.104686024 0.212406736
810023000.0 0.857376704 0.554898752
825022500.0 0.555556672 0.737392768
840022000.0 0.277799392 0.781499072
855021500.0 0.051455044 0.759142656
870021000.0 -0.127684208 0.734412224
885020500.0 -0.29657088 0.722699968
900020000.0 -0.524594304 0.7431344
915019500.0 -0.506362432 0.7369264
930019000.0 -0.490944608 0.737799808
945018500.0 -0.475873536 0.751639232
960018000.0 -0.45914896 0.75262944
975017500.0 -0.45035936 0.739610496
990017000.0 -0.419880896 0.760313664
1005016500.0 -0.402210624 0.769041088
1020016000.0 -0.379113152 0.78625184
1035015500.0 -0.363550112 0.77982464
1050015000.0 -0.351245984 0.815464704
1065014500.0 -0.316886016 0.799117184
1080014000.0 -0.288195936 0.810946432
1095013500.0 -0.260543856 0.820123328
1110013000.0 -0.239062432 0.816514752
1125012500.0 -0.225805072 0.809949376
1140012000.0 -0.179980304 0.818425408
1155011500.0 -0.172312624 0.835760384
1170011000.0 -0.151896896 0.826122368
1185010500.0 -0.095273216 0.824912384
1200010000.0 -0.07721968 0.822182976
1215009500.0 -0.037642056 0.826711936
1230009000.0 -0.010146776 0.83918528
1245008500.0 0.03066564 0.833333248
1260008000.0 0.042263036 0.838756352
1275007500.0 0.083733256 0.83163648
1290007000.0 0.124602952 0.815464832
1305006500.0 0.151608528 0.817815616
1320006000.0 0.17876824 0.809354624
1335005500.0 0.20154768 0.797225088
1350005000.0 0.248705328 0.790781696
1365004500.0 0.284981664 0.725020736
1380004000.0 0.287702208 0.759218432
1395003500.0 0.329176832 0.740576384
1410003000.0 0.345888896 0.737940736
1425002500.0 0.371283008 0.7131568
1440002000.0 0.38989104 0.700529856
1455001500.0 0.425915488 0.676044736
1470001000.0 0.412232512 0.6531184
1485000500.0 0.444560672 0.6457568
1500000000.0 0.440015648 0.62128896
