! Created with skrf 1.8.0 (http://scikit-rf.org).
# Hz S RI R 50.0 
!freq ReS11 ImS11
50000.0 0.997957376 0.001581829
15049500.0 0.9392672 0.360551744
30049000.0 0.749972608 0.672470016
45048500.0 0.461878688 0.891852608
60048000.0 0.103297552 1.013324976
75047500.0 -0.273265824 0.988032448
90047000.0 -0.61892608 0.819700864
105046500.0 -0.891010944 0.546146048
120046000.0 -1.041392328 0.185519744
135045500.0 -1.044315576 -0.208407312
150045000.0 -0.914752576 -0.585612608
165044500.0 -0.648266112 -0.88426496
180044000.0 -0.315107488 -1.043732764
195043500.0 0.063698904 -1.101141096
210043000.0 0.434385344 -1.02163279
225042500.0 0.751364288 -0.821293888
240042000.0 0.99403072 -0.540722816
255041500.0 1.136255152 -0.188305168
270041000.0 1.151157024 0.220354192
285040500.0 1.023000956 0.63246592
300040000.0 0.687898688 0.955131008
315039500.0 0.318695584 1.189301008
330039000.0 -0.136822928 1.254022592
345038500.0 -0.594678592 1.142587664
360038000.0 -0.965969344 0.874188224
375037500.0 -1.25618016 0.476435456
390037000.0 -1.361941824 -0.016123236
405036500.0 -1.288353568 -0.516566528
420036000.0 -1.034662008 -0.964314176
435035500.0 -0.63252736 -1.271232608
450035000.0 -0.170074528 -1.399811968
465034500.0 0.297227712 -1.379694112
480034000.0 0.726653184 -1.211793072
495033500.0 1.071952464 -0.91653792
510033000.0 1.316518656 -0.527247136
525032500.0 1.407263744 -0.068555232
540032000.0 1.36108016 0.381191328
555031500.0 1.154677504 0.79973056
570031000.0 0.81328032 1.11376572
585030500.0 0.388838016 1.28825344
600030000.0 -0.047691596 1.344120992
615029500.0 -0.49752704 1.22427904
630029000.0 -0.874782144 0.959717696
645028500.0 -1.16543472 0.58134848
660028000.0 -1.310805792 0.1079346
675027500.0 -1.26185704 -0.39315392
690027000.0 -1.017492532 -0.854863424
705026500.0 -0.602744832 -1.164638752
720026000.0 -0.132582976 -1.263383984
735025500.0 0.316450272 -1.212503792
750025000.0 0.707114112 -0.998490432
765024500.0 1.002647281 -0.653985856
780024000.0 1.169458752 -0.217234256
795023500.0 1.10256672 0.2130984
810023000.0 0.86729952 0.55881504
825022500.0 0.55686176 0.735575488
840022000.0 0.276010592 0.780487872
855021500.0 0.053451708 0.759159552
870021000.0 -0.12951216 0.730067584
885020500.0 -0.30095264 0.721737664
900020000.0 -0.527392256 0.741034688
915019500.0 -0.510899296 0.74606816
930019000.0 -0.495262304 0.74799648
945018500.0 -0.465801056 0.743556544
960018000.0 -0.45528848 0.745971968
975017500.0 -0.437594304 0.750796032
990017000.0 -0.415429952 0.758230336
1005016500.0 -0.399109664 0.77026624
1020016000.0 -0.375369728 0.778703936
1035015500.0 -0.352464064 0.779865024
1050015000.0 -0.326221344 0.796439936
1065014500.0 -0.305328288 0.792647296
1080014000.0 -0.286314272 0.798990592
1095013500.0 -0.262221424 0.808361088
1110013000.0 -0.235797808 0.813710592
1125012500.0 -0.215746064 0.794816576
1140012000.0 -0.175819664 0.814189376
1155011500.0 -0.13567712 0.819650496
1170011000.0 -0.13167736 0.818752192
1185010500.0 -0.091078984 0.819240512
1200010000.0 -0.064079912 0.817832
1215009500.0 -0.0415082 0.812724992
1230009000.0 -0.009312684 0.82472064
1245008500.0 0.0190059 0.809683456
1260008000.0 0.060397756 0.826923072
1275007500.0 0.088042656 0.817604544
1290007000.0 0.12726344 0.806062016
1305006500.0 0.154716592 0.811325696
1320006000.0 0.188870464 0.803906304
1335005500.0 0.21135952 0.786503168
1350005000.0 0.234539152 0.779537088
1365004500.0 0.259219888 0.772828544
1380004000.0 0.301878432 0.741821696
1395003500.0 0.330086368 0.73736064
1410003000.0 0.354304864 0.725810496
1425002500.0 0.363932544 0.696940672
1440002000.0 0.402006304 0.690819264
1455001500.0 0.412567296 0.683060928
1470001000.0 0.459572896 0.653422208
1485000500.0 0.4283936 0.635508416
1500000000.0 0.470287552 0.60730624
