! Created with skrf 1.8.0 (http://scikit-rf.org).
# Hz S RI R 50.0 
!freq ReS11 ImS11
50000.0 0.99967744 0.001914128
15049500.0 0.941550528 0.361138784
30049000.0 0.751381248 0.674368832
45048500.0 0.462502304 0.89408928
60048000.0 0.103673616 1.01589346
75047500.0 -0.273674816 0.990692416
90047000.0 -0.620435392 0.821936704
105046500.0 -0.89301216 0.547861632
120046000.0 -1.044412852 0.186051152
135045500.0 -1.047442676 -0.20913456
150045000.0 -0.91767744 -0.586983424
165044500.0 -0.650240768 -0.887005376
180044000.0 -0.315524448 -1.047935844
195043500.0 0.06401956 -1.105112552
210043000.0 0.436634432 -1.025714756
225042500.0 0.755344576 -0.82431584
240042000.0 0.999846592 -0.54200352
255041500.0 1.140647648 -0.187616784
270041000.0 1.15587128 0.222168112
285040500.0 1.028061628 0.6340864
300040000.0 0.689228032 0.961580544
315039500.0 0.320930048 1.196928384
330039000.0 -0.139988 1.263193136
345038500.0 -0.598964032 1.147031904
360038000.0 -0.97381792 0.875349696
375037500.0 -1.263702512 0.478096512
390037000.0 -1.385150208 -0.008148019
405036500.0 -1.297191136 -0.521720288
420036000.0 -1.041056752 -0.972171328
435035500.0 -0.632794112 -1.280766016
450035000.0 -0.166813552 -1.415896288
465034500.0 0.30369712 -1.389755136
480034000.0 0.73397504 -1.222499728
495033500.0 1.081733464 -0.923197568
510033000.0 1.32702016 -0.534994912
525032500.0 1.4200784 -0.06787744
540032000.0 1.37304176 0.385266208
555031500.0 1.165742272 0.807145728
570031000.0 0.828590784 1.12911928
585030500.0 0.405437216 1.306597344
600030000.0 -0.046864776 1.360517376
615029500.0 -0.50101984 1.241168624
630029000.0 -0.878831488 0.979300416
645028500.0 -1.18201792 0.601291584
660028000.0 -1.327919712 0.121475416
675027500.0 -1.292511456 -0.38252992
690027000.0 -1.02941978 -0.868330048
705026500.0 -0.625132352 -1.17069888
720026000.0 -0.151950352 -1.28604304
735025500.0 0.304660544 -1.228278992
750025000.0 0.702143936 -1.01995182
765024500.0 0.999235456 -0.675331776
780024000.0 1.133555888 -0.271892352
795023500.0 1.11551988 0.20090096
810023000.0 0.87143008 0.551372288
825022500.0 0.573952896 0.730059648
840022000.0 0.29314672 0.78002912
855021500.0 0.067601488 0.763592128
870021000.0 -0.119222864 0.734840512
885020500.0 -0.28814512 0.727203776
900020000.0 -0.511304256 0.74582048
915019500.0 -0.491022368 0.742157184
930019000.0 -0.477479488 0.739446976
945018500.0 -0.449755968 0.742924096
960018000.0 -0.437966976 0.7473984
975017500.0 -0.425231872 0.746620864
990017000.0 -0.39963088 0.75659936
1005016500.0 -0.376962912 0.760297216
1020016000.0 -0.353425376 0.759820672
1035015500.0 -0.346299616 0.770149888
1050015000.0 -0.30602576 0.76391392
1065014500.0 -0.30471968 0.776181632
1080014000.0 -0.273648448 0.780202944
1095013500.0 -0.249469328 0.793509248
1110013000.0 -0.22742616 0.792147776
1125012500.0 -0.20235352 0.790178944
1140012000.0 -0.170299808 0.796415744
1155011500.0 -0.134366096 0.795604672
1170011000.0 -0.10995748 0.8007984
1185010500.0 -0.091687168 0.787445696
1200010000.0 -0.077788424 0.793340608
1215009500.0 -0.051039012 0.80201024
1230009000.0 -0.011473738 0.793208448
1245008500.0 0.008593072 0.795579968
1260008000.0 0.049064768 0.806921408
1275007500.0 0.07533984 0.795510592
1290007000.0 0.105727696 0.794689664
1305006500.0 0.14188864 0.780003328
1320006000.0 0.165680352 0.778462592
1335005500.0 0.20056104 0.776607296
1350005000.0 0.235081824 0.753596736
1365004500.0 0.248209296 0.776531072
1380004000.0 0.274411872 0.747740352
1395003500.0 0.323792096 0.72488768
1410003000.0 0.353488352 0.71095136
1425002500.0 0.357115104 0.697613568
1440002000.0 0.395048832 0.676157184
1455001500.0 0.415478656 0.65404448
1470001000.0 0.419179936 0.623904
1485000500.0 0.4686808 0.626661312
1500000000.0 0.501399264 0.605089536
