! Created with skrf 1.8.0 (http://scikit-rf.org).
# Hz S RI R 50.0 
!freq ReS11 ImS11
50000.0 0.997065728 0.000568873
15049500.0 0.939482432 0.360350368
30049000.0 0.749553472 0.67229888
45048500.0 0.461658016 0.892020608
60048000.0 0.10321124 1.013492228
75047500.0 -0.27327088 0.987597632
90047000.0 -0.619159616 0.819723328
105046500.0 -0.890907584 0.546050816
120046000.0 -1.04152584 0.18536704
135045500.0 -1.045609712 -0.209863888
150045000.0 -0.914486848 -0.584988672
165044500.0 -0.648133248 -0.884066816
180044000.0 -0.31478048 -1.043678164
195043500.0 0.063324192 -1.100758912
210043000.0 0.43448208 -1.022087098
225042500.0 0.751578752 -0.821143488
240042000.0 0.994926336 -0.540578688
255041500.0 1.136115424 -0.18811304
270041000.0 1.15035248 0.220466816
285040500.0 1.020315648 0.631287232
300040000.0 0.687088128 0.955226304
315039500.0 0.319670272 1.191316368
330039000.0 -0.136701696 1.252193088
345038500.0 -0.593164416 1.1415168
360038000.0 -0.967828544 0.872254016
375037500.0 -1.25361264 0.477432832
390037000.0 -1.367106304 -0.022183034
405036500.0 -1.292200192 -0.51603968
420036000.0 -1.033183336 -0.965688192
435035500.0 -0.629838784 -1.269065856
450035000.0 -0.170622608 -1.397780192
465034500.0 0.300156384 -1.38162528
480034000.0 0.725822784 -1.21607912
495033500.0 1.072307112 -0.919032832
510033000.0 1.316679232 -0.527039712
525032500.0 1.40763616 -0.068384088
540032000.0 1.361754528 0.384028288
555031500.0 1.15553248 0.795865536
570031000.0 0.813547008 1.112274168
585030500.0 0.39982976 1.279175296
600030000.0 -0.052335916 1.341518752
615029500.0 -0.4958544 1.22272312
630029000.0 -0.874734016 0.957860736
645028500.0 -1.168158528 0.580245376
660028000.0 -1.307236672 0.108605792
675027500.0 -1.26852368 -0.391601056
690027000.0 -1.01751709 -0.863290112
705026500.0 -0.608079552 -1.165894624
720026000.0 -0.127758504 -1.267781616
735025500.0 0.31169904 -1.20996368
750025000.0 0.70885888 -0.994505536
765024500.0 0.998770304 -0.655281728
780024000.0 1.138056992 -0.25541768
795023500.0 1.100831744 0.207065504
810023000.0 0.866444224 0.556679296
825022500.0 0.557804416 0.735144192
840022000.0 0.278358752 0.777750592
855021500.0 0.058045812 0.762294272
870021000.0 -0.125539992 0.732376704
885020500.0 -0.30317248 0.723030656
900020000.0 -0.525937376 0.736777728
915019500.0 -0.507736928 0.74192704
930019000.0 -0.491313856 0.751504
945018500.0 -0.475556928 0.745327744
960018000.0 -0.450544672 0.750180544
975017500.0 -0.4395704 0.747817664
990017000.0 -0.416736416 0.758751296
1005016500.0 -0.397833664 0.762787456
1020016000.0 -0.380276416 0.780807168
1035015500.0 -0.349049344 0.775256704
1050015000.0 -0.303184448 0.788680192
1065014500.0 -0.301991904 0.789692928
1080014000.0 -0.29395424 0.8042496
1095013500.0 -0.257087856 0.8038656
1110013000.0 -0.23926496 0.796743424
1125012500.0 -0.218909216 0.7936976
1140012000.0 -0.18144048 0.809351488
1155011500.0 -0.140463104 0.821357312
1170011000.0 -0.113187832 0.804820736
1185010500.0 -0.101432864 0.807531648
1200010000.0 -0.068051592 0.822560064
1215009500.0 -0.040071124 0.81834912
1230009000.0 -0.013459664 0.820106368
1245008500.0 0.025644044 0.825395712
1260008000.0 0.061354352 0.8240832
1275007500.0 0.06948732 0.808805376
1290007000.0 0.11502808 0.819719232
1305006500.0 0.138452192 0.798473472
1320006000.0 0.176746752 0.788435968
1335005500.0 0.20910648 0.7791664
1350005000.0 0.238794304 0.773604032
1365004500.0 0.296789856 0.763782208
1380004000.0 0.306386944 0.751902656
1395003500.0 0.330883392 0.740953408
1410003000.0 0.350163936 0.73555744
1425002500.0 0.365984992 0.710792704
1440002000.0 0.404131168 0.681175424
1455001500.0 0.40150592 0.665781824
1470001000.0 0.439463328 0.66943072
1485000500.0 0.452135104 0.642033152
1500000000.0 0.498667968 0.610114368
