! Created with skrf 1.8.0 (http://scikit-rf.org).
# Hz S RI R 50.0 
!freq ReS11 ImS11
50000.0 -0.00899416208267212 0.008379176259040833
30049500.0 0.014692205935716629 -0.0028209518641233444
60049000.0 0.009511400014162064 -0.00643979012966156
90048500.0 0.004242010414600372 -0.004477948881685734
120048000.0 0.0031271912157535553 0.0005721533671021461
150047500.0 0.008498575538396835 0.002435406669974327
180047000.0 0.014719013124704361 -0.0004232283681631088
210046500.0 0.017311803996562958 -0.008429993875324726
240046000.0 0.013179570436477661 -0.016128648072481155
270045500.0 0.004938885569572449 -0.018329624086618423
300045000.0 -0.0018885210156440735 -0.013319887220859528
330044500.0 -0.0010041221976280212 -0.006040538661181927
360044000.0 0.0055366456508636475 -0.002810761332511902
390043500.0 0.013579394668340683 -0.0065052928403019905
420043000.0 0.015415094792842865 -0.016086673364043236
450042500.0 0.00869302824139595 -0.02493865042924881
480042000.0 -0.0020799636840820312 -0.025349624454975128
510041500.0 -0.009844407439231873 -0.01716197282075882
540041000.0 -0.00803431123495102 -0.005840829573571682
570040500.0 0.0011885091662406921 -4.26294282078743e-05
600040000.0 0.012510623782873154 -0.0024848422035574913
630039500.0 0.017416588962078094 -0.012602584436535835
660039000.0 0.013530921190977097 -0.022565659135580063
690038500.0 0.004701603204011917 -0.026803411543369293
720038000.0 -0.003330651670694351 -0.02179955318570137
750037500.0 -0.0045851245522499084 -0.011007396504282951
780037000.0 0.0035841986536979675 -0.0029785726219415665
810036500.0 0.015967436134815216 -0.0031434260308742523
840036000.0 0.02454640343785286 -0.012404054403305054
870035500.0 0.026749026030302048 -0.024900244548916817
900035000.0 0.019453711807727814 -0.03370039165019989
930034500.0 0.009496152400970459 -0.034803133457899094
960034000.0 0.002523604780435562 -0.02799416147172451
990033500.0 0.004731185734272003 -0.019333742558956146
1020033000.0 0.014862289652228355 -0.01332731544971466
1050032500.0 0.027657564729452133 -0.017117436975240707
1080032000.0 0.03511669859290123 -0.030126534402370453
1110031500.0 0.035073377192020416 -0.04613327980041504
1140031000.0 0.02330969087779522 -0.056682832539081573
1170030500.0 0.007302269339561462 -0.05581895634531975
1200030000.0 -0.0013809222728013992 -0.044907473027706146
1230029500.0 0.00316677987575531 -0.029948607087135315
1260029000.0 0.018760543316602707 -0.023030977696180344
1290028500.0 0.03751581907272339 -0.03145643323659897
1320028000.0 0.04660176485776901 -0.052990950644016266
1350027500.0 0.03767568990588188 -0.07758831977844238
1380027000.0 0.01726570352911949 -0.09091587364673615
1410026500.0 -0.007605137303471565 -0.08560195565223694
1440026000.0 -0.016908664256334305 -0.06604057550430298
1470025500.0 -0.008835479617118835 -0.04561871290206909
1500025000.0 0.01332987379282713 -0.044122740626335144
1530024500.0 0.03163130581378937 -0.06323999166488647
1560024000.0 0.02614901214838028 -0.09285925328731537
1590023500.0 0.0007553119212388992 -0.11041259765625
1620023000.0 -0.03503277525305748 -0.1067592054605484
1650022500.0 -0.0559455044567585 -0.07890528440475464
1680022000.0 -0.04949262738227844 -0.04451476037502289
1710021500.0 -0.021071739494800568 -0.027695568278431892
1740021000.0 0.009710215032100677 -0.039820216596126556
1770020500.0 0.019334416836500168 -0.07117973268032074
1800020000.0 -0.0013144239783287048 -0.10000383853912354
1830019500.0 -0.037956852465867996 -0.10424382984638214
1860019000.0 -0.0663321241736412 -0.07848599553108215
1890018500.0 -0.06493963301181793 -0.0391707718372345
1920018000.0 -0.034617695957422256 -0.012545598670840263
1950017500.0 0.004580549895763397 -0.020815124735236168
1980017000.0 0.022974029183387756 -0.056731753051280975
2010016500.0 0.007372118532657623 -0.0958445742726326
2040016000.0 -0.034351009875535965 -0.10911444574594498
2070015500.0 -0.07426329702138901 -0.08438517153263092
2100015000.0 -0.08528746664524078 -0.03403042256832123
2130014500.0 -0.05366671457886696 0.00799551047384739
2160014000.0 -0.000274069607257843 0.012966163456439972
2190013500.0 0.040527671575546265 -0.021415716037154198
2220013000.0 0.043003253638744354 -0.07262249290943146
2250012500.0 0.0034017711877822876 -0.10457693040370941
2280012000.0 -0.040741339325904846 -0.0939340814948082
2310011500.0 -0.07037683576345444 -0.05064970254898071
2340011000.0 -0.04731272533535957 -0.0020616883412003517
2370010500.0 0.006949372589588165 0.012083308771252632
2400010000.0 0.056832119822502136 -0.018749918788671494
2430009500.0 0.06740406900644302 -0.07860510796308517
2460009000.0 0.029567502439022064 -0.1295628845691681
2490008500.0 -0.030924063175916672 -0.13330908119678497
2520008000.0 -0.06978881359100342 -0.09183688461780548
2550007500.0 -0.059553053230047226 -0.03637335076928139
2580007000.0 -0.008467152714729309 -0.007559463381767273
2610006500.0 0.05107194185256958 -0.03026541694998741
2640006000.0 0.07169843465089798 -0.09331431984901428
2670005500.0 0.04437146335840225 -0.15413406491279602
2700005000.0 -0.017238378524780273 -0.17665135860443115
2730004500.0 -0.07147596776485443 -0.14979951083660126
2760004000.0 -0.08375804126262665 -0.09381495416164398
2790003500.0 -0.05342753231525421 -0.05563182756304741
2820003000.0 -0.0005656108260154724 -0.059859175235033035
2850002500.0 0.02677612006664276 -0.1110340803861618
2880002000.0 0.019341491162776947 -0.16458943486213684
2910001500.0 -0.041762255132198334 -0.1984044909477234
2940001000.0 -0.09860997647047043 -0.18033945560455322
2970000500.0 -0.12984831631183624 -0.13376295566558838
3000000000.0 -0.11778517812490463 -0.08859707415103912
