! Created with skrf 1.8.0 (http://scikit-rf.org).
# Hz S RI R 50.0 
!freq ReS11 ImS11
50000.0 0.997691648 0.000974698
15049500.0 0.940342848 0.361130656
30049000.0 0.750030912 0.67332704
45048500.0 0.4616936 0.89313056
60048000.0 0.103041256 1.014441848
75047500.0 -0.274351936 0.988643392
90047000.0 -0.620092608 0.820218496
105046500.0 -0.892015488 0.545895616
120046000.0 -1.042808772 0.184770672
135045500.0 -1.044675828 -0.209906512
150045000.0 -0.914980928 -0.587115648
165044500.0 -0.647965248 -0.885992512
180044000.0 -0.313349952 -1.045878528
195043500.0 0.065689856 -1.102881792
210043000.0 0.437167776 -1.022837758
225042500.0 0.75441536 -0.820865536
240042000.0 0.997487744 -0.537987392
255041500.0 1.138270848 -0.18567184
270041000.0 1.152272576 0.224276704
285040500.0 1.02318561 0.63649056
300040000.0 0.68502432 0.9612848
315039500.0 0.315277536 1.194756864
330039000.0 -0.1401712 1.258398528
345038500.0 -0.600131008 1.14008808
360038000.0 -0.972124416 0.872707328
375037500.0 -1.258383152 0.475261184
390037000.0 -1.367426048 -0.013318
405036500.0 -1.28970672 -0.52466816
420036000.0 -1.03087759 -0.971399872
435035500.0 -0.62943232 -1.276402368
450035000.0 -0.152251904 -1.395675552
465034500.0 0.306125664 -1.382317184
480034000.0 0.732465216 -1.213079568
495033500.0 1.082258824 -0.915529216
510033000.0 1.323084 -0.5249952
525032500.0 1.410690304 -0.062645236
540032000.0 1.363853824 0.39297216
555031500.0 1.15652752 0.807450752
570031000.0 0.813496064 1.119181272
585030500.0 0.39518704 1.295671456
600030000.0 -0.05450398 1.348242176
615029500.0 -0.501225888 1.22868336
630029000.0 -0.877773376 0.965423808
645028500.0 -1.175605536 0.577149248
660028000.0 -1.314929728 0.106406832
675027500.0 -1.269245504 -0.402012928
690027000.0 -1.013945818 -0.868291072
705026500.0 -0.613471168 -1.175303936
720026000.0 -0.135120592 -1.271146528
735025500.0 0.314931744 -1.21431792
750025000.0 0.707652992 -0.994649728
765024500.0 1.006117702 -0.65726784
780024000.0 1.128653408 -0.24546208
795023500.0 1.10118532 0.211147936
810023000.0 0.867277824 0.553395776
825022500.0 0.558231232 0.735572608
840022000.0 0.276049696 0.780662208
855021500.0 0.054518452 0.759409408
870021000.0 -0.12666452 0.733144256
885020500.0 -0.296348352 0.71635232
900020000.0 -0.523390048 0.741235904
915019500.0 -0.506813344 0.73793792
930019000.0 -0.483686688 0.737495488
945018500.0 -0.468896704 0.73974432
960018000.0 -0.450885952 0.741227776
975017500.0 -0.433042144 0.756670976
990017000.0 -0.412857632 0.75566624
1005016500.0 -0.401527008 0.751518656
1020016000.0 -0.362452896 0.767332224
1035015500.0 -0.354773344 0.764334976
1050015000.0 -0.322065984 0.76321152
1065014500.0 -0.313067968 0.786924608
1080014000.0 -0.28608464 0.787622784
1095013500.0 -0.259114448 0.802937344
1110013000.0 -0.236296176 0.805536832
1125012500.0 -0.223864896 0.788402048
1140012000.0 -0.17745728 0.805931136
1155011500.0 -0.140312352 0.774253504
1170011000.0 -0.135049072 0.81126848
1185010500.0 -0.09739344 0.794637952
1200010000.0 -0.08122828 0.799567488
1215009500.0 -0.053699436 0.806192896
1230009000.0 -0.027313506 0.801127808
1245008500.0 0.012608032 0.801409728
1260008000.0 0.04848362 0.797435456
1275007500.0 0.07295472 0.799140224
1290007000.0 0.112082424 0.790763712
1305006500.0 0.141822016 0.78318368
1320006000.0 0.1637048 0.790193664
1335005500.0 0.211862048 0.773783232
1350005000.0 0.228426336 0.7684016
1365004500.0 0.263115168 0.761229184
1380004000.0 0.286760448 0.725208256
1395003500.0 0.312312576 0.723081856
1410003000.0 0.352324064 0.702173824
1425002500.0 0.369235872 0.690193024
1440002000.0 0.387614272 0.67942432
1455001500.0 0.42863152 0.654525248
1470001000.0 0.446520576 0.640831232
1485000500.0 0.470180288 0.598300608
1500000000.0 0.4723784 0.596574272
