! Created with skrf 1.8.0 (http://scikit-rf.org).
# Hz S RI R 50.0 
!freq ReS11 ImS11
50000.0 0.997729664 0.000321477
15049500.0 0.940005568 0.36078656
30049000.0 0.750330624 0.672959872
45048500.0 0.461936 0.892664448
60048000.0 0.103457496 1.013857722
75047500.0 -0.2738152 0.988904832
90047000.0 -0.61967168 0.820331776
105046500.0 -0.89165728 0.54640096
120046000.0 -1.042487024 0.1853356
135045500.0 -1.047041892 -0.209325648
150045000.0 -0.9153472 -0.586447232
165044500.0 -0.64868192 -0.885437504
180044000.0 -0.314629792 -1.045098544
195043500.0 0.064710372 -1.102139
210043000.0 0.435602272 -1.022765636
225042500.0 0.752922624 -0.822037888
240042000.0 0.99607328 -0.53980288
255041500.0 1.137334816 -0.187013648
270041000.0 1.152694352 0.222161136
285040500.0 1.022866964 0.634988736
300040000.0 0.687799872 0.958189568
315039500.0 0.31865936 1.19523632
330039000.0 -0.138754256 1.257963296
345038500.0 -0.597488256 1.141611104
360038000.0 -0.970376384 0.8740784
375037500.0 -1.259278528 0.474288992
390037000.0 -1.380873088 -0.006501358
405036500.0 -1.289618144 -0.518419968
420036000.0 -1.03382778 -0.965509696
435035500.0 -0.630285696 -1.273741248
450035000.0 -0.149286848 -1.400818592
465034500.0 0.3060304 -1.381745696
480034000.0 0.726115008 -1.21477544
495033500.0 1.076495288 -0.917079104
510033000.0 1.3185712 -0.528485472
525032500.0 1.409605376 -0.068890272
540032000.0 1.36221312 0.389490912
555031500.0 1.153820992 0.800666944
570031000.0 0.8138192 1.114419696
585030500.0 0.403325216 1.29931344
600030000.0 -0.050242364 1.342664352
615029500.0 -0.506927264 1.231243248
630029000.0 -0.878315008 0.965837056
645028500.0 -1.172492512 0.5859264
660028000.0 -1.316903232 0.106951144
675027500.0 -1.271711936 -0.392808864
690027000.0 -1.015802146 -0.862051136
705026500.0 -0.610728064 -1.166035056
720026000.0 -0.140444192 -1.269992
735025500.0 0.315000704 -1.211764336
750025000.0 0.702647552 -1.000313044
765024500.0 1.000448585 -0.658458816
780024000.0 1.183847072 -0.231236912
795023500.0 1.10285008 0.21024864
810023000.0 0.863720192 0.547948608
825022500.0 0.560818816 0.737066752
840022000.0 0.281060896 0.778509632
855021500.0 0.05907816 0.759253888
870021000.0 -0.127672792 0.73440512
885020500.0 -0.297878848 0.719446336
900020000.0 -0.518695072 0.737691968
915019500.0 -0.50816704 0.739933952
930019000.0 -0.48480256 0.742039232
945018500.0 -0.470492256 0.74078048
960018000.0 -0.45453728 0.756888064
975017500.0 -0.440532512 0.746204544
990017000.0 -0.42084288 0.75045152
1005016500.0 -0.397383584 0.762382848
1020016000.0 -0.377757024 0.760340608
1035015500.0 -0.356568352 0.775621184
1050015000.0 -0.338861664 0.767453568
1065014500.0 -0.307211328 0.78530688
1080014000.0 -0.28653504 0.793752384
1095013500.0 -0.259203456 0.799985664
1110013000.0 -0.237946384 0.797241344
1125012500.0 -0.220441376 0.795074944
1140012000.0 -0.174697296 0.807728448
1155011500.0 -0.155814352 0.791320576
1170011000.0 -0.110023136 0.80468704
1185010500.0 -0.094033936 0.814339648
1200010000.0 -0.071395432 0.815774464
1215009500.0 -0.04269968 0.809918336
1230009000.0 -0.015205276 0.80435488
1245008500.0 0.01247969 0.805941824
1260008000.0 0.048073424 0.81197632
1275007500.0 0.07825956 0.800980032
1290007000.0 0.123521552 0.79122816
1305006500.0 0.149859392 0.809966528
1320006000.0 0.178647312 0.787063808
1335005500.0 0.211213552 0.783433152
1350005000.0 0.238481408 0.769089856
1365004500.0 0.223215312 0.770362496
1380004000.0 0.295858496 0.755989376
1395003500.0 0.312559232 0.73453216
1410003000.0 0.35220752 0.7113056
1425002500.0 0.366637248 0.687018752
1440002000.0 0.38942336 0.665948672
1455001500.0 0.429755456 0.645207296
1470001000.0 0.46429632 0.65995264
1485000500.0 0.481007808 0.626441472
1500000000.0 0.485805888 0.590424192
