! Created with skrf 1.8.0 (http://scikit-rf.org).
# Hz S RI R 50.0 
!freq ReS11 ImS11
50000.0 0.99654176 0.000934345
15049500.0 0.93885504 0.360566336
30049000.0 0.749443584 0.67228544
45048500.0 0.461397248 0.89169888
60048000.0 0.102961624 1.012974024
75047500.0 -0.27344512 0.987530176
90047000.0 -0.61899424 0.819250368
105046500.0 -0.890472 0.5456752
120046000.0 -1.041193964 0.185074336
135045500.0 -1.043787956 -0.208309968
150045000.0 -0.913772736 -0.585299008
165044500.0 -0.647469888 -0.883821888
180044000.0 -0.314330752 -1.042691232
195043500.0 0.063353384 -1.100392816
210043000.0 0.433695712 -1.02173984
225042500.0 0.751049728 -0.821609408
240042000.0 0.994395904 -0.540680064
255041500.0 1.135179408 -0.188552784
270041000.0 1.151743648 0.220806016
285040500.0 1.021886348 0.632081088
300040000.0 0.687337024 0.954889984
315039500.0 0.31991376 1.188626416
330039000.0 -0.136974144 1.25473512
345038500.0 -0.593751936 1.139692672
360038000.0 -0.964814016 0.873345984
375037500.0 -1.253434544 0.480256512
390037000.0 -1.380392896 -0.023844154
405036500.0 -1.287108672 -0.518364832
420036000.0 -1.033414244 -0.96351968
435035500.0 -0.633476672 -1.266767856
450035000.0 -0.157812352 -1.400685792
465034500.0 0.29923232 -1.37939216
480034000.0 0.723335232 -1.210432416
495033500.0 1.071080088 -0.914538688
510033000.0 1.313822016 -0.52842528
525032500.0 1.402910944 -0.069174928
540032000.0 1.357553376 0.383732032
555031500.0 1.154341344 0.799688064
570031000.0 0.811928064 1.109914776
585030500.0 0.393803488 1.278697248
600030000.0 -0.053373048 1.342216256
615029500.0 -0.492586048 1.219606752
630029000.0 -0.876712576 0.956960192
645028500.0 -1.160305376 0.573753152
660028000.0 -1.309506048 0.108749544
675027500.0 -1.264482624 -0.387253632
690027000.0 -1.001941919 -0.863891456
705026500.0 -0.601608 -1.162450192
720026000.0 -0.1332874 -1.269375456
735025500.0 0.313897152 -1.20699168
750025000.0 0.71182496 -0.9947488
765024500.0 1.005840302 -0.65045312
780024000.0 1.179207088 -0.245590256
795023500.0 1.101238016 0.212950384
810023000.0 0.858641408 0.55053376
825022500.0 0.5528064 0.73613856
840022000.0 0.272708736 0.781051072
855021500.0 0.053229392 0.75828352
870021000.0 -0.128548056 0.73357952
885020500.0 -0.300775296 0.723743552
900020000.0 -0.53248144 0.736804352
915019500.0 -0.508743104 0.746560128
930019000.0 -0.486704928 0.741089792
945018500.0 -0.475897952 0.750953408
960018000.0 -0.454905728 0.748909376
975017500.0 -0.443234048 0.764552384
990017000.0 -0.417520768 0.755062016
1005016500.0 -0.398523392 0.76532384
1020016000.0 -0.38715424 0.778529856
1035015500.0 -0.360780416 0.784960448
1050015000.0 -0.338137408 0.810161024
1065014500.0 -0.319411712 0.794365184
1080014000.0 -0.287231008 0.805923776
1095013500.0 -0.27370368 0.814681088
1110013000.0 -0.23446192 0.815815616
1125012500.0 -0.22524456 0.8044112
1140012000.0 -0.188931536 0.819780544
1155011500.0 -0.174219808 0.804432576
1170011000.0 -0.117300216 0.813286464
1185010500.0 -0.09616364 0.821057024
1200010000.0 -0.065442496 0.840570624
1215009500.0 -0.049390572 0.831532032
1230009000.0 -0.012496024 0.830297344
1245008500.0 0.038442668 0.83810464
1260008000.0 0.0526712 0.832223744
1275007500.0 0.086497568 0.824338304
1290007000.0 0.102410512 0.82034976
1305006500.0 0.151535216 0.828263936
1320006000.0 0.184584896 0.801976384
1335005500.0 0.20620072 0.801321664
1350005000.0 0.24277048 0.787718336
1365004500.0 0.2347716 0.761238336
1380004000.0 0.284958144 0.762292992
1395003500.0 0.320921728 0.758727936
1410003000.0 0.351233568 0.729192192
1425002500.0 0.367971392 0.707315136
1440002000.0 0.381390304 0.689388352
1455001500.0 0.410914144 0.686483264
1470001000.0 0.442080416 0.65200224
1485000500.0 0.429800928 0.637107008
1500000000.0 0.478343776 0.616821632
