! Created with skrf 1.8.0 (http://scikit-rf.org).
# Hz S RI R 50.0 
!freq ReS11 ImS11
50000.0 0.999455296 0.001901415
15049500.0 0.940957312 0.361184736
30049000.0 0.751250304 0.674122304
45048500.0 0.462465728 0.893754816
60048000.0 0.103652496 1.015549422
75047500.0 -0.2738664 0.990603968
90047000.0 -0.620696384 0.821566272
105046500.0 -0.893071744 0.547611328
120046000.0 -1.0444237 0.186139936
135045500.0 -1.04722786 -0.209793168
150045000.0 -0.91793632 -0.587387648
165044500.0 -0.650151744 -0.886659072
180044000.0 -0.315504576 -1.047374488
195043500.0 0.064760528 -1.104816792
210043000.0 0.437032672 -1.026005984
225042500.0 0.755075648 -0.823594048
240042000.0 0.998925504 -0.541151744
255041500.0 1.140791184 -0.18819968
270041000.0 1.156172272 0.22279904
285040500.0 1.02630508 0.635195968
300040000.0 0.690014208 0.95991456
315039500.0 0.318319232 1.198694592
330039000.0 -0.13641976 1.26286328
345038500.0 -0.598459456 1.143041968
360038000.0 -0.97388992 0.875388416
375037500.0 -1.259639264 0.477961824
390037000.0 -1.372126336 -0.022305924
405036500.0 -1.300032256 -0.522884832
420036000.0 -1.037938596 -0.973881088
435035500.0 -0.632411392 -1.28353952
450035000.0 -0.154097888 -1.398509984
465034500.0 0.304033472 -1.391449216
480034000.0 0.736003648 -1.223619696
495033500.0 1.0833596 -0.922051008
510033000.0 1.32870448 -0.532569888
525032500.0 1.423925504 -0.07490952
540032000.0 1.371261952 0.385517696
555031500.0 1.16612088 0.80371904
570031000.0 0.8257408 1.124266744
585030500.0 0.40295632 1.30429648
600030000.0 -0.050882196 1.359070432
615029500.0 -0.50127584 1.241924048
630029000.0 -0.877168576 0.976753344
645028500.0 -1.181112176 0.595170368
660028000.0 -1.31754864 0.115983288
675027500.0 -1.289023872 -0.383924192
690027000.0 -1.043771028 -0.868799488
705026500.0 -0.624304448 -1.17717016
720026000.0 -0.155755984 -1.27552128
735025500.0 0.306168704 -1.222038624
750025000.0 0.707068352 -1.014151812
765024500.0 0.999121088 -0.673792448
780024000.0 1.165696496 -0.231777024
795023500.0 1.110703584 0.19600296
810023000.0 0.874569088 0.54509248
825022500.0 0.573299776 0.732118592
840022000.0 0.285447392 0.778555584
855021500.0 0.066433972 0.759282048
870021000.0 -0.115040792 0.733749504
885020500.0 -0.28930992 0.71955072
900020000.0 -0.506515968 0.741713792
915019500.0 -0.489805152 0.742958464
930019000.0 -0.474404672 0.738456576
945018500.0 -0.452610368 0.744784832
960018000.0 -0.4361624 0.746310848
975017500.0 -0.42360528 0.745100608
990017000.0 -0.402858208 0.750972672
1005016500.0 -0.38235328 0.757155072
1020016000.0 -0.360359744 0.771342976
1035015500.0 -0.343867712 0.773530112
1050015000.0 -0.327989056 0.775355392
1065014500.0 -0.294398976 0.782338176
1080014000.0 -0.267735936 0.784882112
1095013500.0 -0.24996672 0.787429824
1110013000.0 -0.226244656 0.793979776
1125012500.0 -0.204279648 0.791546368
1140012000.0 -0.172462816 0.795102528
1155011500.0 -0.144789088 0.802701952
1170011000.0 -0.113821776 0.809027584
1185010500.0 -0.099722536 0.795996096
1200010000.0 -0.073668096 0.787553728
1215009500.0 -0.044587828 0.793680768
1230009000.0 -0.024659194 0.789385152
1245008500.0 0.002902143 0.800640576
1260008000.0 0.041044216 0.791018432
1275007500.0 0.073476496 0.79180608
1290007000.0 0.106686592 0.789035648
1305006500.0 0.135568016 0.782946688
1320006000.0 0.165522512 0.78118976
1335005500.0 0.196059216 0.76562624
1350005000.0 0.239727424 0.76190272
1365004500.0 0.27354704 0.75718048
1380004000.0 0.289698112 0.74593088
1395003500.0 0.305657792 0.722779136
1410003000.0 0.339821824 0.71387808
1425002500.0 0.37088704 0.695285888
1440002000.0 0.391255072 0.660063552
1455001500.0 0.414297248 0.66130208
1470001000.0 0.413743584 0.6178336
1485000500.0 0.45419984 0.609675584
1500000000.0 0.477033504 0.604982208
