! Created with skrf 1.8.0 (http://scikit-rf.org).
# Hz S RI R 50.0 
!freq ReS11 ImS11
50000.0 0.997207424 0.000256314
15049500.0 0.939359296 0.360317536
30049000.0 0.749671232 0.672624768
45048500.0 0.461645184 0.891984704
60048000.0 0.1035538 1.013565064
75047500.0 -0.273226144 0.988180672
90047000.0 -0.618974336 0.819953152
105046500.0 -0.89082624 0.5461008
120046000.0 -1.041472556 0.185412064
135045500.0 -1.045688748 -0.208466592
150045000.0 -0.914825664 -0.585639552
165044500.0 -0.64843904 -0.884293184
180044000.0 -0.314723584 -1.043779136
195043500.0 0.063372596 -1.1012758
210043000.0 0.434520384 -1.022318124
225042500.0 0.751573376 -0.821481408
240042000.0 0.994852672 -0.540450368
255041500.0 1.136053328 -0.188174208
270041000.0 1.150653488 0.22088368
285040500.0 1.022553802 0.632062464
300040000.0 0.689192768 0.957254656
315039500.0 0.320489536 1.193142064
330039000.0 -0.136222528 1.256611712
345038500.0 -0.595889536 1.14265752
360038000.0 -0.966230848 0.873593088
375037500.0 -1.257697584 0.47595872
390037000.0 -1.38845552 -0.010918606
405036500.0 -1.287177088 -0.513395264
420036000.0 -1.035436392 -0.964364736
435035500.0 -0.63123936 -1.269949568
450035000.0 -0.17048424 -1.39828288
465034500.0 0.301048096 -1.3814752
480034000.0 0.724713728 -1.212558752
495033500.0 1.0743674 -0.914102272
510033000.0 1.317354912 -0.530524128
525032500.0 1.406607744 -0.067829912
540032000.0 1.360808736 0.382278816
555031500.0 1.154748672 0.797422272
570031000.0 0.812125504 1.10865128
585030500.0 0.392820416 1.292088032
600030000.0 -0.0532448 1.339946752
615029500.0 -0.49376992 1.225526448
630029000.0 -0.87685344 0.966124992
645028500.0 -1.16778672 0.582816256
660028000.0 -1.309527744 0.110293336
675027500.0 -1.271499168 -0.386439456
690027000.0 -1.016438604 -0.869229056
705026500.0 -0.606636352 -1.168216352
720026000.0 -0.1333162 -1.269142976
735025500.0 0.317350144 -1.21214712
750025000.0 0.701726656 -0.996594816
765024500.0 1.003212214 -0.655673472
780024000.0 1.163543584 -0.213366208
795023500.0 1.106743576 0.210377456
810023000.0 0.865906496 0.553852864
825022500.0 0.560167232 0.736360768
840022000.0 0.276085088 0.781324928
855021500.0 0.056283452 0.760688384
870021000.0 -0.122888864 0.734899072
885020500.0 -0.289919808 0.713447488
900020000.0 -0.522618176 0.729681344
915019500.0 -0.507571712 0.736492672
930019000.0 -0.490071008 0.742724928
945018500.0 -0.4753224 0.747445888
960018000.0 -0.454684384 0.74906048
975017500.0 -0.437973696 0.750011328
990017000.0 -0.4188544 0.759473664
1005016500.0 -0.390801824 0.76934496
1020016000.0 -0.373859264 0.76610912
1035015500.0 -0.360451328 0.775312256
1050015000.0 -0.346152768 0.76644672
1065014500.0 -0.303272224 0.794720384
1080014000.0 -0.282167904 0.79393824
1095013500.0 -0.26199872 0.810975552
1110013000.0 -0.233107056 0.808327744
1125012500.0 -0.215813376 0.792498048
1140012000.0 -0.174223952 0.816696128
1155011500.0 -0.133015528 0.832789568
1170011000.0 -0.134855536 0.81465344
1185010500.0 -0.103386248 0.820721344
1200010000.0 -0.069313856 0.82394944
1215009500.0 -0.046071848 0.81711424
1230009000.0 -0.014288194 0.82083936
1245008500.0 0.018471956 0.813104192
1260008000.0 0.042540248 0.798058368
1275007500.0 0.078928488 0.816383168
1290007000.0 0.114714592 0.809339776
1305006500.0 0.146003776 0.80147264
1320006000.0 0.189530672 0.789318592
1335005500.0 0.220525168 0.782216768
1350005000.0 0.239061184 0.778568
1365004500.0 0.267818624 0.76820832
1380004000.0 0.294961632 0.75543872
1395003500.0 0.32817744 0.73263264
1410003000.0 0.35121744 0.716017728
1425002500.0 0.364819136 0.6979296
1440002000.0 0.392464448 0.687779712
1455001500.0 0.410129632 0.681129536
1470001000.0 0.432728928 0.641275008
1485000500.0 0.463375584 0.642518656
1500000000.0 0.442699808 0.640913536
