! Created with skrf 1.8.0 (http://scikit-rf.org).
# Hz S RI R 50.0 
!freq ReS11 ImS11
50000.0 0.998481984 0.001720804
15049500.0 0.939936896 0.360736992
30049000.0 0.750218304 0.673525248
45048500.0 0.461659872 0.893240704
60048000.0 0.102854568 1.014324666
75047500.0 -0.273995872 0.988818752
90047000.0 -0.620212736 0.82013856
105046500.0 -0.892208896 0.54594176
120046000.0 -1.042782068 0.184664624
135045500.0 -1.046688556 -0.209727696
150045000.0 -0.91525504 -0.58728032
165044500.0 -0.647567232 -0.885749312
180044000.0 -0.313117696 -1.045802952
195043500.0 0.065855896 -1.101895568
210043000.0 0.437071424 -1.023241996
225042500.0 0.754514368 -0.82125088
240042000.0 0.997875136 -0.538390592
255041500.0 1.138307216 -0.18533248
270041000.0 1.153009296 0.22519528
285040500.0 1.021930218 0.636539328
300040000.0 0.6849952 0.957948032
315039500.0 0.31739328 1.194963568
330039000.0 -0.141507008 1.255266672
345038500.0 -0.599911744 1.139712208
360038000.0 -0.972700672 0.870510912
375037500.0 -1.254742144 0.47269616
390037000.0 -1.38872528 -0.02396877
405036500.0 -1.293363328 -0.524910272
420036000.0 -1.030989886 -0.970366592
435035500.0 -0.625672576 -1.275315648
450035000.0 -0.166770064 -1.397852768
465034500.0 0.307660672 -1.382445344
480034000.0 0.726411008 -1.215926416
495033500.0 1.08059192 -0.916641984
510033000.0 1.324878944 -0.526861952
525032500.0 1.412152416 -0.06369196
540032000.0 1.362178912 0.39169952
555031500.0 1.155541424 0.805099456
570031000.0 0.810768896 1.120530368
585030500.0 0.396915392 1.29776
600030000.0 -0.056270244 1.3474344
615029500.0 -0.4999648 1.230601424
630029000.0 -0.884071808 0.969514048
645028500.0 -1.176512128 0.580687488
660028000.0 -1.313658592 0.099767216
675027500.0 -1.274621248 -0.390795712
690027000.0 -1.014507294 -0.8706544
705026500.0 -0.606678912 -1.17531944
720026000.0 -0.137829792 -1.272775424
735025500.0 0.314014944 -1.215020896
750025000.0 0.710639744 -1.001496553
765024500.0 1.003429055 -0.66002688
780024000.0 1.147751088 -0.271047456
795023500.0 1.103009224 0.210092656
810023000.0 0.86298336 0.55387136
825022500.0 0.557617472 0.734787136
840022000.0 0.279005088 0.778918464
855021500.0 0.055788244 0.760207744
870021000.0 -0.13048676 0.734349184
885020500.0 -0.297909504 0.710670784
900020000.0 -0.52039744 0.731654272
915019500.0 -0.50184448 0.741035776
930019000.0 -0.48766304 0.741216192
945018500.0 -0.471750688 0.743429824
960018000.0 -0.452635008 0.744794496
975017500.0 -0.437454432 0.74287936
990017000.0 -0.413916 0.750934784
1005016500.0 -0.391910112 0.76166208
1020016000.0 -0.384098144 0.76844096
1035015500.0 -0.35714992 0.769446464
1050015000.0 -0.342450016 0.78295456
1065014500.0 -0.303493664 0.785711872
1080014000.0 -0.288143424 0.782893312
1095013500.0 -0.264669328 0.790902784
1110013000.0 -0.236431616 0.799461568
1125012500.0 -0.216493888 0.792826752
1140012000.0 -0.180505984 0.809154176
1155011500.0 -0.14259056 0.81532224
1170011000.0 -0.116240064 0.795687488
1185010500.0 -0.104603048 0.802700416
1200010000.0 -0.076267296 0.804555776
1215009500.0 -0.043186728 0.806529408
1230009000.0 -0.027159848 0.796720384
1245008500.0 0.010504564 0.799798656
1260008000.0 0.039375464 0.797597056
1275007500.0 0.077386888 0.79123392
1290007000.0 0.111318384 0.792895552
1305006500.0 0.142821312 0.782105088
1320006000.0 0.177943424 0.79237696
1335005500.0 0.202265408 0.766013952
1350005000.0 0.230626032 0.761354112
1365004500.0 0.23593112 0.777378112
1380004000.0 0.290649632 0.749688768
1395003500.0 0.341166752 0.730291008
1410003000.0 0.357781696 0.716243904
1425002500.0 0.386249408 0.675167616
1440002000.0 0.391873792 0.670491264
1455001500.0 0.417175936 0.666827776
1470001000.0 0.458902016 0.638497152
1485000500.0 0.463914688 0.603501504
1500000000.0 0.498242144 0.593499136
