! Created with skrf 1.8.0 (http://scikit-rf.org).
# Hz S RI R 50.0 
!freq ReS11 ImS11
50000.0 0.996723328 0.000457209
15049500.0 0.939812032 0.360351616
30049000.0 0.749868416 0.672598784
45048500.0 0.461932032 0.892211136
60048000.0 0.103600728 1.013821244
75047500.0 -0.273230144 0.988517888
90047000.0 -0.61935904 0.820025536
105046500.0 -0.891111104 0.546519936
120046000.0 -1.041970252 0.18554168
135045500.0 -1.044798612 -0.208896384
150045000.0 -0.915200256 -0.585446144
165044500.0 -0.648749248 -0.884623872
180044000.0 -0.31495984 -1.044580816
195043500.0 0.063353756 -1.101439
210043000.0 0.434817184 -1.02266562
225042500.0 0.751897664 -0.82191008
240042000.0 0.995790848 -0.540430592
255041500.0 1.136729712 -0.188618496
270041000.0 1.150439376 0.220256736
285040500.0 1.022530556 0.632326336
300040000.0 0.687220672 0.955682368
315039500.0 0.319261856 1.192600016
330039000.0 -0.135843056 1.258724928
345038500.0 -0.594067584 1.14134264
360038000.0 -0.966059712 0.871934208
375037500.0 -1.25689912 0.477060064
390037000.0 -1.379706272 -0.016854414
405036500.0 -1.293748864 -0.519418048
420036000.0 -1.038226604 -0.966369408
435035500.0 -0.629984256 -1.275750624
450035000.0 -0.1615452 -1.390386208
465034500.0 0.300309312 -1.38355552
480034000.0 0.729483392 -1.215799216
495033500.0 1.072289704 -0.917100928
510033000.0 1.31583728 -0.5310192
525032500.0 1.410910592 -0.067033872
540032000.0 1.364331232 0.383013472
555031500.0 1.157354 0.802195904
570031000.0 0.815624768 1.11115372
585030500.0 0.395834496 1.29200864
600030000.0 -0.043160576 1.346990944
615029500.0 -0.49807568 1.227958448
630029000.0 -0.876799104 0.963052608
645028500.0 -1.16844928 0.590361984
660028000.0 -1.314206368 0.10705948
675027500.0 -1.273343072 -0.390080288
690027000.0 -1.01806581 -0.860513536
705026500.0 -0.61530016 -1.167027824
720026000.0 -0.13883128 -1.272388704
735025500.0 0.312363936 -1.21542752
750025000.0 0.701886528 -1.003391147
765024500.0 1.002248168 -0.6621024
780024000.0 1.125650048 -0.246772208
795023500.0 1.105571512 0.207580576
810023000.0 0.866752192 0.55405024
825022500.0 0.564834368 0.73396704
840022000.0 0.283852704 0.77824544
855021500.0 0.05959828 0.761262784
870021000.0 -0.125735864 0.731017792
885020500.0 -0.29162752 0.718751808
900020000.0 -0.51779808 0.73846912
915019500.0 -0.509924352 0.743994816
930019000.0 -0.487214048 0.746395712
945018500.0 -0.47059744 0.744792704
960018000.0 -0.447332704 0.7453872
975017500.0 -0.424457056 0.751161152
990017000.0 -0.41738464 0.755445184
1005016500.0 -0.394951712 0.766780352
1020016000.0 -0.367619936 0.767818304
1035015500.0 -0.359076288 0.769204032
1050015000.0 -0.341194144 0.787577216
1065014500.0 -0.312333472 0.79406112
1080014000.0 -0.28025712 0.794712512
1095013500.0 -0.258909728 0.803608384
1110013000.0 -0.235236384 0.81338496
1125012500.0 -0.21609824 0.798325504
1140012000.0 -0.179396064 0.812972096
1155011500.0 -0.172701936 0.820791424
1170011000.0 -0.10989488 0.812699648
1185010500.0 -0.091058728 0.80938208
1200010000.0 -0.071491248 0.810700544
1215009500.0 -0.0406774 0.810662208
1230009000.0 -0.019049624 0.807893696
1245008500.0 0.013628418 0.811354496
1260008000.0 0.046505516 0.8231216
1275007500.0 0.077527296 0.80031872
1290007000.0 0.128404096 0.79976512
1305006500.0 0.147134288 0.803149184
1320006000.0 0.174374752 0.787480896
1335005500.0 0.196314688 0.770445632
1350005000.0 0.240440128 0.769284288
1365004500.0 0.261150592 0.792386624
1380004000.0 0.2899416 0.760307456
1395003500.0 0.335589632 0.741730816
1410003000.0 0.343830432 0.716638016
1425002500.0 0.358791872 0.696693824
1440002000.0 0.411290368 0.679334848
1455001500.0 0.402600416 0.668855232
1470001000.0 0.445755168 0.657371584
1485000500.0 0.466636384 0.635317952
1500000000.0 0.477350848 0.614887744
