! Created with skrf 1.8.0 (http://scikit-rf.org).
# Hz S RI R 50.0 
!freq ReS11 ImS11
50000.0 0.99722048 0.001101071
15049500.0 0.992999104 0.164847904
30049000.0 0.953231936 0.323179136
45048500.0 0.8870064 0.465884288
60048000.0 0.8029088 0.615772416
75047500.0 0.692154944 0.737698176
90047000.0 0.568318272 0.828558592
105046500.0 0.435705568 0.918080896
120046000.0 0.284403008 0.979130176
135045500.0 0.124432216 1.01015377
150045000.0 -0.038577376 1.028565884
165044500.0 -0.207004192 1.012368084
180044000.0 -0.359387808 0.968429632
195043500.0 -0.516345312 0.905026304
210043000.0 -0.658520832 0.814847296
225042500.0 -0.779615936 0.701072448
240042000.0 -0.89247328 0.582621376
255041500.0 -0.993460032 0.447666752
270041000.0 -1.081406952 0.280278656
285040500.0 -1.156204464 0.087789144
300040000.0 -1.130221728 -0.144820944
315039500.0 -1.149140832 -0.352068736
330039000.0 -1.10695636 -0.559017856
345038500.0 -1.018440128 -0.760767936
360038000.0 -0.910516608 -0.930917376
375037500.0 -0.773337408 -1.10617268
390037000.0 -0.601030656 -1.251126288
405036500.0 -0.396900192 -1.34317552
420036000.0 -0.189440064 -1.407221664
435035500.0 0.011553692 -1.412588352
450035000.0 0.183017232 -1.386419296
465034500.0 0.347153056 -1.335165984
480034000.0 0.48894272 -1.2583232
495033500.0 0.629412992 -1.160291312
510033000.0 0.751931712 -1.04881954
525032500.0 0.859681152 -0.908556544
540032000.0 0.91445248 -0.774288384
555031500.0 0.989166208 -0.650115136
570031000.0 1.042772292 -0.511868704
585030500.0 1.079074624 -0.371383936
600030000.0 1.123614072 -0.213331856
615029500.0 1.135297536 -0.060155608
630029000.0 1.115462184 0.093822192
645028500.0 1.092118264 0.234600928
660028000.0 1.056821228 0.360210368
675027500.0 1.024160028 0.470007904
690027000.0 0.992653632 0.590883584
705026500.0 0.955107456 0.722197184
720026000.0 0.897557248 0.867637824
735025500.0 0.822552704 1.034788488
750025000.0 0.6806064 1.197626352
765024500.0 0.464683936 1.319831744
780024000.0 0.195487744 1.395664928
795023500.0 -0.080466648 1.332824096
810023000.0 -0.29712288 1.168468592
825022500.0 -0.436208192 1.01129675
840022000.0 -0.513980672 0.848472896
855021500.0 -0.566737472 0.73350688
870021000.0 -0.614922816 0.656129792
885020500.0 -0.686877824 0.621821824
900020000.0 -0.805938496 0.619111936
915019500.0 -0.605803648 0.666780736
930019000.0 -0.425118336 0.679765248
945018500.0 -0.257691648 0.673241408
960018000.0 -0.111732728 0.645263424
975017500.0 0.022547036 0.610276864
990017000.0 0.156316 0.55130752
1005016500.0 0.275974624 0.482680352
1020016000.0 0.389937536 0.401821344
1035015500.0 0.491760736 0.306010944
1050015000.0 0.58601088 0.193896672
1065014500.0 0.67419904 0.065699676
1080014000.0 0.744449088 -0.085543
1095013500.0 0.797748608 -0.2532132
1110013000.0 0.822987392 -0.45095648
1125012500.0 0.80441792 -0.642161216
1140012000.0 0.73047072 -0.887808384
1155011500.0 0.601788096 -1.183218832
1170011000.0 0.377712704 -1.350943936
1185010500.0 0.01828827 -1.527427328
1200010000.0 -0.39055632 -1.513065088
1215009500.0 -0.819980416 -1.365843168
1230009000.0 -1.184722784 -1.076729896
1245008500.0 -1.289471872 -0.633353408
1260008000.0 -1.280120864 -0.267945584
1275007500.0 -1.167650464 0.12743916
1290007000.0 -0.98974912 0.371516768
1305006500.0 -0.776289536 0.55523968
1320006000.0 -0.565277696 0.68793504
1335005500.0 -0.314738048 0.73321984
1350005000.0 -0.120349168 0.771160384
1365004500.0 0.010087788 0.721978304
1380004000.0 0.235138752 0.74081984
1395003500.0 0.374949088 0.688138624
1410003000.0 0.52776336 0.640994496
1425002500.0 0.630172672 0.550943488
1440002000.0 0.722360448 0.47782864
1455001500.0 0.840684416 0.386017632
1470001000.0 0.894616832 0.283570592
1485000500.0 0.958282304 0.178493632
1500000000.0 0.980126912 0.052320024
