! Created with skrf 1.8.0 (http://scikit-rf.org).
# Hz S RI R 50.0 
!freq ReS11 ImS11
50000.0 0.997087744 -0.000230584
10049500.0 0.996551424 0.10944548
20049000.0 0.980833472 0.217826816
30048500.0 0.953351104 0.322646976
40048000.0 0.915181248 0.422156768
50047500.0 0.867687616 0.520216896
60047000.0 0.803369408 0.6146464
70046500.0 0.73088992 0.696981184
80046000.0 0.650318272 0.76887616
90045500.0 0.569524544 0.826291712
100045000.0 0.484392896 0.886576384
110044500.0 0.389487808 0.936850048
120044000.0 0.28891424 0.976270016
130043500.0 0.175704368 0.97611776
140043000.0 0.078917448 1.020823122
150042500.0 -0.030508852 1.027382016
160042000.0 -0.141739264 1.01838708
170041500.0 -0.251148608 0.997542528
180041000.0 -0.347900256 0.970269632
190040500.0 -0.451970592 0.9306608
200040000.0 -0.551391872 0.881256256
210039500.0 -0.645486912 0.822019648
220039000.0 -0.732037824 0.753643968
230038500.0 -0.81052608 0.67754016
240038000.0 -0.8817648 0.596654976
250037500.0 -0.94843552 0.509457056
260037000.0 -1.0135324 0.411665536
270036500.0 -1.074756144 0.29852944
280036000.0 -1.128731016 0.174397312
290035500.0 -1.163784144 0.040967452
300035000.0 -1.13046408 -0.125826296
310034500.0 -1.171196704 -0.262365216
320034000.0 -1.152087696 -0.404129376
330033500.0 -1.113468528 -0.542287744
340033000.0 -1.059067248 -0.67961024
350032500.0 -0.99245856 -0.806572608
360032000.0 -0.922605952 -0.918669376
370031500.0 -0.835160896 -1.0370934
380031000.0 -0.732484352 -1.146988864
390030500.0 -0.613702144 -1.239076976
400030000.0 -0.482401728 -1.316758752
410029500.0 -0.342150048 -1.372397792
420029000.0 -0.200934448 -1.40577184
430028500.0 -0.06370142 -1.411968
440028000.0 0.065607356 -1.404095296
450027500.0 0.177224848 -1.378737696
460027000.0 0.289225472 -1.348097792
470026500.0 0.3888696 -1.314510816
480026000.0 0.484193376 -1.262660624
490025500.0 0.579713792 -1.203698752
500025000.0 0.670283136 -1.134242176
510024500.0 0.749949056 -1.049472572
520024000.0 0.820016768 -0.962970048
530023500.0 0.882214336 -0.86420096
540023000.0 0.905704512 -0.7803904
550022500.0 0.955138176 -0.700361856
560022000.0 0.999889536 -0.613142336
570021500.0 1.035110712 -0.525639648
580021000.0 1.064080476 -0.435701824
590020500.0 1.079441432 -0.32135472
600020000.0 1.116987344 -0.23054344
610019500.0 1.1297164 -0.131874368
620019000.0 1.129687192 -0.030673274
630018500.0 1.118425968 0.067308808
640018000.0 1.105366704 0.163744032
650017500.0 1.395464896 -0.006999107
660017000.0 1.067122576 0.333530144
670016500.0 1.049402952 0.411469504
680016000.0 1.032972098 0.489529184
690015500.0 1.013753654 0.565519296
700015000.0 0.991494208 0.647667264
710014500.0 0.966268096 0.74298208
720014000.0 0.925502528 0.840581632
730013500.0 0.88045472 0.955078144
740013000.0 0.811794432 1.071120976
750012500.0 0.713112128 1.17884552
760012000.0 0.584032128 1.277186144
770011500.0 0.41868272 1.346710208
780011000.0 0.237669696 1.398391712
790010500.0 0.04088766 1.363909472
800010000.0 -0.135164224 1.278604256
810009500.0 -0.271969248 1.172137968
820009000.0 -0.370825056 1.067274688
830008500.0 -0.447927936 0.95665952
840008000.0 -0.502061472 0.859304448
850007500.0 -0.538714112 0.77462656
860007000.0 -0.573002752 0.711244416
870006500.0 -0.60546272 0.661973952
880006000.0 -0.6565744 0.63327488
890005500.0 -0.698933952 0.617793792
900005000.0 -0.792164032 0.630010496
910004500.0 -0.769567424 0.62812192
920004000.0 -0.537212416 0.678202816
930003500.0 -0.417148256 0.684075264
940003000.0 -0.305277568 0.683581504
950002500.0 -0.201923616 0.666698368
960002000.0 -0.102667744 0.648453504
970001500.0 -0.007269903 0.619763712
980001000.0 0.083010408 0.59033184
990000500.0 0.164615728 0.549588224
1000000000.0 0.244128416 0.500471008
