! Created with skrf 1.8.0 (http://scikit-rf.org).
# Hz S RI R 50.0 
!freq ReS11 ImS11
50000.0 0.996582016 0.001116496
15049500.0 0.939384128 0.3605336
30049000.0 0.749527424 0.672250304
45048500.0 0.461246016 0.89179136
60048000.0 0.103281136 1.013144732
75047500.0 -0.27330704 0.987613376
90047000.0 -0.618727936 0.819371584
105046500.0 -0.89057824 0.545907008
120046000.0 -1.041362524 0.185300864
135045500.0 -1.04487896 -0.209203056
150045000.0 -0.914592704 -0.585233984
165044500.0 -0.647855744 -0.8835536
180044000.0 -0.314899904 -1.043483496
195043500.0 0.06346818 -1.100254296
210043000.0 0.433398368 -1.022284388
225042500.0 0.750337728 -0.821364544
240042000.0 0.994068096 -0.540682624
255041500.0 1.135669232 -0.189806832
270041000.0 1.150441056 0.220051584
285040500.0 1.02278936 0.631143424
300040000.0 0.688630528 0.95627008
315039500.0 0.319897152 1.190838096
330039000.0 -0.132669656 1.257711648
345038500.0 -0.593400128 1.141148208
360038000.0 -0.964453504 0.873074816
375037500.0 -1.255539536 0.477389504
390037000.0 -1.382249472 -0.013902564
405036500.0 -1.28817808 -0.516583328
420036000.0 -1.035073636 -0.964355392
435035500.0 -0.634271232 -1.268720992
450035000.0 -0.168846128 -1.38871456
465034500.0 0.300428256 -1.378202432
480034000.0 0.722595328 -1.213332176
495033500.0 1.07163048 -0.918355264
510033000.0 1.312667008 -0.531516864
525032500.0 1.401388896 -0.071542712
540032000.0 1.36009168 0.38531328
555031500.0 1.153915168 0.794089536
570031000.0 0.814110848 1.110033392
585030500.0 0.39291824 1.284662848
600030000.0 -0.044089328 1.348541024
615029500.0 -0.496961344 1.226192112
630029000.0 -0.873420992 0.963285888
645028500.0 -1.16819 0.580403072
660028000.0 -1.3081864 0.108017872
675027500.0 -1.25975096 -0.390693088
690027000.0 -1.012045742 -0.86202752
705026500.0 -0.605358464 -1.17101776
720026000.0 -0.136912752 -1.262509104
735025500.0 0.314310944 -1.21008944
750025000.0 0.713764352 -1.00235796
765024500.0 0.99818048 -0.6549488
780024000.0 1.134751312 -0.25764224
795023500.0 1.104910256 0.208899088
810023000.0 0.864198464 0.554064064
825022500.0 0.558713472 0.735825152
840022000.0 0.273814336 0.778542016
855021500.0 0.055498736 0.761999936
870021000.0 -0.1249202 0.730919808
885020500.0 -0.29744976 0.724562624
900020000.0 -0.522628352 0.743026112
915019500.0 -0.504558688 0.739359872
930019000.0 -0.485301216 0.740082688
945018500.0 -0.478358528 0.744497152
960018000.0 -0.457052544 0.75011904
975017500.0 -0.43332896 0.753706048
990017000.0 -0.411530272 0.757753088
1005016500.0 -0.395621696 0.773822336
1020016000.0 -0.381685824 0.775108992
1035015500.0 -0.3546952 0.780112
1050015000.0 -0.342029728 0.777427584
1065014500.0 -0.312373312 0.797147072
1080014000.0 -0.290990528 0.79854176
1095013500.0 -0.257322848 0.811493056
1110013000.0 -0.237903328 0.818897536
1125012500.0 -0.213987536 0.7988272
1140012000.0 -0.181442544 0.816656448
1155011500.0 -0.119859984 0.80110912
1170011000.0 -0.122887424 0.837496256
1185010500.0 -0.096516984 0.819372608
1200010000.0 -0.076246848 0.832969984
1215009500.0 -0.043869888 0.827793344
1230009000.0 -0.010816802 0.82674624
1245008500.0 0.020982628 0.830380544
1260008000.0 0.055160772 0.825739776
1275007500.0 0.086484376 0.829345216
1290007000.0 0.122010376 0.813430848
1305006500.0 0.152032176 0.81687392
1320006000.0 0.186850688 0.796748288
1335005500.0 0.229447104 0.807293248
1350005000.0 0.25074736 0.786515712
1365004500.0 0.281432864 0.811913664
1380004000.0 0.305442912 0.76744704
1395003500.0 0.327180032 0.764147904
1410003000.0 0.34745504 0.722578496
1425002500.0 0.369831584 0.70879424
1440002000.0 0.3988304 0.692779072
1455001500.0 0.42308592 0.685107072
1470001000.0 0.452374848 0.691190272
1485000500.0 0.45714432 0.644074176
1500000000.0 0.49312736 0.632279872
