! Created with skrf 1.8.0 (http://scikit-rf.org).
# Hz S RI R 50.0 
!freq ReS11 ImS11
50000.0 1.001079321 -0.00066643
15049500.0 0.941333696 0.360922656
30049000.0 0.751405312 0.673907072
45048500.0 0.462942912 0.893647104
60048000.0 0.103712656 1.015769006
75047500.0 -0.273372608 0.990513664
90047000.0 -0.620268352 0.822031616
105046500.0 -0.892934848 0.547889024
120046000.0 -1.04421234 0.186404944
135045500.0 -1.046943068 -0.208619216
150045000.0 -0.917349696 -0.586789952
165044500.0 -0.650572736 -0.88705792
180044000.0 -0.316143168 -1.047207712
195043500.0 0.06427242 -1.10436916
210043000.0 0.43624416 -1.025236964
225042500.0 0.754873536 -0.824262272
240042000.0 0.998440064 -0.541969472
255041500.0 1.139546272 -0.188929168
270041000.0 1.154714592 0.221631152
285040500.0 1.02681768 0.634702144
300040000.0 0.687566784 0.959798144
315039500.0 0.318011552 1.196525456
330039000.0 -0.13744128 1.262262944
345038500.0 -0.596909696 1.144292944
360038000.0 -0.969816384 0.874732672
375037500.0 -1.261909248 0.480077344
390037000.0 -1.38768768 -0.014992348
405036500.0 -1.297071104 -0.519448288
420036000.0 -1.044439912 -0.971451392
435035500.0 -0.634578624 -1.28259312
450035000.0 -0.162488624 -1.399173376
465034500.0 0.3053232 -1.386886944
480034000.0 0.73217408 -1.222848768
495033500.0 1.079218864 -0.9207408
510033000.0 1.328100672 -0.532375584
525032500.0 1.417260288 -0.071994192
540032000.0 1.375141504 0.38273792
555031500.0 1.164838432 0.80581888
570031000.0 0.825508224 1.123548984
585030500.0 0.398369056 1.298980608
600030000.0 -0.045510608 1.358031392
615029500.0 -0.494549856 1.242107984
630029000.0 -0.875771136 0.978687168
645028500.0 -1.178829072 0.592692288
660028000.0 -1.326097856 0.114506504
675027500.0 -1.283796064 -0.38057728
690027000.0 -1.03396344 -0.864715072
705026500.0 -0.6248144 -1.172801264
720026000.0 -0.150294816 -1.277760736
735025500.0 0.30322656 -1.2280364
750025000.0 0.699378944 -1.02047193
765024500.0 1.005118847 -0.673904
780024000.0 1.140802736 -0.263776208
795023500.0 1.11471796 0.201050176
810023000.0 0.87247712 0.544185728
825022500.0 0.570196352 0.731539456
840022000.0 0.287802528 0.775533632
855021500.0 0.064271344 0.762440064
870021000.0 -0.115891936 0.738354368
885020500.0 -0.289671072 0.719723968
900020000.0 -0.511068352 0.743196224
915019500.0 -0.490014688 0.739774336
930019000.0 -0.471887648 0.738230464
945018500.0 -0.459159936 0.749820992
960018000.0 -0.43630048 0.74718048
975017500.0 -0.415354336 0.741793984
990017000.0 -0.400428 0.756464128
1005016500.0 -0.38479568 0.758242112
1020016000.0 -0.355196928 0.764126976
1035015500.0 -0.34663552 0.769072192
1050015000.0 -0.32796176 0.774086208
1065014500.0 -0.29686304 0.786348672
1080014000.0 -0.276235168 0.788427264
1095013500.0 -0.252730224 0.792098752
1110013000.0 -0.227928128 0.801946112
1125012500.0 -0.210796704 0.802319808
1140012000.0 -0.172083696 0.803147264
1155011500.0 -0.15869712 0.805042176
1170011000.0 -0.117015776 0.789248448
1185010500.0 -0.09715564 0.8002656
1200010000.0 -0.070548472 0.791731264
1215009500.0 -0.053454356 0.801728576
1230009000.0 -0.018401782 0.809479424
1245008500.0 0.003905196 0.80314912
1260008000.0 0.044951204 0.80283776
1275007500.0 0.077516072 0.80643008
1290007000.0 0.103385688 0.796415168
1305006500.0 0.137549152 0.77599616
1320006000.0 0.168534 0.780916928
1335005500.0 0.189912576 0.766345216
1350005000.0 0.229988976 0.763866944
1365004500.0 0.29790672 0.766315328
1380004000.0 0.287779904 0.7405408
1395003500.0 0.324535456 0.734693312
1410003000.0 0.348041632 0.715111872
1425002500.0 0.375192896 0.6970064
1440002000.0 0.393892832 0.675480256
1455001500.0 0.420039328 0.669670272
1470001000.0 0.445317344 0.62064576
1485000500.0 0.466141344 0.638236864
1500000000.0 0.47967344 0.622510528
