! Created with skrf 1.8.0 (http://scikit-rf.org).
# Hz S RI R 50.0 
!freq ReS11 ImS11
50000.0 0.997264512 0.000400052
15049500.0 0.939583808 0.360873472
30049000.0 0.749999872 0.672612992
45048500.0 0.461754304 0.892344576
60048000.0 0.103249536 1.013796926
75047500.0 -0.2732016 0.988289728
90047000.0 -0.619600896 0.819665536
105046500.0 -0.891270848 0.546228032
120046000.0 -1.042094828 0.185216032
135045500.0 -1.046460032 -0.209018288
150045000.0 -0.914782976 -0.586265024
165044500.0 -0.64838592 -0.884807872
180044000.0 -0.314420192 -1.044524072
195043500.0 0.064351916 -1.101320384
210043000.0 0.43462384 -1.022823692
225042500.0 0.752540864 -0.821795392
240042000.0 0.995461376 -0.539927424
255041500.0 1.136787776 -0.1880688
270041000.0 1.151288384 0.221497936
285040500.0 1.022259832 0.631349696
300040000.0 0.6878128 0.956773696
315039500.0 0.320504704 1.192889936
330039000.0 -0.13809896 1.254892464
345038500.0 -0.595819136 1.139500144
360038000.0 -0.96591712 0.872793408
375037500.0 -1.25563312 0.477421632
390037000.0 -1.38458432 -0.007481145
405036500.0 -1.291993856 -0.517983008
420036000.0 -1.036376832 -0.965471616
435035500.0 -0.630091968 -1.26914656
450035000.0 -0.156602064 -1.4099872
465034500.0 0.306589632 -1.378583328
480034000.0 0.730876416 -1.214411616
495033500.0 1.075064064 -0.917854592
510033000.0 1.318278304 -0.530609504
525032500.0 1.40976048 -0.068120304
540032000.0 1.360007296 0.38187824
555031500.0 1.15345848 0.801236672
570031000.0 0.80985536 1.114668488
585030500.0 0.393820512 1.282327776
600030000.0 -0.051148544 1.344465248
615029500.0 -0.500774848 1.226574896
630029000.0 -0.872032768 0.959954624
645028500.0 -1.171030992 0.58410208
660028000.0 -1.30617488 0.106924792
675027500.0 -1.264858 -0.392282304
690027000.0 -1.01361227 -0.86454176
705026500.0 -0.605015296 -1.165920608
720026000.0 -0.134680656 -1.270529024
735025500.0 0.312220416 -1.209510688
750025000.0 0.703354368 -1.001929402
765024500.0 1.003736735 -0.658084416
780024000.0 1.13400912 -0.254576896
795023500.0 1.100456952 0.212776496
810023000.0 0.864194304 0.556441152
825022500.0 0.559308416 0.734972864
840022000.0 0.275607072 0.777474688
855021500.0 0.05618194 0.761710912
870021000.0 -0.130438608 0.731864192
885020500.0 -0.296998112 0.717421824
900020000.0 -0.53098352 0.73350176
915019500.0 -0.501430688 0.738648576
930019000.0 -0.494670848 0.74134144
945018500.0 -0.475455968 0.748071424
960018000.0 -0.452556192 0.742966912
975017500.0 -0.44603248 0.758923264
990017000.0 -0.415687072 0.756403328
1005016500.0 -0.398594816 0.755702016
1020016000.0 -0.37758544 0.766168192
1035015500.0 -0.353936384 0.778962304
1050015000.0 -0.313677568 0.796557184
1065014500.0 -0.305566752 0.787853184
1080014000.0 -0.289732896 0.799023552
1095013500.0 -0.263126336 0.807159488
1110013000.0 -0.237677424 0.802139136
1125012500.0 -0.226580784 0.799184256
1140012000.0 -0.174722208 0.809501504
1155011500.0 -0.181902576 0.819477248
1170011000.0 -0.114311984 0.802777088
1185010500.0 -0.090748088 0.81477952
1200010000.0 -0.078266728 0.816382528
1215009500.0 -0.042042712 0.811810816
1230009000.0 -0.002998917 0.80646368
1245008500.0 0.017654366 0.817578112
1260008000.0 0.04652396 0.810492352
1275007500.0 0.088460784 0.802771264
1290007000.0 0.111382128 0.802267136
1305006500.0 0.15063544 0.785950208
1320006000.0 0.173959456 0.797402944
1335005500.0 0.21776072 0.780516928
1350005000.0 0.240851312 0.77342944
1365004500.0 0.267077024 0.768501184
1380004000.0 0.293168128 0.750218176
1395003500.0 0.326510112 0.739336704
1410003000.0 0.33534048 0.706866752
1425002500.0 0.364267552 0.693992384
1440002000.0 0.401002048 0.691137536
1455001500.0 0.419147008 0.66856896
1470001000.0 0.456670656 0.641249984
1485000500.0 0.469727552 0.642701568
1500000000.0 0.492230496 0.621280448
