! Created with skrf 1.8.0 (http://scikit-rf.org).
# Hz S RI R 50.0 
!freq ReS11 ImS11
50000.0 -0.006354245 -0.00472428
15049500.0 -0.004201548 0.003450601
30049000.0 -0.007458539 0.004800457
45048500.0 -0.012971638 0.004387796
60048000.0 -0.019603978 0.00169086
75047500.0 -0.026316776 -0.00310855
90047000.0 -0.032322462 -0.009773068
105046500.0 -0.036291988 -0.017571064
120046000.0 -0.037917912 -0.02530401
135045500.0 -0.036682276 -0.031904604
150045000.0 -0.033641876 -0.037186012
165044500.0 -0.02854048 -0.039834428
180044000.0 -0.02361851 -0.036965076
195043500.0 -0.019061718 -0.033002972
210043000.0 -0.016342672 -0.026135766
225042500.0 -0.01621584 -0.017882844
240042000.0 -0.019500806 -0.009694772
255041500.0 -0.025751634 -0.003340861
270041000.0 -0.033959188 -0.001055207
285040500.0 -0.042634432 -0.003167859
300040000.0 -0.047568856 -0.010370116
315039500.0 -0.05207582 -0.021162284
330039000.0 -0.04924642 -0.035804088
345038500.0 -0.038982932 -0.05082844
360038000.0 -0.021161298 -0.0653874
375037500.0 0.006186982 -0.076991856
390037000.0 0.038474852 -0.07972548
405036500.0 0.076246784 -0.072636752
420036000.0 0.114054184 -0.055753664
435035500.0 0.149339264 -0.029167424
450035000.0 0.174886192 0.007183929
465034500.0 0.19337496 0.051368904
480034000.0 0.197257728 0.096639808
495033500.0 0.186201248 0.1393608
510033000.0 0.164328896 0.177413456
525032500.0 0.13021712 0.201874336
540032000.0 0.086065456 0.210368368
555031500.0 0.051329836 0.202359904
570031000.0 0.02052336 0.18024832
585030500.0 -0.000548954 0.142154944
600030000.0 -0.00946991 0.102980008
615029500.0 -0.003060007 0.054053416
630029000.0 0.018646332 0.010750018
645028500.0 0.0539469 -0.02369637
660028000.0 0.100251632 -0.047662652
675027500.0 0.147984192 -0.056210252
690027000.0 0.194290528 -0.049720672
705026500.0 0.230762976 -0.025842254
720026000.0 0.257945984 0.016056118
735025500.0 0.27122064 0.067978008
750025000.0 0.259539568 0.125399696
765024500.0 0.222191584 0.184537664
780024000.0 0.148314432 0.22846192
795023500.0 0.065537364 0.231257824
810023000.0 -0.016266054 0.19615744
825022500.0 -0.08179348 0.142034496
840022000.0 -0.1260968 0.066464716
855021500.0 -0.148736128 -0.014676352
870021000.0 -0.1640812 -0.10416352
885020500.0 -0.167562176 -0.209912064
900020000.0 -0.157601792 -0.338341152
915019500.0 -0.20073272 -0.353973792
930019000.0 -0.251505024 -0.35251344
945018500.0 -0.305753184 -0.335607616
960018000.0 -0.350400832 -0.285716768
975017500.0 -0.364867168 -0.213913488
990017000.0 -0.367825856 -0.151065376
1005016500.0 -0.34776608 -0.097214616
1020016000.0 -0.310029184 -0.037158248
1035015500.0 -0.26410776 -0.012426438
1050015000.0 -0.203996624 0.007488607
1065014500.0 -0.146797296 0.013351932
1080014000.0 -0.095662384 -0.004281173
1095013500.0 -0.062450692 -0.036541956
1110013000.0 -0.03445826 -0.074179744
1125012500.0 -0.030844456 -0.114681512
1140012000.0 -0.02926856 -0.156499216
1155011500.0 -0.047236152 -0.178035312
1170011000.0 -0.095257096 -0.182610768
1185010500.0 -0.118621888 -0.189293008
1200010000.0 -0.133649496 -0.143720544
1215009500.0 -0.153925104 -0.119297344
1230009000.0 -0.136150576 -0.090318736
1245008500.0 -0.111336136 -0.050596724
1260008000.0 -0.095296176 -0.043283276
1275007500.0 -0.0437431 -0.038305632
1290007000.0 -0.01930127 -0.061523804
1305006500.0 0.024048052 -0.071489456
1320006000.0 0.030701906 -0.10091788
1335005500.0 0.026844446 -0.11995988
1350005000.0 -0.023034512 -0.158505376
1365004500.0 -0.020018124 -0.184788768
1380004000.0 -0.061651108 -0.166262224
1395003500.0 -0.098672416 -0.127544928
1410003000.0 -0.14459848 -0.100345216
1425002500.0 -0.131516632 -0.037706636
1440002000.0 -0.108595352 0.048699716
1455001500.0 -0.095563896 0.104998096
1470001000.0 -0.003636015 0.147207984
1485000500.0 0.059059016 0.134079624
1500000000.0 0.144095776 0.150588176
