! Created with skrf 1.8.0 (http://scikit-rf.org).
# Hz S RI R 50.0 
!freq ReS11 ImS11
50000.0 0.666112256 -0.011415108
15049500.0 0.648950016 -0.156381232
30049000.0 0.606759872 -0.292461792
45048500.0 0.538528128 -0.420751616
60048000.0 0.445856864 -0.536494912
75047500.0 0.327845856 -0.634359296
90047000.0 0.17853352 -0.710630144
105046500.0 0.011266654 -0.756687168
120046000.0 -0.171159248 -0.761989184
135045500.0 -0.360738464 -0.717904064
150045000.0 -0.54341216 -0.620567232
165044500.0 -0.697590848 -0.467118976
180044000.0 -0.804005888 -0.266916
195043500.0 -0.845329664 -0.03718174
210043000.0 -0.811475264 0.194023328
225042500.0 -0.707618624 0.399389792
240042000.0 -0.551717696 0.555945344
255041500.0 -0.364980288 0.654480832
270041000.0 -0.171232208 0.692722496
285040500.0 0.011059856 0.678420608
300040000.0 0.160659504 0.62653312
315039500.0 0.292501024 0.54571264
330039000.0 0.397383936 0.44364032
345038500.0 0.475054144 0.331218848
360038000.0 0.52555328 0.212782656
375037500.0 0.552025408 0.093503376
390037000.0 0.555222784 -0.023730834
405036500.0 0.540027328 -0.137286032
420036000.0 0.50435824 -0.243561568
435035500.0 0.448645824 -0.344916416
450035000.0 0.375037088 -0.439804224
465034500.0 0.283362912 -0.51914464
480034000.0 0.175868496 -0.583336832
495033500.0 0.052743596 -0.626657088
510033000.0 -0.081365512 -0.643419136
525032500.0 -0.223990704 -0.633600768
540032000.0 -0.365858912 -0.587750464
555031500.0 -0.50223632 -0.50171936
570031000.0 -0.617113088 -0.379815232
585030500.0 -0.694474944 -0.220564048
600030000.0 -0.725572736 -0.04931908
615029500.0 -0.69596384 0.136864592
630029000.0 -0.609256512 0.301096992
645028500.0 -0.479213536 0.425285088
660028000.0 -0.325393376 0.500271424
675027500.0 -0.17006176 0.52257152
690027000.0 -0.028045666 0.504180384
705026500.0 0.094663864 0.454649792
720026000.0 0.19158672 0.386870496
735025500.0 0.26592904 0.301795776
750025000.0 0.314161792 0.212930016
765024500.0 0.344785184 0.122317992
780024000.0 0.356464768 0.033189908
795023500.0 0.354014144 -0.0540414
810023000.0 0.337657344 -0.135196112
825022500.0 0.308803296 -0.212116752
840022000.0 0.269860544 -0.283393408
855021500.0 0.217929984 -0.347080672
870021000.0 0.156503104 -0.40265568
885020500.0 0.084278272 -0.45248224
900020000.0 0.004163167 -0.48069552
915019500.0 -0.082821832 -0.5055712
930019000.0 -0.178458496 -0.508755616
945018500.0 -0.284218528 -0.496361088
960018000.0 -0.391413536 -0.451966624
975017500.0 -0.483996 -0.372256032
990017000.0 -0.567800256 -0.276565312
1005016500.0 -0.619083776 -0.144270288
1020016000.0 -0.629028736 -0.000869659
1035015500.0 -0.594335488 0.142122
1050015000.0 -0.501792064 0.270698144
1065014500.0 -0.409964768 0.360464832
1080014000.0 -0.285915104 0.408563072
1095013500.0 -0.164778432 0.428610496
1110013000.0 -0.0540627 0.405242112
1125012500.0 0.028100064 0.371765792
1140012000.0 0.111892376 0.31869376
1155011500.0 0.17681984 0.264921008
1170011000.0 0.214218 0.17584072
1185010500.0 0.240544704 0.105618496
1200010000.0 0.259321488 0.036629712
1215009500.0 0.254831936 -0.029584212
1230009000.0 0.24693152 -0.105794344
1245008500.0 0.22941632 -0.182387344
1260008000.0 0.189809232 -0.253279632
1275007500.0 0.140778896 -0.327216736
1290007000.0 0.078382712 -0.398556576
1305006500.0 -0.001424527 -0.457591264
1320006000.0 -0.112999512 -0.521236256
1335005500.0 -0.242933216 -0.561984448
1350005000.0 -0.406696544 -0.584731968
1365004500.0 -0.592591552 -0.548075456
1380004000.0 -0.734082944 -0.432019872
1395003500.0 -0.899677824 -0.255811696
1410003000.0 -0.97571872 -0.038920692
1425002500.0 -0.973352 0.158941056
1440002000.0 -0.914666304 0.383586816
1455001500.0 -0.772697152 0.5009792
1470001000.0 -0.61948448 0.589849792
1485000500.0 -0.472487936 0.621854848
1500000000.0 -0.401512608 0.674437184
