! Created with skrf 1.8.0 (http://scikit-rf.org).
# Hz S RI R 50.0 
!freq ReS11 ImS11
50000.0 0.998056768 0.001605716
15049500.0 0.93998176 0.361208384
30049000.0 0.750107712 0.673130112
45048500.0 0.461659776 0.89295136
60048000.0 0.10287136 1.014049412
75047500.0 -0.273953216 0.988589632
90047000.0 -0.620070912 0.8201104
105046500.0 -0.891928192 0.546103936
120046000.0 -1.042622568 0.184922512
135045500.0 -1.04530716 -0.210186912
150045000.0 -0.914674368 -0.586932224
165044500.0 -0.647776896 -0.886163904
180044000.0 -0.313372864 -1.045360328
195043500.0 0.065560988 -1.102385048
210043000.0 0.437115392 -1.021934866
225042500.0 0.754557696 -0.82054912
240042000.0 0.997314304 -0.538845568
255041500.0 1.138170368 -0.184993968
270041000.0 1.152987248 0.224633456
285040500.0 1.0229249 0.635535744
300040000.0 0.686588928 0.961038976
315039500.0 0.316522112 1.195505856
330039000.0 -0.141857232 1.25572192
345038500.0 -0.596801792 1.144136912
360038000.0 -0.971264512 0.87122112
375037500.0 -1.256746288 0.47357408
390037000.0 -1.378154272 -0.015738648
405036500.0 -1.29097152 -0.525316288
420036000.0 -1.03533554 -0.97083488
435035500.0 -0.6252544 -1.277411584
450035000.0 -0.1500204 -1.399408576
465034500.0 0.307770624 -1.380199776
480034000.0 0.733192256 -1.210245488
495033500.0 1.075418952 -0.915435584
510033000.0 1.322392448 -0.526738528
525032500.0 1.412583232 -0.066812092
540032000.0 1.36047232 0.392111648
555031500.0 1.152190096 0.804854656
570031000.0 0.814968192 1.122037528
585030500.0 0.391605472 1.293832192
600030000.0 -0.056555044 1.34651328
615029500.0 -0.505228096 1.22628176
630029000.0 -0.878212736 0.965707648
645028500.0 -1.174100512 0.577941888
660028000.0 -1.3138864 0.099307856
675027500.0 -1.270888672 -0.400176928
690027000.0 -1.014351488 -0.86657696
705026500.0 -0.607933568 -1.170653216
720026000.0 -0.136828544 -1.274930944
735025500.0 0.311657856 -1.212981456
750025000.0 0.70752 -0.999840192
765024500.0 1.006794691 -0.659345984
780024000.0 1.125185248 -0.21874448
795023500.0 1.105193376 0.208314992
810023000.0 0.863355072 0.554441344
825022500.0 0.5594832 0.737556352
840022000.0 0.280116384 0.777948288
855021500.0 0.055227888 0.76063584
870021000.0 -0.127104712 0.734227264
885020500.0 -0.292303936 0.717867456
900020000.0 -0.522968576 0.733488768
915019500.0 -0.509003712 0.735930048
930019000.0 -0.487786528 0.737274816
945018500.0 -0.47121664 0.75033024
960018000.0 -0.450522336 0.74450752
975017500.0 -0.424908352 0.746679424
990017000.0 -0.410280672 0.757265728
1005016500.0 -0.397739904 0.762671296
1020016000.0 -0.368665984 0.763942976
1035015500.0 -0.34769072 0.766834752
1050015000.0 -0.329225408 0.793274304
1065014500.0 -0.307851296 0.78232544
1080014000.0 -0.284490496 0.786345344
1095013500.0 -0.264639072 0.797523648
1110013000.0 -0.229756304 0.801170112
1125012500.0 -0.220067184 0.787588864
1140012000.0 -0.191840864 0.797971904
1155011500.0 -0.182754464 0.812617792
1170011000.0 -0.11219492 0.800520064
1185010500.0 -0.096166472 0.803818496
1200010000.0 -0.076665776 0.798437504
1215009500.0 -0.050524572 0.798093376
1230009000.0 -0.01829086 0.80554176
1245008500.0 0.01603488 0.799034624
1260008000.0 0.045247328 0.807586368
1275007500.0 0.078980712 0.803188352
1290007000.0 0.118384288 0.799818688
1305006500.0 0.141255568 0.790312064
1320006000.0 0.172541328 0.7922704
1335005500.0 0.207488432 0.767040064
1350005000.0 0.234490704 0.762025408
1365004500.0 0.28073776 0.77012992
1380004000.0 0.290379552 0.735834496
1395003500.0 0.326585472 0.721440896
1410003000.0 0.336959168 0.707605824
1425002500.0 0.379713152 0.693784768
1440002000.0 0.387972032 0.675922752
1455001500.0 0.4207952 0.655889856
1470001000.0 0.44386448 0.636468352
1485000500.0 0.471885184 0.619652928
1500000000.0 0.487709536 0.621035072
