! Created with skrf 1.8.0 (http://scikit-rf.org).
# Hz S RI R 50.0 
!freq ReS11 ImS11
50000.0 0.996924864 0.00064977
15049500.0 0.992239296 0.164347664
30049000.0 0.952388416 0.322302624
45048500.0 0.8860528 0.464476704
60048000.0 0.802152064 0.613683776
75047500.0 0.692376256 0.734109824
90047000.0 0.56888192 0.824674112
105046500.0 0.437065856 0.91259968
120046000.0 0.2877832 0.972668864
135045500.0 0.131437392 1.003309131
150045000.0 -0.03116272 1.022177816
165044500.0 -0.197049744 1.006494761
180044000.0 -0.347447424 0.963580416
195043500.0 -0.502497728 0.902114688
210043000.0 -0.643225216 0.814465792
225042500.0 -0.764147776 0.703047808
240042000.0 -0.87707232 0.588253952
255041500.0 -0.978321728 0.45597584
270041000.0 -1.06825924 0.290582464
285040500.0 -1.141219264 0.101722168
300040000.0 -1.12307048 -0.131419536
315039500.0 -1.144691232 -0.333544096
330039000.0 -1.10535228 -0.54342656
345038500.0 -1.019304752 -0.746556096
360038000.0 -0.913501248 -0.917169216
375037500.0 -0.77948512 -1.095839264
390037000.0 -0.606386752 -1.24216688
405036500.0 -0.406844608 -1.337031488
420036000.0 -0.197399504 -1.399919264
435035500.0 0.000156069 -1.408714048
450035000.0 0.182371968 -1.369668352
465034500.0 0.333070528 -1.334149248
480034000.0 0.48225616 -1.262364032
495033500.0 0.61485408 -1.161852
510033000.0 0.742184704 -1.056227208
525032500.0 0.846257152 -0.918536384
540032000.0 0.899784512 -0.782098688
555031500.0 0.969622656 -0.6597952
570031000.0 1.024439454 -0.526917152
585030500.0 1.063216568 -0.390441504
600030000.0 1.109162448 -0.23686352
615029500.0 1.124455216 -0.088109312
630029000.0 1.111878872 0.061963428
645028500.0 1.091346504 0.199406624
660028000.0 1.058174132 0.329119584
675027500.0 1.02972138 0.43687664
690027000.0 1.003260136 0.560284672
705026500.0 0.971520896 0.686989504
720026000.0 0.914534784 0.836782144
735025500.0 0.83873728 1.005763412
750025000.0 0.70441856 1.168546192
765024500.0 0.493377088 1.2992896
780024000.0 0.215655696 1.377828832
795023500.0 -0.060529392 1.322829024
810023000.0 -0.281056 1.16333616
825022500.0 -0.422003136 1.007141471
840022000.0 -0.502964128 0.84644448
855021500.0 -0.559219072 0.728288384
870021000.0 -0.609368832 0.65331936
885020500.0 -0.682669312 0.622577728
900020000.0 -0.797828928 0.619716672
915019500.0 -0.606806848 0.668974784
930019000.0 -0.424880512 0.679789632
945018500.0 -0.259646448 0.667636736
960018000.0 -0.109680512 0.646151616
975017500.0 0.028897906 0.605030656
990017000.0 0.158842944 0.5455568
1005016500.0 0.278698336 0.474967136
1020016000.0 0.393030592 0.390869664
1035015500.0 0.4988184 0.292356224
1050015000.0 0.575772288 0.176497584
1065014500.0 0.68200416 0.038065264
1080014000.0 0.744478976 -0.122931016
1095013500.0 0.790890368 -0.293001248
1110013000.0 0.812371008 -0.488228608
1125012500.0 0.768312832 -0.690756352
1140012000.0 0.682165952 -0.955570752
1155011500.0 0.553597376 -1.189931392
1170011000.0 0.297350048 -1.365573408
1185010500.0 -0.094281384 -1.48270416
1200010000.0 -0.46893584 -1.481660128
1215009500.0 -0.856630656 -1.24982584
1230009000.0 -1.156716944 -0.9486096
1245008500.0 -1.275292032 -0.580008896
1260008000.0 -1.27460672 -0.163627856
1275007500.0 -1.15141368 0.17543992
1290007000.0 -0.968493568 0.402367424
1305006500.0 -0.7672768 0.598288512
1320006000.0 -0.526377376 0.68147744
1335005500.0 -0.301045728 0.75957632
1350005000.0 -0.109942424 0.776795776
1365004500.0 0.088236328 0.778077184
1380004000.0 0.22902984 0.759390144
1395003500.0 0.385972256 0.726446208
1410003000.0 0.514927616 0.664780864
1425002500.0 0.633240064 0.55904928
1440002000.0 0.737463168 0.497828896
1455001500.0 0.823199936 0.396567296
1470001000.0 0.863061312 0.258739056
1485000500.0 0.908073792 0.172500512
1500000000.0 0.947586752 0.0406219
