! Created with skrf 1.8.0 (http://scikit-rf.org).
# Hz S RI R 50.0 
!freq ReS11 ImS11
50000.0 0.997335104 0.000968816
15049500.0 0.939929152 0.36074624
30049000.0 0.749767552 0.672770624
45048500.0 0.461871936 0.891973312
60048000.0 0.103432208 1.013408542
75047500.0 -0.273234464 0.988267136
90047000.0 -0.619270848 0.819792128
105046500.0 -0.890875456 0.545970112
120046000.0 -1.041549564 0.185252912
135045500.0 -1.043921352 -0.208813184
150045000.0 -0.914347392 -0.585823168
165044500.0 -0.648505024 -0.884468736
180044000.0 -0.314827872 -1.044111252
195043500.0 0.06349458 -1.101087096
210043000.0 0.434077248 -1.021731734
225042500.0 0.751444736 -0.82205056
240042000.0 0.9951632 -0.540386816
255041500.0 1.136135456 -0.188620416
270041000.0 1.151222944 0.221030928
285040500.0 1.022028208 0.633267456
300040000.0 0.690161088 0.958985344
315039500.0 0.318446208 1.189890864
330039000.0 -0.134399072 1.259472256
345038500.0 -0.595393088 1.14189232
360038000.0 -0.96508576 0.872738688
375037500.0 -1.252198336 0.477766304
390037000.0 -1.374978656 -0.018830158
405036500.0 -1.29058992 -0.516284768
420036000.0 -1.035483716 -0.963910272
435035500.0 -0.633731648 -1.272808448
450035000.0 -0.15766688 -1.403532736
465034500.0 0.29754432 -1.381249184
480034000.0 0.727641344 -1.213377712
495033500.0 1.072262168 -0.915745216
510033000.0 1.315735232 -0.529292832
525032500.0 1.406138176 -0.067133192
540032000.0 1.357027904 0.383589568
555031500.0 1.153335568 0.794920512
570031000.0 0.811827136 1.115287064
585030500.0 0.395729408 1.285833824
600030000.0 -0.055763492 1.342376704
615029500.0 -0.49691424 1.224849232
630029000.0 -0.87499072 0.959182592
645028500.0 -1.16578984 0.584700736
660028000.0 -1.304977312 0.10468072
675027500.0 -1.265229104 -0.390539008
690027000.0 -1.012097956 -0.864686272
705026500.0 -0.6034416 -1.168836352
720026000.0 -0.135710032 -1.267087104
735025500.0 0.31867536 -1.207448608
750025000.0 0.704619392 -1.001460195
765024500.0 1.00349462 -0.654713984
780024000.0 1.177016736 -0.228461168
795023500.0 1.097394224 0.210698656
810023000.0 0.860505024 0.548602944
825022500.0 0.556759104 0.736374976
840022000.0 0.27489792 0.780216192
855021500.0 0.055509496 0.759528704
870021000.0 -0.127279672 0.733052736
885020500.0 -0.299652992 0.7225856
900020000.0 -0.526810176 0.739132544
915019500.0 -0.507957472 0.736254592
930019000.0 -0.490148 0.746009536
945018500.0 -0.467178944 0.743753408
960018000.0 -0.454260448 0.743360128
975017500.0 -0.44907152 0.746506816
990017000.0 -0.411225504 0.763116416
1005016500.0 -0.3991152 0.769829056
1020016000.0 -0.385481696 0.775163648
1035015500.0 -0.357887264 0.784104128
1050015000.0 -0.315589504 0.803023808
1065014500.0 -0.315109024 0.793086976
1080014000.0 -0.285302368 0.798217024
1095013500.0 -0.258300688 0.804542336
1110013000.0 -0.240145968 0.810393856
1125012500.0 -0.221636688 0.799451392
1140012000.0 -0.183057584 0.820073216
1155011500.0 -0.131374496 0.820037056
1170011000.0 -0.120115712 0.790357568
1185010500.0 -0.10445924 0.810022336
1200010000.0 -0.074409608 0.8125568
1215009500.0 -0.051244524 0.825124864
1230009000.0 -0.01320684 0.819389312
1245008500.0 0.015044048 0.814834304
1260008000.0 0.051680804 0.819630336
1275007500.0 0.089700616 0.8171216
1290007000.0 0.117738016 0.816571264
1305006500.0 0.155990208 0.801046656
1320006000.0 0.187357376 0.80582112
1335005500.0 0.21722152 0.775439488
1350005000.0 0.244273968 0.778014144
1365004500.0 0.272054944 0.818241984
1380004000.0 0.305807616 0.754244416
1395003500.0 0.324701632 0.758955328
1410003000.0 0.360561984 0.713853888
1425002500.0 0.3686632 0.695212224
1440002000.0 0.403881984 0.697114496
1455001500.0 0.413861088 0.67096416
1470001000.0 0.449547424 0.65530496
1485000500.0 0.469769056 0.657459264
1500000000.0 0.481383328 0.619961216
