! Created with skrf 1.8.0 (http://scikit-rf.org).
# Hz S RI R 50.0 
!freq ReS11 ImS11
50000.0 0.996853248 0.001012646
15049500.0 0.939432768 0.3608688
30049000.0 0.749885312 0.6726144
45048500.0 0.461592448 0.892166272
60048000.0 0.103198048 1.013511062
75047500.0 -0.273358688 0.988108544
90047000.0 -0.619351872 0.819764672
105046500.0 -0.890917056 0.545644672
120046000.0 -1.041747572 0.185114848
135045500.0 -1.045765876 -0.209640048
150045000.0 -0.914883968 -0.586151808
165044500.0 -0.647393024 -0.884239488
180044000.0 -0.314372128 -1.044018388
195043500.0 0.064784684 -1.100662352
210043000.0 0.435375872 -1.022103906
225042500.0 0.752759872 -0.821110592
240042000.0 0.9953696 -0.539411904
255041500.0 1.1357472 -0.18715664
270041000.0 1.151311872 0.223006112
285040500.0 1.022323846 0.631537344
300040000.0 0.688458752 0.957624896
315039500.0 0.317612064 1.190851088
330039000.0 -0.136298544 1.253926032
345038500.0 -0.59835296 1.142813088
360038000.0 -0.967815872 0.873094528
375037500.0 -1.254340768 0.473421888
390037000.0 -1.375652544 -0.014525162
405036500.0 -1.290827392 -0.518311328
420036000.0 -1.03163135 -0.967553472
435035500.0 -0.629587904 -1.269600288
450035000.0 -0.169438544 -1.39822256
465034500.0 0.303762432 -1.380635616
480034000.0 0.726569408 -1.211520192
495033500.0 1.07289708 -0.916165184
510033000.0 1.31743456 -0.525104928
525032500.0 1.408924096 -0.06737464
540032000.0 1.358428832 0.383705152
555031500.0 1.151475664 0.79844384
570031000.0 0.814094976 1.114099504
585030500.0 0.398048128 1.29102672
600030000.0 -0.049433196 1.344024064
615029500.0 -0.503197536 1.222427248
630029000.0 -0.871886784 0.965870592
645028500.0 -1.16718864 0.579282944
660028000.0 -1.306901216 0.107489912
675027500.0 -1.269906048 -0.3935128
690027000.0 -1.01741922 -0.873792768
705026500.0 -0.605437632 -1.165939328
720026000.0 -0.133487392 -1.272743232
735025500.0 0.310927776 -1.210958608
750025000.0 0.70890592 -0.995677248
765024500.0 1.003992081 -0.657429952
780024000.0 1.141514544 -0.258290528
795023500.0 1.100418928 0.211471216
810023000.0 0.86562144 0.551331008
825022500.0 0.55969184 0.73509664
840022000.0 0.278664992 0.782058368
855021500.0 0.055974304 0.763444992
870021000.0 -0.129328624 0.72916832
885020500.0 -0.296561088 0.720472128
900020000.0 -0.525542304 0.743668096
915019500.0 -0.503563872 0.744065536
930019000.0 -0.491384032 0.738787648
945018500.0 -0.469286912 0.74773408
960018000.0 -0.456790496 0.743346304
975017500.0 -0.434060896 0.744728512
990017000.0 -0.416515808 0.758412032
1005016500.0 -0.394577856 0.762419392
1020016000.0 -0.36824368 0.77613184
1035015500.0 -0.356417056 0.777370816
1050015000.0 -0.349593952 0.777718464
1065014500.0 -0.302507424 0.797865664
1080014000.0 -0.280011936 0.799817472
1095013500.0 -0.258069488 0.791062848
1110013000.0 -0.234133968 0.797401024
1125012500.0 -0.212600032 0.776576128
1140012000.0 -0.181807408 0.79647488
1155011500.0 -0.14839248 0.833022336
1170011000.0 -0.139503952 0.817732352
1185010500.0 -0.103962224 0.806512192
1200010000.0 -0.073953744 0.807038272
1215009500.0 -0.048681432 0.80433536
1230009000.0 -0.022373436 0.808677312
1245008500.0 0.014138602 0.809866944
1260008000.0 0.047703592 0.806818752
1275007500.0 0.075717184 0.808403584
1290007000.0 0.13262652 0.805128448
1305006500.0 0.150083072 0.802005632
1320006000.0 0.175793792 0.787552256
1335005500.0 0.222211792 0.79234432
1350005000.0 0.236701856 0.795126848
1365004500.0 0.24473384 0.746246784
1380004000.0 0.29336288 0.735720704
1395003500.0 0.320879264 0.727931264
1410003000.0 0.355238496 0.730865088
1425002500.0 0.372796128 0.689379712
1440002000.0 0.375338016 0.669461376
1455001500.0 0.419764608 0.67806528
1470001000.0 0.455995808 0.656911296
1485000500.0 0.466862752 0.643892928
1500000000.0 0.478317344 0.608573568
