! Created with skrf 1.8.0 (http://scikit-rf.org).
# Hz S RI R 50.0 
!freq ReS11 ImS11
50000.0 0.996996032 0.000478427
15049500.0 0.939206784 0.36074256
30049000.0 0.749792512 0.672466368
45048500.0 0.46153616 0.891910464
60048000.0 0.103228464 1.013356806
75047500.0 -0.273451904 0.988123392
90047000.0 -0.619018048 0.8198016
105046500.0 -0.89063936 0.546009344
120046000.0 -1.041496872 0.18544184
135045500.0 -1.045664908 -0.209442864
150045000.0 -0.914598528 -0.585741888
165044500.0 -0.648317888 -0.884099328
180044000.0 -0.314961472 -1.043537616
195043500.0 0.063750648 -1.101292968
210043000.0 0.434611008 -1.022279382
225042500.0 0.751765632 -0.821404992
240042000.0 0.994231104 -0.540480064
255041500.0 1.13615656 -0.18851136
270041000.0 1.151380304 0.221728176
285040500.0 1.023539304 0.633968
300040000.0 0.686827584 0.95703328
315039500.0 0.319305888 1.191683296
330039000.0 -0.137881088 1.254604816
345038500.0 -0.593248384 1.140861392
360038000.0 -0.965686272 0.876100928
375037500.0 -1.252117392 0.478011456
390037000.0 -1.380658976 -0.017742564
405036500.0 -1.290855296 -0.518347872
420036000.0 -1.033789156 -0.964988608
435035500.0 -0.628963584 -1.27132176
450035000.0 -0.154514944 -1.403570656
465034500.0 0.301356224 -1.381972896
480034000.0 0.72562272 -1.208667392
495033500.0 1.073705792 -0.91863776
510033000.0 1.320462336 -0.532255584
525032500.0 1.406273472 -0.066287436
540032000.0 1.356564288 0.38588432
555031500.0 1.15017152 0.802408256
570031000.0 0.810363904 1.110010744
585030500.0 0.388417824 1.28747584
600030000.0 -0.054292348 1.335936064
615029500.0 -0.49447168 1.224628928
630029000.0 -0.872208896 0.963987712
645028500.0 -1.16861248 0.582343552
660028000.0 -1.309695136 0.10566232
675027500.0 -1.273986944 -0.39073232
690027000.0 -1.015719414 -0.86486496
705026500.0 -0.608101632 -1.16193688
720026000.0 -0.139272384 -1.272454752
735025500.0 0.3170616 -1.210656528
750025000.0 0.70685024 -0.99969504
765024500.0 1.005530715 -0.656869312
780024000.0 1.142888064 -0.211024912
795023500.0 1.103533864 0.208840768
810023000.0 0.85941696 0.550642112
825022500.0 0.557705408 0.73560384
840022000.0 0.280707968 0.779162368
855021500.0 0.05539448 0.759584256
870021000.0 -0.124932664 0.734729152
885020500.0 -0.297821216 0.719202624
900020000.0 -0.520359744 0.737987392
915019500.0 -0.5070744 0.742121152
930019000.0 -0.489598528 0.743483136
945018500.0 -0.470937248 0.741988992
960018000.0 -0.452962176 0.750068992
975017500.0 -0.434278976 0.754039552
990017000.0 -0.416068224 0.760605248
1005016500.0 -0.39752272 0.767439104
1020016000.0 -0.383422368 0.781697472
1035015500.0 -0.352414016 0.776859072
1050015000.0 -0.312399232 0.789874048
1065014500.0 -0.307842016 0.80042304
1080014000.0 -0.282208192 0.799926592
1095013500.0 -0.266297456 0.807118144
1110013000.0 -0.230463184 0.806234816
1125012500.0 -0.212974672 0.790015232
1140012000.0 -0.183212048 0.808176064
1155011500.0 -0.148550128 0.786241664
1170011000.0 -0.1363484 0.808541824
1185010500.0 -0.095548608 0.812878784
1200010000.0 -0.07401552 0.81367648
1215009500.0 -0.031039336 0.82116928
1230009000.0 -0.005512611 0.821202368
1245008500.0 0.017873326 0.82618912
1260008000.0 0.064181952 0.826112384
1275007500.0 0.078521384 0.823865088
1290007000.0 0.11541928 0.80629696
1305006500.0 0.16058056 0.800941824
1320006000.0 0.180760432 0.803243072
1335005500.0 0.222757168 0.796550272
1350005000.0 0.258068736 0.767749632
1365004500.0 0.269957152 0.755168448
1380004000.0 0.296274656 0.762286464
1395003500.0 0.326301216 0.733412992
1410003000.0 0.340700512 0.725128384
1425002500.0 0.381071712 0.683801344
1440002000.0 0.408589152 0.689547968
1455001500.0 0.436091808 0.67285472
1470001000.0 0.4328832 0.670898432
1485000500.0 0.465875456 0.637695936
1500000000.0 0.470033184 0.642354496
