! Created with skrf 1.8.0 (http://scikit-rf.org).
# Hz S RI R 50.0 
!freq ReS11 ImS11
50000.0 -0.006590477 -0.004097305
15049500.0 -0.001570675 0.005217278
30049000.0 -0.004774397 0.007537587
45048500.0 -0.010399964 0.0078523
60048000.0 -0.017212716 0.005656594
75047500.0 -0.024267002 0.001174382
90047000.0 -0.030591714 -0.00568801
105046500.0 -0.034656852 -0.013766188
120046000.0 -0.036086176 -0.021799676
135045500.0 -0.034522504 -0.02906395
150045000.0 -0.030927718 -0.034636584
165044500.0 -0.0251819 -0.037409616
180044000.0 -0.01943098 -0.03500532
195043500.0 -0.014176498 -0.030965898
210043000.0 -0.010799724 -0.023942004
225042500.0 -0.010031748 -0.015304312
240042000.0 -0.012927092 -0.006737377
255041500.0 -0.018783732 -0.000142274
270041000.0 -0.026953906 0.002338679
285040500.0 -0.035639288 0.000579382
300040000.0 -0.04086414 -0.007028375
315039500.0 -0.046375048 -0.018296414
330039000.0 -0.04424508 -0.033127844
345038500.0 -0.032182198 -0.04970132
360038000.0 -0.014226898 -0.065531188
375037500.0 0.012982352 -0.077613936
390037000.0 0.045998188 -0.082438792
405036500.0 0.083885368 -0.076682696
420036000.0 0.123400832 -0.060589848
435035500.0 0.159339696 -0.034283472
450035000.0 0.187248608 0.002007753
465034500.0 0.20650592 0.044136848
480034000.0 0.2120496 0.091012296
495033500.0 0.202853936 0.134332576
510033000.0 0.179725808 0.173084624
525032500.0 0.14612128 0.195663168
540032000.0 0.10209644 0.205095104
555031500.0 0.067161056 0.19665336
570031000.0 0.034598016 0.173959008
585030500.0 0.01425309 0.137701776
600030000.0 0.003226434 0.096918504
615029500.0 0.007275076 0.049142412
630029000.0 0.030048808 0.002998864
645028500.0 0.064839384 -0.033300474
660028000.0 0.110100592 -0.055056464
675027500.0 0.156677936 -0.06490752
690027000.0 0.201025104 -0.058391548
705026500.0 0.238305728 -0.034986764
720026000.0 0.263852592 0.006223867
735025500.0 0.27559648 0.057339084
750025000.0 0.263573728 0.114960368
765024500.0 0.225999616 0.172755184
780024000.0 0.1530104 0.213950192
795023500.0 0.069001048 0.219721776
810023000.0 -0.015287946 0.18579008
825022500.0 -0.07988884 0.132547008
840022000.0 -0.125868592 0.058273392
855021500.0 -0.151186064 -0.025218136
870021000.0 -0.167940512 -0.1129322
885020500.0 -0.173408112 -0.219856672
900020000.0 -0.170652144 -0.351364544
915019500.0 -0.213972848 -0.360777984
930019000.0 -0.269066912 -0.356320032
945018500.0 -0.314734208 -0.32300432
960018000.0 -0.363067456 -0.26821416
975017500.0 -0.376242336 -0.208006032
990017000.0 -0.371454784 -0.144291648
1005016500.0 -0.338332544 -0.079426144
1020016000.0 -0.302863584 -0.034463328
1035015500.0 -0.25054208 -0.000556048
1050015000.0 -0.186128832 0.0010182
1065014500.0 -0.1379548 0.002628374
1080014000.0 -0.086342936 -0.023951262
1095013500.0 -0.059218288 -0.056982976
1110013000.0 -0.035563096 -0.088851408
1125012500.0 -0.033585308 -0.133181808
1140012000.0 -0.05361278 -0.17297864
1155011500.0 -0.070364448 -0.190027408
1170011000.0 -0.09994348 -0.197964896
1185010500.0 -0.14319984 -0.186999776
1200010000.0 -0.165000096 -0.142794752
1215009500.0 -0.155234 -0.11753184
1230009000.0 -0.153224784 -0.076440872
1245008500.0 -0.11538864 -0.044772516
1260008000.0 -0.07124032 -0.028168454
1275007500.0 -0.024233352 -0.020244628
1290007000.0 -0.009606526 -0.048906508
1305006500.0 0.019626978 -0.071066768
1320006000.0 0.003436643 -0.092157432
1335005500.0 -0.00775678 -0.140932272
1350005000.0 -0.019997986 -0.180212128
1365004500.0 -0.045458408 -0.183229936
1380004000.0 -0.099369136 -0.140418896
1395003500.0 -0.130636544 -0.104517952
1410003000.0 -0.146151248 -0.034666384
1425002500.0 -0.125676784 0.01980249
1440002000.0 -0.106151024 0.049652508
1455001500.0 -0.051223388 0.148029696
1470001000.0 -0.001444979 0.144621136
1485000500.0 0.099341784 0.155147664
1500000000.0 0.142126768 0.150132128
