! Created with skrf 1.8.0 (http://scikit-rf.org).
# Hz S RI R 50.0 
!freq ReS11 ImS11
50000.0 -0.006391649 -0.004810195
15049500.0 -0.005690299 0.002941236
30049000.0 -0.008442254 0.00399079
45048500.0 -0.012995672 0.00363589
60048000.0 -0.018459248 0.001087273
75047500.0 -0.024132162 -0.002904953
90047000.0 -0.029072558 -0.008619742
105046500.0 -0.032307196 -0.015019234
120046000.0 -0.033539436 -0.021197316
135045500.0 -0.032267612 -0.026369836
150045000.0 -0.029844352 -0.030048524
165044500.0 -0.025803688 -0.031408214
180044000.0 -0.021948596 -0.027882232
195043500.0 -0.018803996 -0.023723806
210043000.0 -0.017408546 -0.017149586
225042500.0 -0.01819652 -0.00966309
240042000.0 -0.022180844 -0.00257353
255041500.0 -0.028795626 0.002358108
270041000.0 -0.03677184 0.003035497
285040500.0 -0.044740628 -0.000567019
300040000.0 -0.048181744 -0.009223606
315039500.0 -0.051866452 -0.020843978
330039000.0 -0.046958252 -0.036793192
345038500.0 -0.034597448 -0.051403852
360038000.0 -0.014493984 -0.065070092
375037500.0 0.014158702 -0.075300976
390037000.0 0.048044268 -0.077245712
405036500.0 0.086129952 -0.06988644
420036000.0 0.123225648 -0.052388964
435035500.0 0.156572528 -0.024587966
450035000.0 0.183526848 0.011871942
465034500.0 0.199529616 0.05395268
480034000.0 0.203779952 0.09912488
495033500.0 0.19265352 0.14020032
510033000.0 0.168791312 0.175505696
525032500.0 0.137553296 0.197486032
540032000.0 0.09376696 0.203498432
555031500.0 0.059828464 0.193089216
570031000.0 0.031515818 0.166837008
585030500.0 0.011700756 0.129733936
600030000.0 0.007671855 0.09162944
615029500.0 0.013828004 0.042515696
630029000.0 0.036693248 0.000144638
645028500.0 0.075913664 -0.033146732
660028000.0 0.123040408 -0.053069488
675027500.0 0.169755328 -0.05940084
690027000.0 0.21341424 -0.050862288
705026500.0 0.249182784 -0.026876766
720026000.0 0.272211008 0.01661056
735025500.0 0.283667424 0.06759784
750025000.0 0.269283776 0.12744932
765024500.0 0.228067712 0.184009952
780024000.0 0.157289824 0.228086912
795023500.0 0.068316344 0.225035568
810023000.0 -0.016394334 0.187688752
825022500.0 -0.0819066 0.132519112
840022000.0 -0.125624272 0.055808144
855021500.0 -0.150078992 -0.028602024
870021000.0 -0.165252352 -0.119443528
885020500.0 -0.168752112 -0.225260592
900020000.0 -0.154756464 -0.358315296
915019500.0 -0.203201472 -0.367423264
930019000.0 -0.26493168 -0.369398048
945018500.0 -0.316743424 -0.332765504
960018000.0 -0.361329248 -0.282313088
975017500.0 -0.375453728 -0.21387824
990017000.0 -0.376032992 -0.151375392
1005016500.0 -0.346215584 -0.082711056
1020016000.0 -0.30734608 -0.03270287
1035015500.0 -0.246287408 -0.00709905
1050015000.0 -0.19096544 0.009953896
1065014500.0 -0.138807936 0.004755799
1080014000.0 -0.090240784 -0.020576288
1095013500.0 -0.05043606 -0.043804204
1110013000.0 -0.026611306 -0.092040208
1125012500.0 -0.012454382 -0.13475128
1140012000.0 -0.030422162 -0.178103408
1155011500.0 -0.07123296 -0.190607152
1170011000.0 -0.088472976 -0.195631088
1185010500.0 -0.140706128 -0.178565472
1200010000.0 -0.151448496 -0.141900736
1215009500.0 -0.15893512 -0.11689312
1230009000.0 -0.13804128 -0.082155296
1245008500.0 -0.122751472 -0.046886232
1260008000.0 -0.083305704 -0.040254356
1275007500.0 -0.03559714 -0.03976868
1290007000.0 -0.010627904 -0.062907056
1305006500.0 0.020157612 -0.074690736
1320006000.0 0.036741752 -0.123375864
1335005500.0 0.028856226 -0.130932184
1350005000.0 -0.004111534 -0.173559136
1365004500.0 -0.023142016 -0.182534224
1380004000.0 -0.106094184 -0.14333784
1395003500.0 -0.125277296 -0.119779528
1410003000.0 -0.168321072 -0.056443536
1425002500.0 -0.121721232 0.032015658
1440002000.0 -0.112789112 0.0624978
1455001500.0 -0.058233344 0.125811768
1470001000.0 -0.006244831 0.149215008
1485000500.0 0.07691164 0.141262896
1500000000.0 0.15641064 0.15249648
