! Created with skrf 1.8.0 (http://scikit-rf.org).
# Hz S RI R 50.0 
!freq ReS11 ImS11
50000.0 0.9969792 0.001084655
15049500.0 0.939897984 0.360812384
30049000.0 0.750029056 0.672869056
45048500.0 0.461650944 0.892511552
60048000.0 0.103330816 1.0136863
75047500.0 -0.273581504 0.988561792
90047000.0 -0.619436288 0.820182272
105046500.0 -0.89163488 0.546207168
120046000.0 -1.04239142 0.185278
135045500.0 -1.04634714 -0.208446832
150045000.0 -0.91526912 -0.5860288
165044500.0 -0.64856192 -0.884998272
180044000.0 -0.31436608 -1.044544936
195043500.0 0.064533464 -1.101493952
210043000.0 0.435362272 -1.022984504
225042500.0 0.752762048 -0.82189536
240042000.0 0.996516736 -0.540632064
255041500.0 1.137207632 -0.187428816
270041000.0 1.152411584 0.221831136
285040500.0 1.02118957 0.633390208
300040000.0 0.688003904 0.954983872
315039500.0 0.32042608 1.192236192
330039000.0 -0.135765104 1.2595272
345038500.0 -0.5982832 1.141030784
360038000.0 -0.968665792 0.874660544
375037500.0 -1.257196784 0.476061856
390037000.0 -1.385229696 -0.020149402
405036500.0 -1.294505824 -0.519966528
420036000.0 -1.035975812 -0.96681536
435035500.0 -0.63219264 -1.274632928
450035000.0 -0.17113128 -1.390986208
465034500.0 0.298831392 -1.382082688
480034000.0 0.728420288 -1.21735752
495033500.0 1.075914264 -0.916836288
510033000.0 1.319680704 -0.527431424
525032500.0 1.40963888 -0.068990016
540032000.0 1.363263712 0.385589728
555031500.0 1.157309648 0.802390016
570031000.0 0.815795136 1.116494416
585030500.0 0.395024768 1.291215904
600030000.0 -0.057702416 1.346889728
615029500.0 -0.498135456 1.23179448
630029000.0 -0.87257376 0.968103104
645028500.0 -1.165888192 0.583842688
660028000.0 -1.311694272 0.105383344
675027500.0 -1.27507008 -0.39054432
690027000.0 -1.018585206 -0.862105792
705026500.0 -0.609965312 -1.171136624
720026000.0 -0.142387216 -1.275800352
735025500.0 0.312245728 -1.214972736
750025000.0 0.702683392 -1.001939416
765024500.0 1.001283646 -0.657392256
780024000.0 1.181412224 -0.234794896
795023500.0 1.103938464 0.21044272
810023000.0 0.870592704 0.548064512
825022500.0 0.558663296 0.735711744
840022000.0 0.278283936 0.77700224
855021500.0 0.058607912 0.758823872
870021000.0 -0.125560896 0.73369024
885020500.0 -0.294648224 0.717530368
900020000.0 -0.526102016 0.747947264
915019500.0 -0.498466144 0.743933696
930019000.0 -0.483370304 0.734761216
945018500.0 -0.462985792 0.746698048
960018000.0 -0.453094112 0.748720896
975017500.0 -0.430528832 0.758176
990017000.0 -0.410693024 0.760933824
1005016500.0 -0.3988592 0.764561344
1020016000.0 -0.37766112 0.770855616
1035015500.0 -0.351957216 0.774124224
1050015000.0 -0.329452288 0.799681472
1065014500.0 -0.30576608 0.786609088
1080014000.0 -0.282303392 0.798513728
1095013500.0 -0.256481744 0.80036032
1110013000.0 -0.236300544 0.80794432
1125012500.0 -0.213347296 0.802148288
1140012000.0 -0.179344592 0.811674304
1155011500.0 -0.169785056 0.795022208
1170011000.0 -0.114795616 0.810625984
1185010500.0 -0.100869136 0.80943264
1200010000.0 -0.077309968 0.817182464
1215009500.0 -0.049806456 0.807120128
1230009000.0 -0.016849598 0.810673856
1245008500.0 0.023419172 0.816504896
1260008000.0 0.043463308 0.812796352
1275007500.0 0.087288672 0.801514496
1290007000.0 0.11831944 0.806736512
1305006500.0 0.150314976 0.79797312
1320006000.0 0.17159936 0.7890032
1335005500.0 0.218227504 0.781182592
1350005000.0 0.245755824 0.777599616
1365004500.0 0.259301072 0.763445312
1380004000.0 0.281451904 0.750495872
1395003500.0 0.3197744 0.735983552
1410003000.0 0.340853792 0.70666976
1425002500.0 0.376227104 0.692692416
1440002000.0 0.393148608 0.675460224
1455001500.0 0.424362848 0.652918464
1470001000.0 0.42947248 0.648237184
1485000500.0 0.454324032 0.605261184
1500000000.0 0.490192448 0.601732352
