! Created with skrf 1.8.0 (http://scikit-rf.org).
# Hz S RI R 50.0 
!freq ReS11 ImS11
50000.0 0.997033216 0.001270705
15049500.0 0.940500736 0.360613152
30049000.0 0.750457024 0.673092992
45048500.0 0.462113984 0.892782784
60048000.0 0.103590296 1.014272094
75047500.0 -0.27342864 0.988584576
90047000.0 -0.619440768 0.820144768
105046500.0 -0.891639744 0.546390464
120046000.0 -1.04257238 0.185441344
135045500.0 -1.046924712 -0.209794096
150045000.0 -0.914759616 -0.586001024
165044500.0 -0.6481696 -0.885147968
180044000.0 -0.314693376 -1.045217992
195043500.0 0.0644748 -1.101595048
210043000.0 0.435419456 -1.022788764
225042500.0 0.753079808 -0.822268992
240042000.0 0.996404736 -0.539642304
255041500.0 1.13807344 -0.18736296
270041000.0 1.15240968 0.222308512
285040500.0 1.023174406 0.634095104
300040000.0 0.688233536 0.9569008
315039500.0 0.31829872 1.192406768
330039000.0 -0.138113968 1.25557768
345038500.0 -0.597059392 1.141221888
360038000.0 -0.971167296 0.870710208
375037500.0 -1.257107376 0.478440384
390037000.0 -1.37354576 -0.005703413
405036500.0 -1.290874944 -0.517272416
420036000.0 -1.033980368 -0.970101056
435035500.0 -0.630432384 -1.272376064
450035000.0 -0.166791104 -1.410179136
465034500.0 0.304620736 -1.384203328
480034000.0 0.732305216 -1.212650064
495033500.0 1.077118872 -0.917251456
510033000.0 1.319198144 -0.528004896
525032500.0 1.41028272 -0.068403512
540032000.0 1.36365056 0.386282496
555031500.0 1.155848624 0.805304
570031000.0 0.816851328 1.120907072
585030500.0 0.393353984 1.288800128
600030000.0 -0.054430796 1.348318592
615029500.0 -0.49775744 1.230233312
630029000.0 -0.874981888 0.966199488
645028500.0 -1.17132688 0.581221888
660028000.0 -1.310901152 0.107474896
675027500.0 -1.270564672 -0.392503968
690027000.0 -1.022310496 -0.864310016
705026500.0 -0.614124032 -1.16702128
720026000.0 -0.140613296 -1.27210416
735025500.0 0.315570912 -1.217367888
750025000.0 0.710209344 -1.003949881
765024500.0 1.001179934 -0.659722112
780024000.0 1.15265048 -0.216304432
795023500.0 1.105692384 0.207455664
810023000.0 0.863664896 0.549055104
825022500.0 0.559955072 0.73374336
840022000.0 0.280144032 0.782086912
855021500.0 0.056740024 0.759795264
870021000.0 -0.122908696 0.730579136
885020500.0 -0.293786912 0.718304448
900020000.0 -0.524505984 0.7359664
915019500.0 -0.500329856 0.74129216
930019000.0 -0.48916912 0.739816064
945018500.0 -0.474514848 0.741111488
960018000.0 -0.447142144 0.74740768
975017500.0 -0.43621792 0.754228608
990017000.0 -0.4123704 0.75436384
1005016500.0 -0.395207616 0.761314176
1020016000.0 -0.382552992 0.771831296
1035015500.0 -0.34971728 0.780306112
1050015000.0 -0.318950304 0.766372672
1065014500.0 -0.314661984 0.785190592
1080014000.0 -0.286301504 0.783071872
1095013500.0 -0.256352752 0.79954784
1110013000.0 -0.23437632 0.8097712
1125012500.0 -0.221412512 0.803243328
1140012000.0 -0.181047376 0.800989568
1155011500.0 -0.17189632 0.80115072
1170011000.0 -0.121468872 0.831498816
1185010500.0 -0.104046168 0.807000128
1200010000.0 -0.073050424 0.801632768
1215009500.0 -0.036552924 0.803681984
1230009000.0 -0.00953932 0.795313408
1245008500.0 0.013643692 0.806348352
1260008000.0 0.059958944 0.80684064
1275007500.0 0.07821188 0.808607488
1290007000.0 0.109740872 0.796646336
1305006500.0 0.13735296 0.79200064
1320006000.0 0.18530376 0.782340928
1335005500.0 0.20520272 0.76884768
1350005000.0 0.246786544 0.773850752
1365004500.0 0.254389584 0.789826432
1380004000.0 0.304148672 0.758728128
1395003500.0 0.348333344 0.737564224
1410003000.0 0.358275296 0.707624192
1425002500.0 0.37644752 0.700794368
1440002000.0 0.415968416 0.677246272
1455001500.0 0.423889632 0.654628352
1470001000.0 0.429263488 0.631481664
1485000500.0 0.45464 0.632636736
1500000000.0 0.480676384 0.601324864
