! Created with skrf 1.8.0 (http://scikit-rf.org).
# Hz S RI R 50.0 
!freq ReS11 ImS11
50000.0 0.998081664 0.001716166
15049500.0 0.939915712 0.360158912
30049000.0 0.750083584 0.672800576
45048500.0 0.461716864 0.892354752
60048000.0 0.1032312 1.01348591
75047500.0 -0.273167072 0.987997504
90047000.0 -0.619076224 0.819829312
105046500.0 -0.891023552 0.546318208
120046000.0 -1.0420928 0.185434256
135045500.0 -1.044578076 -0.208686352
150045000.0 -0.914883072 -0.585885184
165044500.0 -0.648500032 -0.884155136
180044000.0 -0.314571264 -1.044074536
195043500.0 0.063794724 -1.101247784
210043000.0 0.434412064 -1.022440552
225042500.0 0.751722176 -0.821697216
240042000.0 0.994953344 -0.540777152
255041500.0 1.1356144 -0.188113104
270041000.0 1.151079648 0.220841744
285040500.0 1.022530318 0.633106752
300040000.0 0.68817184 0.957205568
315039500.0 0.32089808 1.19161392
330039000.0 -0.134500896 1.254284624
345038500.0 -0.594122944 1.14118064
360038000.0 -0.966189376 0.871992128
375037500.0 -1.254102464 0.475876192
390037000.0 -1.371082656 -0.007050532
405036500.0 -1.2907368 -0.518422848
420036000.0 -1.03163147 -0.967194688
435035500.0 -0.627926784 -1.271980512
450035000.0 -0.157728832 -1.407047264
465034500.0 0.302491968 -1.377024064
480034000.0 0.72654624 -1.21334064
495033500.0 1.071199536 -0.916070656
510033000.0 1.31764864 -0.528086784
525032500.0 1.41019296 -0.070914312
540032000.0 1.359058368 0.38237936
555031500.0 1.155054928 0.80255616
570031000.0 0.812205824 1.111609104
585030500.0 0.387130336 1.285718336
600030000.0 -0.048765136 1.343756544
615029500.0 -0.494152032 1.225445744
630029000.0 -0.870953024 0.965992256
645028500.0 -1.168794032 0.578987776
660028000.0 -1.30963792 0.104125056
675027500.0 -1.2673564 -0.391650816
690027000.0 -1.017869354 -0.863203776
705026500.0 -0.610406592 -1.170022256
720026000.0 -0.136770032 -1.264050128
735025500.0 0.310634464 -1.210657008
750025000.0 0.71036224 -0.999331008
765024500.0 1.002996564 -0.656440768
780024000.0 1.176762944 -0.229155664
795023500.0 1.105102064 0.207991712
810023000.0 0.864304768 0.551731072
825022500.0 0.560107776 0.733696512
840022000.0 0.277871392 0.779973248
855021500.0 0.055817572 0.761547136
870021000.0 -0.1291146 0.72690912
885020500.0 -0.29980864 0.718708224
900020000.0 -0.5242408 0.744051584
915019500.0 -0.50357872 0.742287552
930019000.0 -0.488370208 0.744809152
945018500.0 -0.464968576 0.744984192
960018000.0 -0.450850656 0.748962496
975017500.0 -0.444845152 0.755218496
990017000.0 -0.410386688 0.766461568
1005016500.0 -0.393596384 0.764868608
1020016000.0 -0.363792 0.763173312
1035015500.0 -0.35535328 0.77645728
1050015000.0 -0.31832544 0.762693056
1065014500.0 -0.307766208 0.790225344
1080014000.0 -0.286710656 0.794808
1095013500.0 -0.257546368 0.802683072
1110013000.0 -0.234437696 0.809808704
1125012500.0 -0.219581936 0.798146368
1140012000.0 -0.188596528 0.815205248
1155011500.0 -0.139058224 0.78430752
1170011000.0 -0.126186144 0.80065248
1185010500.0 -0.104410488 0.811526336
1200010000.0 -0.067876976 0.811503744
1215009500.0 -0.038658532 0.814637696
1230009000.0 -0.002650826 0.81086944
1245008500.0 0.017324782 0.820035904
1260008000.0 0.058772752 0.808379264
1275007500.0 0.092256736 0.803267264
1290007000.0 0.1133872 0.811373056
1305006500.0 0.150377216 0.79556928
1320006000.0 0.178362128 0.776450304
1335005500.0 0.212801232 0.782532352
1350005000.0 0.243808704 0.775411456
1365004500.0 0.244993024 0.78795424
1380004000.0 0.303589664 0.760531456
1395003500.0 0.323941024 0.738029504
1410003000.0 0.351735872 0.73545952
1425002500.0 0.366360096 0.707580096
1440002000.0 0.386187456 0.684594368
1455001500.0 0.399928864 0.656386368
1470001000.0 0.435068032 0.650831616
1485000500.0 0.463739584 0.634400832
1500000000.0 0.50165152 0.614887104
