! Created with skrf 1.8.0 (http://scikit-rf.org).
# Hz S RI R 50.0 
!freq ReS11 ImS11
50000.0 0.998611584 1.8857e-05
10049500.0 0.974043904 0.242482928
20049000.0 0.88868448 0.471718688
30048500.0 0.750428096 0.673874496
40048000.0 0.569698432 0.83576224
50047500.0 0.35037824 0.955067712
60047000.0 0.10281748 1.014843584
70046500.0 -0.14962112 1.011672616
80046000.0 -0.395852768 0.94611232
90045500.0 -0.620560576 0.820692864
100045000.0 -0.811853248 0.648744832
110044500.0 -0.956153792 0.432166464
120044000.0 -1.043854116 0.184766544
130043500.0 -1.034745692 -0.082009824
140043000.0 -1.024588584 -0.342415168
150042500.0 -0.915765888 -0.587725504
160042000.0 -0.747219712 -0.79792448
170041500.0 -0.535756064 -0.95874976
180041000.0 -0.313532288 -1.046341656
190040500.0 -0.06212174 -1.09782696
200040000.0 0.192989728 -1.089152336
210039500.0 0.438324384 -1.023874522
220039000.0 0.660341888 -0.905078144
230038500.0 0.85004384 -0.74058048
240038000.0 0.998883456 -0.539003072
250037500.0 1.103010056 -0.308608224
260037000.0 1.158352848 -0.05314278
270036500.0 1.15378272 0.225169232
280036000.0 1.08229232 0.503607872
290035500.0 0.944608768 0.760059776
300035000.0 0.685024384 0.961410432
310034500.0 0.465379936 1.149053696
320034000.0 0.169121152 1.241680976
330033500.0 -0.142074032 1.257713312
340033000.0 -0.452941632 1.197364336
350032500.0 -0.742660288 1.063080072
360032000.0 -0.975702016 0.870868352
370031500.0 -1.181099888 0.619195456
380031000.0 -1.315149056 0.316312096
390030500.0 -1.393708352 -0.01097943
400030000.0 -1.348143808 -0.360871712
410029500.0 -1.2272172 -0.690252032
420029000.0 -1.037398696 -0.972593984
430028500.0 -0.771760192 -1.19591224
440028000.0 -0.469681408 -1.340899584
450027500.0 -0.156196992 -1.405121792
460027000.0 0.150589616 -1.405534144
470026500.0 0.459120768 -1.342147232
480026000.0 0.734817536 -1.219037888
490025500.0 0.98296416 -1.033596636
500025000.0 1.183918 -0.799694656
510024500.0 1.328571808 -0.527355776
520024000.0 1.4021952 -0.228062416
530023500.0 1.404478784 0.095051608
540023000.0 1.367288128 0.389032992
550022500.0 1.244695552 0.673357632
560022000.0 1.058135628 0.926453696
570021500.0 0.814593024 1.119322416
580021000.0 0.544464128 1.26048208
590020500.0 0.24400368 1.317228448
600020000.0 -0.056598572 1.35600256
610019500.0 -0.36114672 1.287399296
620019000.0 -0.636952832 1.16180528
630018500.0 -0.889058944 0.962192896
640018000.0 -1.093468424 0.730079232
650017500.0 -0.523565664 0.701880192
660017000.0 -1.320832384 0.106545416
670016500.0 -1.322541248 -0.233558416
680016000.0 -1.220941424 -0.573846976
690015500.0 -1.020445346 -0.870221056
700015000.0 -0.762968768 -1.089407208
710014500.0 -0.457023104 -1.223974224
720014000.0 -0.141762544 -1.2756424
730013500.0 0.169662144 -1.256642704
740013000.0 0.45093904 -1.165099504
750012500.0 0.705891776 -1.006285787
760012000.0 0.925441664 -0.79611936
770011500.0 1.077572224 -0.534100896
780011000.0 1.215995792 -0.227155696
790010500.0 1.149301296 0.06460434
800010000.0 1.039552808 0.340720192
810009500.0 0.870392448 0.551273216
820009000.0 0.6665408 0.68845792
830008500.0 0.464967072 0.760468288
840008000.0 0.28047072 0.782601088
850007500.0 0.1278362 0.772737856
860007000.0 -0.004397908 0.754611072
870006500.0 -0.121776168 0.7353152
880006000.0 -0.235242432 0.722389632
890005500.0 -0.35789568 0.710074624
900005000.0 -0.511944352 0.738421376
910004500.0 -0.360850432 0.558852608
920004000.0 -0.498049984 0.742170944
930003500.0 -0.481532896 0.739924544
940003000.0 -0.468204224 0.739131136
950002500.0 -0.461007872 0.745551552
960002000.0 -0.44048736 0.747740032
970001500.0 -0.433558528 0.750406912
980001000.0 -0.425448896 0.748392192
990000500.0 -0.413835072 0.74697696
1000000000.0 -0.399674176 0.745839232
