! Created with skrf 1.8.0 (http://scikit-rf.org).
# Hz S RI R 50.0 
!freq ReS11 ImS11
50000.0 0.995948544 0.001456449
10049500.0 0.995640768 0.109747056
20049000.0 0.9802832 0.218315904
30048500.0 0.952828992 0.323075392
40048000.0 0.914595456 0.42225856
50047500.0 0.867313792 0.520368224
60047000.0 0.80287712 0.615084736
70046500.0 0.730373184 0.69705184
80046000.0 0.6495312 0.769224896
90045500.0 0.56873376 0.827051008
100045000.0 0.482888864 0.887973696
110044500.0 0.3870736 0.93843712
120044000.0 0.286241056 0.977957888
130043500.0 0.1714176 0.977516096
140043000.0 0.073903128 1.023016334
150042500.0 -0.036455628 1.028126478
160042000.0 -0.149052176 1.019640088
170041500.0 -0.259567952 0.99806272
180041000.0 -0.35722576 0.969447936
190040500.0 -0.462045536 0.927850624
200040000.0 -0.562360512 0.87704512
210039500.0 -0.65665056 0.816372544
220039000.0 -0.742905664 0.745982208
230038500.0 -0.82135968 0.668287168
240038000.0 -0.892388928 0.585599872
250037500.0 -0.958692544 0.496444256
260037000.0 -1.022415162 0.39646064
270036500.0 -1.081506968 0.282732224
280036000.0 -1.132811664 0.155860768
290035500.0 -1.166177392 0.022768782
300035000.0 -1.129867912 -0.14439104
310034500.0 -1.169185408 -0.279580064
320034000.0 -1.146476864 -0.419593664
330033500.0 -1.106464032 -0.556905536
340033000.0 -1.051948904 -0.692044352
350032500.0 -0.979470464 -0.818560512
360032000.0 -0.909992896 -0.9287424
370031500.0 -0.824722752 -1.045781732
380031000.0 -0.720814912 -1.153945328
390030500.0 -0.598348992 -1.246757872
400030000.0 -0.47258144 -1.320624352
410029500.0 -0.331082112 -1.375580192
420029000.0 -0.194395552 -1.404423232
430028500.0 -0.06086652 -1.411374912
440028000.0 0.066196344 -1.402000672
450027500.0 0.179233264 -1.378568768
460027000.0 0.288649536 -1.35426832
470026500.0 0.391845728 -1.312233792
480026000.0 0.48578464 -1.26596248
490025500.0 0.5800336 -1.2049644
500025000.0 0.66698336 -1.131770016
510024500.0 0.750566656 -1.05066526
520024000.0 0.823762112 -0.96664928
530023500.0 0.884370752 -0.860009472
540023000.0 0.911868992 -0.778528896
550022500.0 0.958307712 -0.696000064
560022000.0 1.005079985 -0.606892928
570021500.0 1.03907478 -0.515760128
580021000.0 1.069940688 -0.4257152
590020500.0 1.084892032 -0.308914112
600020000.0 1.122212408 -0.218248144
610019500.0 1.132650968 -0.113551192
620019000.0 1.13030672 -0.010714094
630018500.0 1.114904168 0.092267552
640018000.0 1.102840184 0.187063936
650017500.0 0.883403264 0.450127072
660017000.0 1.056890248 0.357967776
670016500.0 1.037727356 0.434632256
680016000.0 1.015702128 0.51182688
690015500.0 0.995705088 0.589263936
700015000.0 0.970814912 0.672593472
710014500.0 0.938539264 0.764892352
720014000.0 0.898840512 0.865300672
730013500.0 0.847494336 0.976235072
740013000.0 0.781906944 1.090888504
750012500.0 0.684454144 1.197170976
760012000.0 0.5505248 1.2892928
770011500.0 0.386284992 1.35878576
780011000.0 0.193643696 1.379716032
790010500.0 0.008330385 1.367517824
800010000.0 -0.162548624 1.27830528
810009500.0 -0.295064192 1.167479152
820009000.0 -0.388201472 1.062870504
830008500.0 -0.460810272 0.95125152
840008000.0 -0.507589632 0.85078112
850007500.0 -0.549845632 0.771529024
860007000.0 -0.582645056 0.704511936
870006500.0 -0.610674944 0.656883456
880006000.0 -0.657335872 0.629430016
890005500.0 -0.70415712 0.620246848
900005000.0 -0.799184832 0.632503104
910004500.0 -0.766424 0.375089024
920004000.0 -0.541451008 0.66811488
930003500.0 -0.42129264 0.679388608
940003000.0 -0.308866112 0.677505984
950002500.0 -0.21068912 0.666272448
960002000.0 -0.109538976 0.647821248
970001500.0 -0.010874026 0.620146624
980001000.0 0.076985624 0.587052352
990000500.0 0.158350336 0.547210304
1000000000.0 0.237355616 0.507248448
