! Created with skrf 1.8.0 (http://scikit-rf.org).
# Hz S RI R 50.0 
!freq ReS11 ImS11
50000.0 0.996607936 0.001197235
15049500.0 0.939488448 0.360271328
30049000.0 0.749935552 0.67264896
45048500.0 0.461750752 0.892147328
60048000.0 0.103198056 1.013588548
75047500.0 -0.273446336 0.987897664
90047000.0 -0.619185152 0.819935808
105046500.0 -0.890967488 0.546004288
120046000.0 -1.041695116 0.18537576
135045500.0 -1.044400452 -0.209024192
150045000.0 -0.914612416 -0.585313536
165044500.0 -0.648444672 -0.884269632
180044000.0 -0.314634816 -1.04420662
195043500.0 0.06401346 -1.101162552
210043000.0 0.434243904 -1.021978856
225042500.0 0.75216864 -0.82218784
240042000.0 0.994132224 -0.540379712
255041500.0 1.136026496 -0.188505536
270041000.0 1.151313904 0.221261072
285040500.0 1.02267325 0.632562368
300040000.0 0.684819456 0.956992128
315039500.0 0.319661216 1.19395816
330039000.0 -0.13851928 1.258579616
345038500.0 -0.595941696 1.142288688
360038000.0 -0.967229504 0.873105664
375037500.0 -1.256729968 0.475094496
390037000.0 -1.380502464 -0.0040065
405036500.0 -1.291112064 -0.517320096
420036000.0 -1.03612268 -0.96610816
435035500.0 -0.631055104 -1.268546816
450035000.0 -0.158110592 -1.406988384
465034500.0 0.301519328 -1.377905248
480034000.0 0.730246336 -1.213304992
495033500.0 1.073827032 -0.919894656
510033000.0 1.315894016 -0.526210912
525032500.0 1.408921728 -0.067849976
540032000.0 1.360423456 0.384113088
555031500.0 1.15521384 0.80032512
570031000.0 0.814297728 1.110471488
585030500.0 0.396415392 1.289999232
600030000.0 -0.054658764 1.338964
615029500.0 -0.49998448 1.221670992
630029000.0 -0.875662016 0.962374144
645028500.0 -1.168699504 0.582261632
660028000.0 -1.306608448 0.102117736
675027500.0 -1.26477552 -0.393775264
690027000.0 -1.014495016 -0.870601408
705026500.0 -0.603272576 -1.166432736
720026000.0 -0.142593168 -1.268275984
735025500.0 0.31479824 -1.212121728
750025000.0 0.709992384 -0.996659328
765024500.0 1.000288963 -0.656699584
780024000.0 1.135403632 -0.221640304
795023500.0 1.100201728 0.214670656
810023000.0 0.864152448 0.552350848
825022500.0 0.558438976 0.735384896
840022000.0 0.278393504 0.781239936
855021500.0 0.056292044 0.759144576
870021000.0 -0.127351152 0.733952448
885020500.0 -0.294600384 0.7169952
900020000.0 -0.519953024 0.740814784
915019500.0 -0.497608384 0.743677248
930019000.0 -0.48929728 0.745132224
945018500.0 -0.471889152 0.741318464
960018000.0 -0.448387072 0.753920768
975017500.0 -0.429250976 0.747202624
990017000.0 -0.419515936 0.75974336
1005016500.0 -0.39474 0.766820224
1020016000.0 -0.361948128 0.778674048
1035015500.0 -0.362342656 0.785977152
1050015000.0 -0.340976864 0.763150912
1065014500.0 -0.308835008 0.784210432
1080014000.0 -0.292563328 0.796037824
1095013500.0 -0.262756176 0.81093152
1110013000.0 -0.237534288 0.8078048
1125012500.0 -0.224137408 0.794723648
1140012000.0 -0.179102416 0.814673728
1155011500.0 -0.13533472 0.815820096
1170011000.0 -0.129482808 0.804118528
1185010500.0 -0.098802128 0.817964352
1200010000.0 -0.071853936 0.815502272
1215009500.0 -0.037864936 0.814041344
1230009000.0 -0.004021309 0.816547136
1245008500.0 0.01967351 0.823164032
1260008000.0 0.066641324 0.823736256
1275007500.0 0.094596552 0.812448064
1290007000.0 0.121728008 0.809714752
1305006500.0 0.141470096 0.80966752
1320006000.0 0.178253536 0.796549376
1335005500.0 0.20692952 0.788437824
1350005000.0 0.247007168 0.77647584
1365004500.0 0.333560928 0.8157968
1380004000.0 0.286617024 0.762570176
1395003500.0 0.347838784 0.747740672
1410003000.0 0.355209184 0.72134528
1425002500.0 0.36597664 0.692248256
1440002000.0 0.41357776 0.680312
1455001500.0 0.429342464 0.675948416
1470001000.0 0.436599808 0.669348608
1485000500.0 0.46248336 0.643636672
1500000000.0 0.485364 0.62131104
