! Created with skrf 1.8.0 (http://scikit-rf.org).
# Hz S RI R 50.0 
!freq ReS11 ImS11
50000.0 -0.006711646 -0.004007049
15049500.0 -0.001722038 0.005051013
30049000.0 -0.004918263 0.007225666
45048500.0 -0.010467432 0.00752876
60048000.0 -0.017287182 0.005210226
75047500.0 -0.024170328 0.000741264
90047000.0 -0.03025485 -0.006321596
105046500.0 -0.034256296 -0.014133992
120046000.0 -0.035603 -0.022094802
135045500.0 -0.033809716 -0.029128318
150045000.0 -0.03013618 -0.034699312
165044500.0 -0.024264982 -0.037429108
180044000.0 -0.01838424 -0.0346685
195043500.0 -0.013083448 -0.030465736
210043000.0 -0.009716658 -0.023201436
225042500.0 -0.00907157 -0.014385322
240042000.0 -0.01201259 -0.005633087
255041500.0 -0.018083676 0.001250807
270041000.0 -0.026427096 0.004032833
285040500.0 -0.035415168 0.002429719
300040000.0 -0.041264932 -0.004530019
315039500.0 -0.047098012 -0.014815062
330039000.0 -0.045051196 -0.03093223
345038500.0 -0.034214276 -0.047824776
360038000.0 -0.015897322 -0.063126488
375037500.0 0.010592016 -0.075060848
390037000.0 0.043237644 -0.078544288
405036500.0 0.081113968 -0.074262448
420036000.0 0.1204274 -0.058835744
435035500.0 0.155426208 -0.034181788
450035000.0 0.183143152 0.000837519
465034500.0 0.202157968 0.042999896
480034000.0 0.206940944 0.089737792
495033500.0 0.196006144 0.132381696
510033000.0 0.17551304 0.17001056
525032500.0 0.142025136 0.1961308
540032000.0 0.097340808 0.202094096
555031500.0 0.06225458 0.194420864
570031000.0 0.032222622 0.170653888
585030500.0 0.010970342 0.133658808
600030000.0 -3.1207e-05 0.09193804
615029500.0 0.006411013 0.043744772
630029000.0 0.028612146 -0.002515167
645028500.0 0.064537712 -0.036930548
660028000.0 0.110357024 -0.060723776
675027500.0 0.156917392 -0.069740984
690027000.0 0.203966448 -0.062620708
705026500.0 0.241866512 -0.039266192
720026000.0 0.268309744 0.001246751
735025500.0 0.281145856 0.05600612
750025000.0 0.270615968 0.113367016
765024500.0 0.231744128 0.172422016
780024000.0 0.16228472 0.21105872
795023500.0 0.075079808 0.222209072
810023000.0 -0.009100188 0.187289264
825022500.0 -0.077155088 0.136511632
840022000.0 -0.121067784 0.060994676
855021500.0 -0.14553064 -0.019769502
870021000.0 -0.16306488 -0.108895696
885020500.0 -0.167818608 -0.213503008
900020000.0 -0.15975488 -0.34306896
915019500.0 -0.208010336 -0.356119808
930019000.0 -0.258492384 -0.349009056
945018500.0 -0.309645824 -0.314125792
960018000.0 -0.34893392 -0.271201568
975017500.0 -0.362530784 -0.217253904
990017000.0 -0.360903744 -0.155353232
1005016500.0 -0.335191712 -0.089696056
1020016000.0 -0.300904256 -0.042724624
1035015500.0 -0.25117984 -0.008330144
1050015000.0 -0.195980496 -0.000925523
1065014500.0 -0.143414384 -0.010226614
1080014000.0 -0.093104784 -0.02677851
1095013500.0 -0.054879204 -0.06152344
1110013000.0 -0.043014608 -0.09085264
1125012500.0 -0.029829532 -0.13787256
1140012000.0 -0.050629344 -0.163993616
1155011500.0 -0.084646472 -0.187698048
1170011000.0 -0.1153232 -0.1970512
1185010500.0 -0.137123456 -0.188902256
1200010000.0 -0.163311936 -0.13417232
1215009500.0 -0.173746016 -0.104391504
1230009000.0 -0.150040816 -0.05407844
1245008500.0 -0.118972536 -0.033886244
1260008000.0 -0.068746672 -0.034736036
1275007500.0 -0.041045388 -0.017532888
1290007000.0 0.007379813 -0.032178164
1305006500.0 0.030241894 -0.058232664
1320006000.0 0.023977336 -0.090146128
1335005500.0 0.011566286 -0.117879728
1350005000.0 0.000719242 -0.150971056
1365004500.0 -0.022328492 -0.174227488
1380004000.0 -0.091038416 -0.144013472
1395003500.0 -0.136751824 -0.11869508
1410003000.0 -0.149533344 -0.049865248
1425002500.0 -0.109758 -0.000878553
1440002000.0 -0.127016872 0.061701392
1455001500.0 -0.056632328 0.133379016
1470001000.0 0.01157067 0.123987816
1485000500.0 0.039913084 0.148070144
1500000000.0 0.144812144 0.137022496
