! Created with skrf 1.8.0 (http://scikit-rf.org).
# Hz S RI R 50.0 
!freq ReS11 ImS11
50000.0 0.519187331199646 0.17875029146671295
30049500.0 0.6098373532295227 -0.8272704482078552
60049000.0 -0.2626620829105377 -0.9488590955734253
90048500.0 -0.8751818537712097 -0.3944343030452728
120048000.0 -0.8667294979095459 0.4309203326702118
150047500.0 -0.23048171401023865 0.9583691954612732
180047000.0 0.6795327067375183 0.7773646116256714
210046500.0 1.0292627811431885 -0.09391219913959503
240046000.0 0.5477495193481445 -0.8431679606437683
270045500.0 -0.29297298192977905 -0.9361952543258667
300045000.0 -0.9032516479492188 -0.3695652186870575
330044500.0 -0.8564777374267578 0.4899391829967499
360044000.0 -0.1265335977077484 0.9914331436157227
390043500.0 0.7304815053939819 0.6992965936660767
420043000.0 1.0107438564300537 -0.15516121685504913
450042500.0 0.513707160949707 -0.8939115405082703
480042000.0 -0.3796223998069763 -0.952363908290863
510041500.0 -0.9634122252464294 -0.27955877780914307
540041000.0 -0.7864358425140381 0.5716582536697388
570040500.0 -0.03717626631259918 0.9539656639099121
600040000.0 0.7310259938240051 0.6359474062919617
630039500.0 0.9922869205474854 -0.18573172390460968
660039000.0 0.46987807750701904 -0.9230108261108398
690038500.0 -0.45147690176963806 -0.9115536212921143
720038000.0 -0.9393240213394165 -0.18468864262104034
750037500.0 -0.6881610751152039 0.5831756591796875
780037000.0 0.010229948908090591 0.893001914024353
810036500.0 0.7233651280403137 0.5854133367538452
840036000.0 0.9587286114692688 -0.21723899245262146
870035500.0 0.40075257420539856 -0.9049577116966248
900035000.0 -0.43341752886772156 -0.8289517164230347
930034500.0 -0.8521597981452942 -0.19068530201911926
960034000.0 -0.6673410534858704 0.5263423919677734
990033500.0 0.009505856782197952 0.8735371232032776
1020033000.0 0.744831919670105 0.5464493036270142
1050032500.0 0.9080913066864014 -0.2603234052658081
1080032000.0 0.3801119327545166 -0.8425950407981873
1110031500.0 -0.3602079153060913 -0.8152672052383423
1140031000.0 -0.8318976163864136 -0.2545780539512634
1170030500.0 -0.7041941285133362 0.5137220025062561
1200030000.0 0.039207883179187775 0.8901078104972839
1230029500.0 0.7768182754516602 0.47290298342704773
1260029000.0 0.8603729605674744 -0.3015647232532501
1290028500.0 0.3524709641933441 -0.833449125289917
1320028000.0 -0.35429948568344116 -0.8232331871986389
1350027500.0 -0.8472354412078857 -0.25640180706977844
1380027000.0 -0.6876230239868164 0.5422050356864929
1410026500.0 0.10986886918544769 0.8664447665214539
1440026000.0 0.7903469800949097 0.3842620849609375
1470025500.0 0.8015116453170776 -0.38722750544548035
1500025000.0 0.270611971616745 -0.8567932844161987
1530024500.0 -0.43330803513526917 -0.7735468149185181
1560024000.0 -0.8452911376953125 -0.20127740502357483
1590023500.0 -0.6426665186882019 0.5460841059684753
1620023000.0 0.12812796235084534 0.8202548027038574
1650022500.0 0.7832385897636414 0.31063276529312134
1680022000.0 0.7340857982635498 -0.45630618929862976
1710021500.0 0.1341693252325058 -0.8536630272865295
1740021000.0 -0.5175392031669617 -0.6714176535606384
1770020500.0 -0.8028353452682495 -0.08758676052093506
1800020000.0 -0.5418921113014221 0.5558550357818604
1830019500.0 0.17191040515899658 0.7631101012229919
1860019000.0 0.771578848361969 0.26178890466690063
1890018500.0 0.6643230319023132 -0.4952334761619568
1920018000.0 0.05294504016637802 -0.808940052986145
1950017500.0 -0.5277113318443298 -0.5749428868293762
1980017000.0 -0.7554426789283752 -0.022095439955592155
2010016500.0 -0.5016336441040039 0.569721519947052
2040016000.0 0.24266107380390167 0.7460044622421265
2070015500.0 0.787562906742096 0.16326755285263062
2100015000.0 0.5729233026504517 -0.5534412264823914
2130014500.0 -0.04234067723155022 -0.7790606617927551
2160014000.0 -0.5666693449020386 -0.5301414728164673
2190013500.0 -0.7796926498413086 0.05129893124103546
2220013000.0 -0.4516434669494629 0.6674006581306458
2250012500.0 0.37427467107772827 0.7244565486907959
2280012000.0 0.7891162037849426 0.07647286355495453
2310011500.0 0.5564253926277161 -0.5560780763626099
2340011000.0 -0.005900301039218903 -0.7922576665878296
2370010500.0 -0.6041433215141296 -0.5391547679901123
2400010000.0 -0.811706006526947 0.11996281147003174
2430009500.0 -0.3284682631492615 0.7597696185112
2460009000.0 0.4935702681541443 0.6332030296325684
2490008500.0 0.7891524434089661 -0.06511283665895462
2520008000.0 0.5193182229995728 -0.6088542938232422
2550007500.0 -0.06237576901912689 -0.8279787302017212
2580007000.0 -0.6704053282737732 -0.5398600101470947
2610006500.0 -0.8509960174560547 0.20145106315612793
2640006000.0 -0.19271400570869446 0.8052966594696045
2670005500.0 0.5813941955566406 0.5262656807899475
2700005000.0 0.768674373626709 -0.17274050414562225
2730004500.0 0.438479483127594 -0.703662097454071
2760004000.0 -0.13280120491981506 -0.8621004223823547
2790003500.0 -0.7226115465164185 -0.541978657245636
2820003000.0 -0.8580548167228699 0.2032434344291687
2850002500.0 -0.21786651015281677 0.7842141389846802
2880002000.0 0.5727002024650574 0.5017832517623901
2910001500.0 0.7420436143875122 -0.23997744917869568
2940001000.0 0.3501001000404358 -0.7495635151863098
2970000500.0 -0.2075735628604889 -0.867156982421875
3000000000.0 -0.7397907972335815 -0.5420888066291809
