! Created with skrf 1.8.0 (http://scikit-rf.org).
# Hz S RI R 50.0 
!freq ReS11 ImS11
50000.0 0.996677632 0.000891404
15049500.0 0.9393408 0.360659008
30049000.0 0.749456704 0.672378944
45048500.0 0.461623712 0.891913984
60048000.0 0.10332252 1.012979032
75047500.0 -0.273185824 0.987621632
90047000.0 -0.61868224 0.819669696
105046500.0 -0.8905456 0.545654976
120046000.0 -1.041276456 0.185470688
135045500.0 -1.046263696 -0.208964768
150045000.0 -0.914056064 -0.585243136
165044500.0 -0.64777152 -0.883631936
180044000.0 -0.315019424 -1.043372512
195043500.0 0.062831072 -1.10049176
210043000.0 0.43328048 -1.021693944
225042500.0 0.750262144 -0.821877824
240042000.0 0.99334144 -0.540743424
255041500.0 1.134551168 -0.188694672
270041000.0 1.150109888 0.220299648
285040500.0 1.021503926 0.63164288
300040000.0 0.688735552 0.956142144
315039500.0 0.319810848 1.191422816
330039000.0 -0.136853168 1.25619256
345038500.0 -0.594246144 1.140223024
360038000.0 -0.9669904 0.873865856
375037500.0 -1.252514128 0.4783912
390037000.0 -1.352491008 -0.012327032
405036500.0 -1.290155168 -0.51244736
420036000.0 -1.034993052 -0.961693632
435035500.0 -0.630785728 -1.269612064
450035000.0 -0.160208016 -1.387776384
465034500.0 0.29794448 -1.376605856
480034000.0 0.726527936 -1.215285664
495033500.0 1.07050204 -0.918873472
510033000.0 1.309722912 -0.527095808
525032500.0 1.40556432 -0.071432816
540032000.0 1.357228864 0.382897152
555031500.0 1.153909568 0.797972096
570031000.0 0.812227776 1.111778616
585030500.0 0.397408384 1.283439872
600030000.0 -0.04662156 1.339191808
615029500.0 -0.498696864 1.22223056
630029000.0 -0.870048768 0.95788672
645028500.0 -1.162773728 0.578418368
660028000.0 -1.306913728 0.100218752
675027500.0 -1.255480416 -0.39211824
690027000.0 -1.010371686 -0.861655808
705026500.0 -0.600103168 -1.16709304
720026000.0 -0.13133596 -1.263002512
735025500.0 0.317039904 -1.208969232
750025000.0 0.709698176 -0.99250656
765024500.0 1.002951503 -0.656149312
780024000.0 1.134837632 -0.252072448
795023500.0 1.101725224 0.213095856
810023000.0 0.857911488 0.554579456
825022500.0 0.555608896 0.737183424
840022000.0 0.2714184 0.779365952
855021500.0 0.05616626 0.7591936
870021000.0 -0.127968744 0.734063616
885020500.0 -0.301827008 0.724214592
900020000.0 -0.530446528 0.738912832
915019500.0 -0.508741184 0.73877248
930019000.0 -0.489689024 0.741970688
945018500.0 -0.471804128 0.745627712
960018000.0 -0.462625664 0.751092352
975017500.0 -0.435787808 0.763019584
990017000.0 -0.419033024 0.758857152
1005016500.0 -0.401713472 0.767745088
1020016000.0 -0.396520768 0.769524032
1035015500.0 -0.358443936 0.783528
1050015000.0 -0.331611072 0.819322368
1065014500.0 -0.318961568 0.797435456
1080014000.0 -0.287260832 0.80091456
1095013500.0 -0.26990416 0.808893504
1110013000.0 -0.232617248 0.822547328
1125012500.0 -0.221891008 0.795751424
1140012000.0 -0.185747776 0.821210816
1155011500.0 -0.140108176 0.804466048
1170011000.0 -0.123529576 0.847110912
1185010500.0 -0.094972072 0.828916224
1200010000.0 -0.073724656 0.823447936
1215009500.0 -0.045785768 0.82939904
1230009000.0 -0.01067533 0.832096192
1245008500.0 0.024040408 0.831393728
1260008000.0 0.053755468 0.843425344
1275007500.0 0.09129656 0.82686528
1290007000.0 0.12189488 0.824601536
1305006500.0 0.159551488 0.816992256
1320006000.0 0.165682192 0.818491136
1335005500.0 0.208016944 0.807011136
1350005000.0 0.24727088 0.784287872
1365004500.0 0.25238704 0.74021088
1380004000.0 0.297365888 0.765036928
1395003500.0 0.32662992 0.765470592
1410003000.0 0.340284064 0.730472768
1425002500.0 0.353821536 0.726831872
1440002000.0 0.382895712 0.70857184
1455001500.0 0.413241792 0.640795456
1470001000.0 0.413006656 0.660080832
1485000500.0 0.452872064 0.65129248
1500000000.0 0.47661968 0.61764352
