! Created with skrf 1.8.0 (http://scikit-rf.org).
# Hz S RI R 50.0 
!freq ReS11 ImS11
50000.0 0.996355712 -0.000744757
9049500.0 0.98692192 -0.135552384
18049000.0 0.958125888 -0.26606232
27048500.0 0.912730496 -0.391406464
36048000.0 0.851532096 -0.509372768
45047500.0 0.773580544 -0.61980256
54047000.0 0.683173312 -0.716458688
63046500.0 0.58045472 -0.800590976
72046000.0 0.466964096 -0.868925696
81045500.0 0.341582432 -0.922193152
90045000.0 0.203065168 -0.961091264
99044500.0 0.068313712 -0.978891072
108044000.0 -0.06491434 -0.977613056
117043500.0 -0.199417232 -0.957134272
126043000.0 -0.328835104 -0.917823232
135042500.0 -0.452379584 -0.86170752
144042000.0 -0.565943424 -0.787963712
153041500.0 -0.668756864 -0.698793152
162041000.0 -0.75781632 -0.597704512
171040500.0 -0.83117248 -0.48462272
180040000.0 -0.888825088 -0.362879264
189039500.0 -0.92891424 -0.234742464
198039000.0 -0.95106048 -0.102535336
207038500.0 -0.953887488 0.029761562
216038000.0 -0.93986048 0.160327072
225037500.0 -0.907268672 0.287483616
234037000.0 -0.858840704 0.407716672
243036500.0 -0.793132544 0.521034464
252036000.0 -0.71560768 0.623580416
261035500.0 -0.624318208 0.713214464
270035000.0 -0.523033728 0.790543104
279034500.0 -0.411921824 0.8524144
288034000.0 -0.297447552 0.900099392
297033500.0 -0.17489008 0.931642624
306033000.0 -0.061757264 0.944476672
315032500.0 0.064269176 0.951655168
324032000.0 0.186758704 0.931804736
333031500.0 0.305298912 0.900219648
342031000.0 0.418743008 0.85342912
351030500.0 0.524804128 0.794656512
360030000.0 0.623432064 0.720937792
369029500.0 0.709823552 0.636968256
378029000.0 0.783535296 0.542332736
387028500.0 0.844746048 0.437812608
396028000.0 0.895217024 0.3257048
405027500.0 0.924676864 0.209303584
414027000.0 0.941585856 0.089812712
423026500.0 0.938844352 -0.03566094
432026000.0 0.915465984 -0.162409056
441025500.0 0.882308672 -0.280661792
450025000.0 0.82604096 -0.401661536
459024500.0 0.757712704 -0.516969632
468024000.0 0.677768064 -0.610046016
477023500.0 0.582885248 -0.696175168
486023000.0 0.474282752 -0.771590016
495022500.0 0.362225472 -0.826583552
504022000.0 0.245964496 -0.877423744
513021500.0 0.113349416 -0.89607232
522021000.0 -0.015212674 -0.901289856
531020500.0 -0.145886064 -0.88925184
540020000.0 -0.2737176 -0.85743456
549019500.0 -0.395870848 -0.808945984
558019000.0 -0.507660256 -0.743358464
567018500.0 -0.611728064 -0.659630528
576018000.0 -0.70261728 -0.564942336
585017500.0 -0.777513344 -0.460303328
594017000.0 -0.829624384 -0.338809792
603016500.0 -0.865998144 -0.215490864
612016000.0 -0.889460032 -0.090048848
621015500.0 -0.895359168 0.036296
630015000.0 -0.879818112 0.160952704
639014500.0 -0.855799808 0.282289504
648014000.0 -0.808665984 0.398508512
657013500.0 -0.749444032 0.505190784
666013000.0 -0.674560576 0.608515712
675012500.0 -0.586662656 0.695381056
684012000.0 -0.4897192 0.76760032
693011500.0 -0.386061952 0.828943168
702011000.0 -0.270919904 0.87316896
711010500.0 -0.156727312 0.9031424
720010000.0 -0.03692536 0.921381184
729009500.0 0.08276584 0.915883456
738009000.0 0.200110016 0.898476096
747008500.0 0.312291104 0.8666704
756008000.0 0.422186464 0.820431552
765007500.0 0.518631392 0.755325952
774007000.0 0.607927232 0.681251008
783006500.0 0.693926464 0.600313472
792006000.0 0.763631936 0.505672512
801005500.0 0.825142976 0.401399072
810005000.0 0.860632576 0.29823408
819004500.0 0.89141664 0.186506736
828004000.0 0.9080496 0.06631662
837003500.0 0.904933248 -0.052664464
846003000.0 0.896054656 -0.16632216
855002500.0 0.860491008 -0.28406352
864002000.0 0.81572992 -0.397289888
873001500.0 0.754143744 -0.503884736
882001000.0 0.682219328 -0.604223552
891000500.0 0.58675744 -0.689763136
900000000.0 0.485774528 -0.760814656
