! Created with skrf 1.8.0 (http://scikit-rf.org).
# Hz S RI R 50.0 
!freq ReS11 ImS11
50000.0 0.99670944 0.000589534
15049500.0 0.939482816 0.360656928
30049000.0 0.749239232 0.672495616
45048500.0 0.461430144 0.891584128
60048000.0 0.103228168 1.012961508
75047500.0 -0.273187232 0.987506432
90047000.0 -0.618610368 0.819335552
105046500.0 -0.890428224 0.545898304
120046000.0 -1.040934324 0.185237984
135045500.0 -1.044073104 -0.208693648
150045000.0 -0.914502592 -0.585224
165044500.0 -0.648377408 -0.88368544
180044000.0 -0.314724192 -1.042845128
195043500.0 0.062939124 -1.100423096
210043000.0 0.433084256 -1.02210021
225042500.0 0.749918144 -0.821468032
240042000.0 0.993477312 -0.54113824
255041500.0 1.135145184 -0.189239552
270041000.0 1.150155664 0.21977576
285040500.0 1.023207306 0.632330688
300040000.0 0.686777536 0.956375744
315039500.0 0.319866816 1.192469712
330039000.0 -0.141769872 1.254218576
345038500.0 -0.593110208 1.139634848
360038000.0 -0.965251968 0.870715072
375037500.0 -1.253480672 0.475901728
390037000.0 -1.359409088 -0.009576658
405036500.0 -1.291007872 -0.517644928
420036000.0 -1.034525992 -0.962964736
435035500.0 -0.630335296 -1.266093248
450035000.0 -0.174927168 -1.395165088
465034500.0 0.300552096 -1.377430912
480034000.0 0.723908416 -1.210444448
495033500.0 1.071789864 -0.917181696
510033000.0 1.31481504 -0.5304768
525032500.0 1.401375168 -0.069237792
540032000.0 1.356054432 0.381536288
555031500.0 1.150656944 0.796086656
570031000.0 0.815128576 1.112479688
585030500.0 0.397211008 1.281778336
600030000.0 -0.05116076 1.341902496
615029500.0 -0.49835712 1.221534128
630029000.0 -0.874008064 0.959983808
645028500.0 -1.161721472 0.582404032
660028000.0 -1.306033024 0.110359224
675027500.0 -1.262789248 -0.395690592
690027000.0 -1.013344766 -0.866028672
705026500.0 -0.607560768 -1.164981488
720026000.0 -0.135217712 -1.268149488
735025500.0 0.319276608 -1.210912592
750025000.0 0.707556672 -0.989832704
765024500.0 1.003567577 -0.651814272
780024000.0 1.1340512 -0.222481056
795023500.0 1.098153952 0.215275728
810023000.0 0.865894528 0.550395584
825022500.0 0.557627008 0.735686016
840022000.0 0.274130976 0.781931392
855021500.0 0.057642748 0.760401408
870021000.0 -0.130810352 0.73325312
885020500.0 -0.298906592 0.720546688
900020000.0 -0.5259272 0.741187072
915019500.0 -0.509837856 0.741490176
930019000.0 -0.493597568 0.742406976
945018500.0 -0.473269824 0.74671264
960018000.0 -0.463269056 0.747787264
975017500.0 -0.44789584 0.752896512
990017000.0 -0.4193296 0.756657152
1005016500.0 -0.399558816 0.77032
1020016000.0 -0.384917312 0.772496448
1035015500.0 -0.354325984 0.785987584
1050015000.0 -0.372129536 0.792900736
1065014500.0 -0.310996352 0.796771584
1080014000.0 -0.292096352 0.808461696
1095013500.0 -0.266665424 0.814085312
1110013000.0 -0.22874536 0.82349632
1125012500.0 -0.22190664 0.805326592
1140012000.0 -0.180776896 0.819722816
1155011500.0 -0.148224384 0.849440896
1170011000.0 -0.13746416 0.81137952
1185010500.0 -0.094742472 0.825864704
1200010000.0 -0.064624844 0.823714304
1215009500.0 -0.029429236 0.8198128
1230009000.0 0.00105071 0.825827392
1245008500.0 0.0166776 0.834924096
1260008000.0 0.060246604 0.83463808
1275007500.0 0.089674128 0.837902656
1290007000.0 0.106384104 0.812873024
1305006500.0 0.154930816 0.80935776
1320006000.0 0.184747824 0.801955712
1335005500.0 0.212142416 0.804337664
1350005000.0 0.252127312 0.791463808
1365004500.0 0.270706496 0.762308864
1380004000.0 0.296617984 0.775598912
1395003500.0 0.329554304 0.750832128
1410003000.0 0.344265728 0.73836768
1425002500.0 0.37717616 0.720139712
1440002000.0 0.385442688 0.696018432
1455001500.0 0.410187904 0.681058176
1470001000.0 0.418361056 0.670816
1485000500.0 0.465520128 0.6687856
1500000000.0 0.440997408 0.618258432
