! Created with skrf 1.8.0 (http://scikit-rf.org).
# Hz S RI R 50.0 
!freq ReS11 ImS11
50000.0 0.996507072 0.001262222
15049500.0 0.939433664 0.360144512
30049000.0 0.749843072 0.67258048
45048500.0 0.4613856 0.891909568
60048000.0 0.103174936 1.01348889
75047500.0 -0.273387392 0.988071552
90047000.0 -0.619070144 0.819595392
105046500.0 -0.890750784 0.54577984
120046000.0 -1.04177046 0.185377168
135045500.0 -1.044087768 -0.208631856
150045000.0 -0.914587136 -0.585393536
165044500.0 -0.6479072 -0.884112
180044000.0 -0.314482016 -1.044329048
195043500.0 0.0635698 -1.101196888
210043000.0 0.434036832 -1.022120238
225042500.0 0.751647232 -0.821814144
240042000.0 0.99406752 -0.540855232
255041500.0 1.135596864 -0.188552624
270041000.0 1.150038592 0.220566208
285040500.0 1.022646666 0.632811648
300040000.0 0.689485376 0.959156288
315039500.0 0.319306048 1.19013024
330039000.0 -0.137544352 1.255848768
345038500.0 -0.59404864 1.139148112
360038000.0 -0.966795136 0.87497632
375037500.0 -1.24867976 0.473722272
390037000.0 -1.365197056 -0.011695746
405036500.0 -1.28850544 -0.519226304
420036000.0 -1.036392688 -0.963937792
435035500.0 -0.63285056 -1.269094336
450035000.0 -0.164935968 -1.406354656
465034500.0 0.300853056 -1.380144224
480034000.0 0.728741952 -1.210887904
495033500.0 1.074448112 -0.91916544
510033000.0 1.319066272 -0.531220864
525032500.0 1.405229696 -0.066418364
540032000.0 1.359289888 0.386801888
555031500.0 1.155305264 0.798351232
570031000.0 0.812345536 1.109060408
585030500.0 0.402092672 1.290828928
600030000.0 -0.052072752 1.342168448
615029500.0 -0.494776128 1.225477344
630029000.0 -0.8760912 0.964905856
645028500.0 -1.166264288 0.579793984
660028000.0 -1.307441952 0.107358608
675027500.0 -1.267190336 -0.394528416
690027000.0 -1.017018556 -0.862985344
705026500.0 -0.609865216 -1.167873376
720026000.0 -0.134390352 -1.272494784
735025500.0 0.318098976 -1.206270464
750025000.0 0.702120128 -1.001328111
765024500.0 1.002191782 -0.657747072
780024000.0 1.138727792 -0.22091312
795023500.0 1.103018048 0.211585008
810023000.0 0.862173888 0.556092672
825022500.0 0.558918656 0.738654464
840022000.0 0.277546848 0.779365056
855021500.0 0.054920944 0.762279168
870021000.0 -0.12688248 0.736351872
885020500.0 -0.3022832 0.719896
900020000.0 -0.534056128 0.737165696
915019500.0 -0.508426496 0.735035712
930019000.0 -0.488203264 0.742369344
945018500.0 -0.472492544 0.739546112
960018000.0 -0.452109152 0.746521856
975017500.0 -0.437717536 0.75816768
990017000.0 -0.418086112 0.760402304
1005016500.0 -0.408067872 0.764643584
1020016000.0 -0.36481104 0.774833856
1035015500.0 -0.359274016 0.780977344
1050015000.0 -0.3321088 0.810916992
1065014500.0 -0.307562048 0.790803392
1080014000.0 -0.291743936 0.797152192
1095013500.0 -0.265598064 0.808331712
1110013000.0 -0.233013312 0.812615296
1125012500.0 -0.21932264 0.799542528
1140012000.0 -0.185337312 0.803172416
1155011500.0 -0.171620736 0.824006272
1170011000.0 -0.122070872 0.807814848
1185010500.0 -0.10025384 0.807909888
1200010000.0 -0.070392304 0.82024256
1215009500.0 -0.046358852 0.825734144
1230009000.0 -0.01434853 0.824160512
1245008500.0 0.012781154 0.819829952
1260008000.0 0.043524868 0.828400832
1275007500.0 0.092469536 0.81839136
1290007000.0 0.125496176 0.822924992
1305006500.0 0.151155248 0.799269824
1320006000.0 0.187392096 0.805085824
1335005500.0 0.223794896 0.790113344
1350005000.0 0.24390144 0.77634272
1365004500.0 0.274160032 0.72900128
1380004000.0 0.287292992 0.749476224
1395003500.0 0.315158432 0.734403456
1410003000.0 0.34644064 0.739084288
1425002500.0 0.372630048 0.700728448
1440002000.0 0.411823296 0.690593472
1455001500.0 0.418164864 0.661963584
1470001000.0 0.459141056 0.670511104
1485000500.0 0.456374976 0.640695296
1500000000.0 0.484197632 0.630916032
