! Created with skrf 1.8.0 (http://scikit-rf.org).
# Hz S RI R 50.0 
!freq ReS11 ImS11
50000.0 0.5185801386833191 0.1790240854024887
30049500.0 0.608924925327301 -0.82786625623703
60049000.0 -0.2647353410720825 -0.9486075639724731
90048500.0 -0.8764354586601257 -0.39224758744239807
120048000.0 -0.8665547370910645 0.4337517023086548
150047500.0 -0.23086629807949066 0.9616945385932922
180047000.0 0.6837237477302551 0.7743942141532898
210046500.0 1.0282821655273438 -0.10101670026779175
240046000.0 0.5392451286315918 -0.8476402759552002
270045500.0 -0.29880768060684204 -0.9342442154884338
300045000.0 -0.90611332654953 -0.36059099435806274
330044500.0 -0.8514883518218994 0.4971252381801605
360044000.0 -0.11261340230703354 0.9944766759872437
390043500.0 0.7403465509414673 0.6918918490409851
420043000.0 1.0103082656860352 -0.16386693716049194
450042500.0 0.49948909878730774 -0.9010702967643738
480042000.0 -0.39573973417282104 -0.9454003572463989
510041500.0 -0.968296229839325 -0.2610625922679901
540041000.0 -0.7777414917945862 0.5845324397087097
570040500.0 -0.013708434998989105 0.9553592801094055
600040000.0 0.7460666298866272 0.620917558670044
630039500.0 0.987844705581665 -0.20792658627033234
660039000.0 0.4470285475254059 -0.9358669519424438
690038500.0 -0.4792773723602295 -0.8958045244216919
720038000.0 -0.9409650564193726 -0.1586771011352539
750037500.0 -0.6714534163475037 0.6002014875411987
780037000.0 0.030165620148181915 0.8928940892219543
810036500.0 0.7427220344543457 0.5644786357879639
840036000.0 0.9505380988121033 -0.2546795606613159
870035500.0 0.38338589668273926 -0.9108549952507019
900035000.0 -0.4567134380340576 -0.8122655749320984
930034500.0 -0.8582449555397034 -0.15681637823581696
960034000.0 -0.6504913568496704 0.5453975796699524
990033500.0 0.028817463666200638 0.874945342540741
1020033000.0 0.7634234428405762 0.5212404131889343
1050032500.0 0.8991125226020813 -0.2900959849357605
1080032000.0 0.35049208998680115 -0.8554813265800476
1110031500.0 -0.3872622847557068 -0.8016412854194641
1140031000.0 -0.8377129435539246 -0.22974491119384766
1170030500.0 -0.6795791387557983 0.5446429252624512
1200030000.0 0.07248257100582123 0.8882834315299988
1230029500.0 0.7922963500022888 0.4480137228965759
1260029000.0 0.8483940958976746 -0.33899185061454773
1290028500.0 0.3281841278076172 -0.8431699275970459
1320028000.0 -0.3953569531440735 -0.802743673324585
1350027500.0 -0.8554160594940186 -0.22210808098316193
1380027000.0 -0.6592032313346863 0.5783804655075073
1410026500.0 0.16391633450984955 0.8585621118545532
1440026000.0 0.8103970289230347 0.34520354866981506
1470025500.0 0.7817317843437195 -0.4283673167228699
1500025000.0 0.23000964522361755 -0.8704872727394104
1530024500.0 -0.4557066559791565 -0.7641963362693787
1560024000.0 -0.855400025844574 -0.1426200419664383
1590023500.0 -0.6085038185119629 0.5817686915397644
1620023000.0 0.18783390522003174 0.8095376491546631
1650022500.0 0.8020784854888916 0.26815828680992126
1680022000.0 0.7123268842697144 -0.49216896295547485
1710021500.0 0.09118074923753738 -0.8657606840133667
1740021000.0 -0.5479500889778137 -0.649343729019165
1770020500.0 -0.8048624992370605 -0.032701410353183746
1800020000.0 -0.5090841054916382 0.5889304280281067
1830019500.0 0.23286330699920654 0.7479049563407898
1860019000.0 0.791193962097168 0.20267856121063232
1890018500.0 0.6196820735931396 -0.5504395365715027
1920018000.0 -0.002864263951778412 -0.8110951781272888
1950017500.0 -0.5727855563163757 -0.52962327003479
1980017000.0 -0.7554882764816284 0.026846695691347122
2010016500.0 -0.4645904302597046 0.599310040473938
2040016000.0 0.3002224266529083 0.7264965176582336
2070015500.0 0.8000481128692627 0.08243109285831451
2100015000.0 0.5298852920532227 -0.5885133743286133
2130014500.0 -0.0716494619846344 -0.7746397256851196
2160014000.0 -0.6023982763290405 -0.48778340220451355
2190013500.0 -0.7733698487281799 0.12249279022216797
2220013000.0 -0.3862568736076355 0.7100556492805481
2250012500.0 0.43899211287498474 0.6818511486053467
2280012000.0 0.7960159778594971 0.013042379170656204
2310011500.0 0.5038160085678101 -0.6055525541305542
2340011000.0 -0.0899563655257225 -0.7913879156112671
2370010500.0 -0.6334530711174011 -0.5097123384475708
2400010000.0 -0.7970256209373474 0.1971500664949417
2430009500.0 -0.24491865932941437 0.790303647518158
2460009000.0 0.5528103113174438 0.5818668603897095
2490008500.0 0.7830793857574463 -0.10054996609687805
2520008000.0 0.4517395496368408 -0.6581534147262573
2550007500.0 -0.12740041315555573 -0.8176014423370361
2580007000.0 -0.7005658149719238 -0.5140994191169739
2610006500.0 -0.8268107771873474 0.2830451428890228
2640006000.0 -0.11889439076185226 0.8145177960395813
2670005500.0 0.6397218704223633 0.4593634307384491
2700005000.0 0.7572586536407471 -0.2216370701789856
2730004500.0 0.38969677686691284 -0.7306742072105408
2760004000.0 -0.19251596927642822 -0.8544878959655762
2790003500.0 -0.7581934332847595 -0.4823239743709564
2820003000.0 -0.8309409022331238 0.29070091247558594
2850002500.0 -0.12426777929067612 0.7991994023323059
2880002000.0 0.6233315467834473 0.432656466960907
2910001500.0 0.7313686609268188 -0.286480575799942
2940001000.0 0.3123663067817688 -0.773429811000824
2970000500.0 -0.2615112364292145 -0.8572034239768982
3000000000.0 -0.7843368649482727 -0.47678354382514954
