! Created with skrf 1.8.0 (http://scikit-rf.org).
# Hz S RI R 50.0 
!freq ReS11 ImS11
55000.0 0.5271420478820801 0.19343538582324982
30054450.0 0.6093382835388184 -0.8271064162254333
60053900.0 -0.26355239748954773 -0.9494776725769043
90053350.0 -0.8754417896270752 -0.39392852783203125
120052800.0 -0.8674468398094177 0.43056848645210266
150052250.0 -0.2293059080839157 0.9590274095535278
180051700.0 0.6804575324058533 0.7761761546134949
210051150.0 1.0292481184005737 -0.09422829002141953
240050600.0 0.5473438501358032 -0.8430278897285461
270050050.0 -0.2911851406097412 -0.9375208020210266
300049500.0 -0.9021745920181274 -0.37253472208976746
330048950.0 -0.8567585945129395 0.48729246854782104
360048400.0 -0.12440872192382812 0.9916722774505615
390047850.0 0.7318390011787415 0.6989695429801941
420047300.0 1.0117383003234863 -0.15348932147026062
450046750.0 0.5130683183670044 -0.8933970928192139
480046200.0 -0.3795965015888214 -0.9539183378219604
510045650.0 -0.9637869596481323 -0.2778376638889313
540045100.0 -0.7895032167434692 0.5688145756721497
570044550.0 -0.03460919111967087 0.956171452999115
600044000.0 0.7325037717819214 0.636786162853241
630043450.0 0.9912782907485962 -0.18971459567546844
660042900.0 0.4669632911682129 -0.9269376397132874
690042350.0 -0.4596345126628876 -0.9080826044082642
720041800.0 -0.9382455348968506 -0.1819312423467636
750041250.0 -0.6927123665809631 0.5784763693809509
780040700.0 0.03408072888851166 0.8936269283294678
810040150.0 0.7395901679992676 0.5669671893119812
840039600.0 0.9491621255874634 -0.25445976853370667
870039050.0 0.37102004885673523 -0.9159563183784485
900038500.0 -0.4622402787208557 -0.8127903342247009
930037950.0 -0.8609421849250793 -0.15095752477645874
960037400.0 -0.6501892805099487 0.5490239262580872
990036850.0 0.024837158620357513 0.8765257596969604
1020036300.0 0.7596814632415771 0.525395929813385
1050035750.0 0.8961529731750488 -0.2930855453014374
1080035200.0 0.35448595881462097 -0.8539185523986816
1110034650.0 -0.3851301372051239 -0.8050488233566284
1140034100.0 -0.8400848507881165 -0.23339040577411652
1170033550.0 -0.6904085874557495 0.5381014943122864
1200033000.0 0.06345424801111221 0.888606071472168
1230032450.0 0.7853755950927734 0.45577675104141235
1260031900.0 0.8521630167961121 -0.32533934712409973
1290031350.0 0.33639001846313477 -0.838847279548645
1320030800.0 -0.37210360169410706 -0.816295862197876
1350030250.0 -0.8567427396774292 -0.23171795904636383
1380029700.0 -0.6751063466072083 0.562149167060852
1410029150.0 0.1416761726140976 0.8629883527755737
1440028600.0 0.801621675491333 0.3610861003398895
1470028050.0 0.7852168083190918 -0.4199512004852295
1500027500.0 0.24228636920452118 -0.8655571341514587
1530026950.0 -0.4435253441333771 -0.7723256945610046
1560026400.0 -0.8519080877304077 -0.16713669896125793
1590025850.0 -0.6232999563217163 0.5654811263084412
1620025300.0 0.16662748157978058 0.809234082698822
1650024750.0 0.7913435697555542 0.28966107964515686
1680024200.0 0.7205904722213745 -0.483640193939209
1710023650.0 0.1052597314119339 -0.8617950677871704
1740023100.0 -0.5366594791412354 -0.6615319848060608
1770022550.0 -0.8042643070220947 -0.06484562903642654
1800022000.0 -0.5265507698059082 0.5724834203720093
1830021450.0 0.20187163352966309 0.7569169402122498
1860020900.0 0.7779701352119446 0.23451334238052368
1890020350.0 0.640180766582489 -0.5293773412704468
1920019800.0 0.022202886641025543 -0.8086619973182678
1950019250.0 -0.5408635139465332 -0.5661752223968506
1980018700.0 -0.7550058364868164 -0.01302093081176281
2010018150.0 -0.504164457321167 0.5689864754676819
2040017600.0 0.23985067009925842 0.7469024062156677
2070017050.0 0.7868466377258301 0.16193917393684387
2100016500.0 0.5700571537017822 -0.55414879322052
2130015950.0 -0.04278342425823212 -0.7814645171165466
2160015400.0 -0.564179539680481 -0.5287594199180603
2190014850.0 -0.7767264246940613 0.06258805096149445
2220014300.0 -0.4393620789051056 0.6722690463066101
2250013750.0 0.35709327459335327 0.7181538939476013
2280013200.0 0.7912433743476868 0.06397559493780136
2310012650.0 0.5477671027183533 -0.5650943517684937
2340012100.0 -0.025584205985069275 -0.798402726650238
2370011550.0 -0.599198043346405 -0.5430105328559875
2400011000.0 -0.8120412826538086 0.13295283913612366
2430010450.0 -0.3171696066856384 0.7649406790733337
2460009900.0 0.5053960084915161 0.6204766035079956
2490009350.0 0.7866689562797546 -0.05133958160877228
2520008800.0 0.4998485743999481 -0.6292852759361267
2550008250.0 -0.07182560861110687 -0.8255820274353027
2580007700.0 -0.6609154939651489 -0.556867241859436
2610007150.0 -0.8481568694114685 0.21125172078609467
2640006600.0 -0.19682639837265015 0.802434504032135
2670006050.0 0.5869662165641785 0.5267045497894287
2700005500.0 0.7692952752113342 -0.16568267345428467
2730004950.0 0.45566943287849426 -0.6896294951438904
2760004400.0 -0.1306634545326233 -0.8625779747962952
2790003850.0 -0.7194607257843018 -0.5464341044425964
2820003300.0 -0.8618252277374268 0.20218528807163239
2850002750.0 -0.21888768672943115 0.7864429950714111
2880002200.0 0.5658287405967712 0.5105398297309875
2910001650.0 0.7393493056297302 -0.241800457239151
2940001100.0 0.35553163290023804 -0.7474916577339172
2970000550.0 -0.2086716592311859 -0.8583436012268066
3000000000.0 -0.7410131692886353 -0.5352787375450134
