! Created with skrf 1.8.0 (http://scikit-rf.org).
# Hz S RI R 50.0 
!freq ReS11 ImS11
50000.0 -0.6321993286382532 -0.8051830701786459
15049500.0 32.9511294399914 -6.439739257671531
30049000.0 2.20630819606033 11.078455950066877
45048500.0 5.848497313141289 4.21924193094523
60048000.0 -1.1462861788720489 -2.2699839089963993
75047500.0 1.7438790094118248 -1.718743825909214
90047000.0 3.4518425047653074 -0.15814596380626902
105046500.0 -0.5564143173931766 -7.680456129239629
120046000.0 -0.3050020993032532 -0.21597458863188262
135045500.0 -0.9525907189930682 -0.7332872716053175
150045000.0 2.214666143930056 -1.9712461740021958
165044500.0 1.02633703332323 -0.175913911520454
180044000.0 -0.3895225545300965 0.09465747036267581
195043500.0 -4.138147254709708 4.165683820300756
210043000.0 -0.4578549210989858 -0.5246376626253365
225042500.0 -2.6350927239437434 -0.46224153241739474
240042000.0 9.891614521724037 -0.23945206465784286
255041500.0 -0.9701074199255878 -1.1728845777414154
270041000.0 1.4108551314250426 -0.793216674221679
285040500.0 3.224402760236834 -1.0265380659445018
300040000.0 -0.7801737058486409 -1.384174657809135
315039500.0 -0.2801604453463894 0.34844177955313405
330039000.0 -0.8670139378993185 -1.0234054692411687
345038500.0 -0.9599767579581502 -0.4865113119987052
360038000.0 0.5014003879153928 -0.3369872170182391
375037500.0 1.1605180318377397 -0.34125643707919645
390037000.0 -0.12635968079519166 -1.6043064509137122
405036500.0 -0.6076105769032708 1.248726428438466
420036000.0 -1.2802544894687438 -0.9076639371844496
435035500.0 0.07243365934385064 -0.5911076461368885
450035000.0 0.7604891065707083 -0.19278316943012005
465034500.0 0.9621849138069675 -1.0859036352663947
480034000.0 1.3005813816027882 0.012259849702821157
495033500.0 0.5578406688128994 0.9288618344893904
510033000.0 7.155587598947803 -4.699990223575662
525032500.0 0.0378896554752221 0.7618849574932237
540032000.0 -2.7632028289818504 2.2309561770954276
555031500.0 0.9811536306341813 0.28301792141705967
570031000.0 0.10243587862496245 0.39938671530392816
585030500.0 1.0143609795720767 -3.8385701910999717
600030000.0 1.4413459233496269 -0.6663536686644803
615029500.0 0.07794013935001935 -1.0781937588461952
630029000.0 -0.5586736101190392 -3.5767631771921202
645028500.0 -0.714343615522925 0.5228985051580444
660028000.0 0.05208825385522624 1.1684886601446898
675027500.0 1.0728146518394905 0.4084184449911074
690027000.0 -3.269773978078757 0.10683702079452881
705026500.0 -0.0824620295815707 -0.4391397084033466
720026000.0 -1.5495210422778471 -2.6958259476001043
735025500.0 -4.162025447586402 -16.644936240179522
750025000.0 1.3353995826145122 2.141730598800295
765024500.0 3.246705894730339 -1.2646529689102448
780024000.0 0.22123810018207143 -1.0831055553857045
795023500.0 -1.9305128579147082 2.1442095996068105
810023000.0 1.761431765892162 0.29256872384854543
825022500.0 -1.2535512961974895 1.6755439156523215
840022000.0 -0.4732025538279642 0.5257459341609352
855021500.0 -0.9709800232492044 -2.810048913468889
870021000.0 0.07386107263772118 0.5639041982460354
885020500.0 0.7934027590071474 2.3281903540659856
900020000.0 0.47594130579740906 0.9168214146413661
915019500.0 -0.5683042245373708 0.13750608022842012
930019000.0 -6.6674898327518815 5.305202323585904
945018500.0 3.1784145332076075 2.184244828636248
960018000.0 -1.429894783876708 1.2382648146216704
975017500.0 -2.1155466271148686 -1.1348047915912776
990017000.0 -1.550832077859706 1.6523982189702657
1005016500.0 0.5086840153471937 -0.9905211733160277
1020016000.0 -0.852531072030602 0.43722017991416506
1035015500.0 -1.6031217334133798 -0.5040269028258906
1050015000.0 -1.4174532586540707 -3.0396806815025825
1065014500.0 -0.1328923653908477 1.3538896751998442
1080014000.0 -0.15106221119263374 4.2591958432316055
1095013500.0 3.5343765622227186 -0.624828644201852
1110013000.0 5.298122270557552 -2.407272094115174
1125012500.0 0.4216699018065634 0.2236217456712043
1140012000.0 -0.5176221937859882 0.18152785399133162
1155011500.0 0.8466113360691195 -0.34090689885024333
1170011000.0 0.15284700651142086 -4.209807120811684
1185010500.0 -1.651289516634838 1.1483610282938135
1200010000.0 0.7803389650844557 2.822369056492914
1215009500.0 1.8579598942291669 2.059005178738114
1230009000.0 0.43713646211230645 0.7116192397759153
1245008500.0 -0.22139257786633648 1.0583215384831706
1260008000.0 -0.330536304375881 -0.1967072517574699
1275007500.0 -1.3957905305875729 -2.6444701654862643
1290007000.0 0.6262297282761421 2.0776692942971886
1305006500.0 1.899830961352915 3.196503272884782
1320006000.0 0.15284041280335917 -3.806730764778202
1335005500.0 4.275912201311194 7.814823356748865
1350005000.0 0.7354868873601869 0.9443749532895899
1365004500.0 -2.0778663533466952 0.44136000449222357
1380004000.0 1.390973125591884 1.06217409817028
1395003500.0 0.7009914354677288 -1.645045294696897
1410003000.0 3.1633089608835667 -2.5359729861507376
1425002500.0 2.5247011783358086 -0.7539535388766264
1440002000.0 -0.6643582470801148 3.188737917763183
1455001500.0 2.743139870259529 -2.0255026009432617
1470001000.0 -0.9720767956745087 0.3995619570084136
1485000500.0 0.38683097290068524 -0.5651112336525749
1500000000.0 1.0051399220505561 1.2591624862143938
