! Created with skrf 1.8.0 (http://scikit-rf.org).
# Hz S RI R 50.0 
!freq ReS11 ImS11
50000.0 -0.2961471764885585 0.7718416637162137
10049500.0 1.0802417184520055 2.9916808320423103
20049000.0 0.16624408247155223 -1.0673844546283495
30048500.0 -0.2669364691518597 1.7126884838960719
40048000.0 -0.017814960280623182 -3.0031690625811143
50047500.0 1.2988054559821918 0.6043117109395235
60047000.0 -0.5683700497369188 -0.5219644211985093
70046500.0 -0.6165024178529209 0.20236561084247062
80046000.0 0.5741803624102221 -0.9457528161536833
90045500.0 -3.5582451586847217 0.09786078674179244
100045000.0 0.6125477638449787 -0.5767854259722566
110044500.0 8.167452636811035 -14.253690642222175
120044000.0 -0.20237150590500103 0.9338620512508232
130043500.0 2.8691037061581115 0.47354803029869297
140043000.0 0.4533718168925419 1.1810506237122196
150042500.0 -11.250716333915944 1.3603519994829087
160042000.0 0.75796964095906 -1.594738137632099
170041500.0 -0.06306088450470439 0.060170144963746564
180041000.0 -0.11999343501231303 -0.5124474818838606
190040500.0 -0.6013195909830203 -0.26276501370911126
200040000.0 1.5831638894050966 -0.3805351703693844
210039500.0 -0.2815639587850861 5.6672545159076115
220039000.0 -0.21799683951257479 -1.7902012454525655
230038500.0 0.1934945094858889 -1.9115562787106184
240038000.0 -0.2965709945657428 -0.3973986082191535
250037500.0 -0.6980187960308735 0.16136055639287114
260037000.0 1.3801410103594565 2.688921228999595
270036500.0 1.6303649201584263 -0.1705378273870902
280036000.0 -2.4396366164234986 0.25937470280391944
290035500.0 0.37909020502255214 0.9419469165667776
300035000.0 0.7924368517655964 -1.4970769318643613
310034500.0 0.8709762001945666 -4.19416078243455
320034000.0 -1.3698229816185574 0.2886566701966302
330033500.0 0.4073310558830188 0.4647031170863921
340033000.0 0.8387659508781625 -1.8393013697895186
350032500.0 1.0848476464326748 0.010333848018257234
360032000.0 2.1340550644370087 -1.3561842130375452
370031500.0 2.5234115065965512 2.1539550337728026
380031000.0 -0.7402103688594603 -1.0149774754113565
390030500.0 -0.7242705079161025 -0.7175573240209813
400030000.0 -2.27489884825833 2.0013820814212764
410029500.0 0.3950922294539429 -2.2382864855687603
420029000.0 1.427977152867577 -0.9728852595818582
430028500.0 -0.874883575834061 -1.5983791560904834
440028000.0 1.0225369780347235 -1.341500213209887
450027500.0 -1.448022069241256 0.2568519106350922
460027000.0 0.7421644708643079 0.12047112988219004
470026500.0 0.999192558190346 3.5737988182669267
480026000.0 0.45360790310076277 0.1911111499608327
490025500.0 0.01832326824610066 0.458367301566583
500025000.0 -9.382063831411935 -1.3345777528694465
510024500.0 -0.10980956549861962 -0.1377632245779966
520024000.0 0.7540375294747783 3.8280507638910812
530023500.0 -2.2816919946147953 -0.4918183287635359
540023000.0 0.6930862133193831 -1.3831210103796587
550022500.0 7.204538020961449 -4.11156138141627
560022000.0 -0.17333964850436862 0.49660630983722837
570021500.0 -0.2738756815763287 -1.1994716281745963
580021000.0 -0.5331780124695928 -1.1078166124321736
590020500.0 1.5381588152816403 0.6644166414232148
600020000.0 -0.3325114090579209 0.20269500401967
610019500.0 2.5298359855150196 -1.0592095360916287
620019000.0 -2.8260629797799717 -1.4071102809166949
630018500.0 -4.201171818320218 4.167220402109313
640018000.0 -1.2921513590699023 1.2689406629278184
650017500.0 -4.1663636909132675 12.852767616132315
660017000.0 -3.3581209918046 -2.0948303071165326
670016500.0 -0.7802519837056652 0.422543005793984
680016000.0 2.0590907756277645 0.16551043166813
690015500.0 2.819025473180228 -0.838959177086585
700015000.0 2.1554006452127723 -0.7484099800772218
710014500.0 0.5969430614709555 -0.7753107275403663
720014000.0 -0.2734020412066266 0.6598454934598716
730013500.0 0.30804315232434126 4.95887189022521
740013000.0 0.4644576502609069 -0.5928583464211725
750012500.0 -0.8552403540522084 10.465843538983371
760012000.0 1.1922988019832415 1.6304333796354114
770011500.0 -0.11495872494089628 1.1918345484339679
780011000.0 1.6314007834268534 -0.1406401944342201
790010500.0 -0.3391511574790945 0.9440531113758028
800010000.0 0.5391181893350412 0.7663137853607042
810009500.0 -2.291399518860815 0.043844491066316785
820009000.0 -3.5404019471812433 0.48749723350932
830008500.0 -0.27004560433913477 -0.4415634445841769
840008000.0 -1.263259894415426 -0.4062277111637841
850007500.0 16.84131531773521 -9.4866285304353
860007000.0 -1.49425787919086 -0.6613345499671146
870006500.0 -0.1539890198965404 0.3910347981219694
880006000.0 -1.3797196065018797 -0.6634127723702463
890005500.0 0.4226476555014169 -0.453375985703613
900005000.0 -1.014095149626918 1.2849609960596227
910004500.0 -0.06885303279188137 -0.076122703925503
920004000.0 -0.7901282450091672 -2.3785635182846647
930003500.0 -3.058550879132372 -1.491382048983239
940003000.0 0.42762716500006365 0.4830126357344662
950002500.0 -0.8170498797198626 -1.218613182585039
960002000.0 1.059974050175357 -0.24648527685579255
970001500.0 0.8440500745295199 1.2375171149778028
980001000.0 -0.5906084637639112 0.40280673694013513
990000500.0 0.8908217130202741 0.40757303444770343
1000000000.0 2.147916416943051 0.6836567088362225
