! Created with skrf 1.8.0 (http://scikit-rf.org).
# Hz S RI R 50.0 
!freq ReS11 ImS11
50000.0 -0.003926361019787081 -0.0002094271173562307
10049500.0 -0.0033873548360233425 8.851978312370137e-05
20049000.0 -0.00305592947773616 0.0002365650999196646
30048500.0 -0.0025003810079755246 0.00023724075991105517
40048000.0 -0.0014082513944618253 -0.00021518831810574834
50047500.0 -0.00017018322060996025 -0.001354952763282766
60047000.0 0.0015820236417526336 -0.0024571896984778006
70046500.0 0.004153238677709908 -0.003586275429552742
80046000.0 0.006594068003316281 -0.004747602890659049
90045500.0 0.00909114785229495 -0.006074445929928275
100045000.0 0.011674732661773027 -0.007339602404858443
110044500.0 0.013056982482230084 -0.008812479049559877
120044000.0 0.013964814808011794 -0.010097851588330316
130043500.0 0.01519638406938368 -0.01136546141107059
140043000.0 0.015286782122586214 -0.012838666944370322
150042500.0 0.016758666145333036 -0.013191255017257219
160042000.0 0.01637401275177556 -0.013130354966884718
170041500.0 0.015395944131307257 -0.012338235019880574
180041000.0 0.015704081740744887 -0.003753655626642593
190040500.0 0.014057584467720704 -0.00034848934248777604
200040000.0 0.012648334694557997 0.0036438920400563104
210039500.0 0.011117107338937416 0.008401640089067405
220039000.0 0.00921986395687211 0.013770813554922198
230038500.0 0.007366440154605112 0.019926872752006566
240038000.0 0.006234691344412845 0.026227473880938414
250037500.0 0.005232231403618873 0.033170742326423704
260037000.0 0.00556266554071977 0.039828494746873465
270036500.0 0.006281212024275259 0.0452446850537834
280036000.0 0.008408737833345293 0.05074258634472671
290035500.0 0.01118488402694291 0.05692449151814063
300035000.0 0.003624940477252161 0.06547537979375415
310034500.0 0.007429592768503688 0.07481745686302435
320034000.0 0.011993254856678553 0.08262420165236073
330033500.0 0.014862286460590667 0.08912537231050549
340033000.0 0.021207948144656527 0.09546724903425548
350032500.0 0.027547699630610007 0.09843193648999295
360032000.0 0.037758292132155716 0.10143347042382846
370031500.0 0.04469482459396248 0.1024603245220181
380031000.0 0.05233182875747721 0.10170665093861049
390030500.0 0.057214358620285524 0.09861521248469496
400030000.0 0.06096193998462801 0.09572432985292606
410029500.0 0.06233596801029349 0.09237423074153744
420029000.0 0.06321360013968538 0.08752191506740463
430028500.0 0.05871616558581161 0.07904791403704074
440028000.0 0.055242895761587314 0.06959112764434054
450027500.0 0.04867982591021284 0.055380277908332894
460027000.0 0.03979653450445062 0.04300706787000745
470026500.0 0.034733005860565755 0.026946864365270197
480026000.0 0.024526771006772283 0.012219355155431657
490025500.0 0.014822202353650912 -0.00024900146395384864
500025000.0 0.004147443721320196 -0.007945830599724653
510024500.0 -0.009056604457019555 -0.013972238899899446
520024000.0 -0.016749461387404227 -0.01743582245500266
530023500.0 -0.02897760124481142 -0.017920359444030372
540023000.0 -0.0418017198143298 -0.04706731979666779
550022500.0 -0.04721736695460702 -0.03937868806088219
560022000.0 -0.052534534012776156 -0.027790000855721607
570021500.0 -0.05826016865447631 -0.017424849115932114
580021000.0 -0.0650015600913715 -0.0029868206030901692
590020500.0 -0.0665123360667708 0.0070487843715262505
600020000.0 -0.0758742979618835 0.023792146269971937
610019500.0 -0.07646455415841143 0.03806684713578038
620019000.0 -0.08034812899928405 0.05202003161611445
630018500.0 -0.08358636958657077 0.061113135369614976
640018000.0 -0.08932675985453714 0.06838628353452003
650017500.0 0.30061264035064594 0.09033940104600313
660017000.0 -0.08450419344726885 0.06798616057683958
670016500.0 -0.0831867485505477 0.06699417517785541
680016000.0 -0.07300559895682662 0.056277490469490876
690015500.0 -0.06106176540810515 0.04329363120090312
700015000.0 -0.04356477424308769 0.02906044546837667
710014500.0 -0.025923742616108053 0.014083904463114146
720014000.0 -0.01000136634252575 0.0038336530949277837
730013500.0 0.010608123377259502 -0.013471333167957709
740013000.0 0.028544939748328953 -0.023040938634553306
750012500.0 0.041218462914294735 -0.03709748429540693
760012000.0 0.04884312305863296 -0.04910676700688991
770011500.0 0.04950041200205879 -0.058594012661784364
780011000.0 0.06016355907200199 -0.07890226931852828
790010500.0 0.03877205961122064 -0.0761072348668786
800010000.0 0.0157398257512939 -0.08659249946612887
810009500.0 -0.0035289537153697006 -0.09978970801731249
820009000.0 -0.02260830192168031 -0.12136005275598667
830008500.0 -0.04585467785063576 -0.13898933020702012
840008000.0 -0.061556855071385384 -0.16015723615949592
850007500.0 -0.07609455557444712 -0.18078237190624552
860007000.0 -0.08169774638127478 -0.202126550827492
870006500.0 -0.08449851663107646 -0.22916204459588116
880006000.0 -0.07242387470933188 -0.25146011333471435
890005500.0 -0.062016943540677286 -0.29258728195831335
900005000.0 -0.04024793661839766 -0.3183182389575793
910004500.0 -0.10426304666418387 -0.14424727968085005
920004000.0 -0.12246316102799278 -0.28897814807829103
930003500.0 -0.17540326429255512 -0.2662051126141305
940003000.0 -0.20795269270842687 -0.23438311580846158
950002500.0 -0.23357241287134223 -0.20099809939549254
960002000.0 -0.26487600813676976 -0.16699781142459638
970001500.0 -0.2831821208172447 -0.11502918362193712
980001000.0 -0.27924484471797556 -0.07020678979666269
990000500.0 -0.2940977600944556 -0.022362834259631686
1000000000.0 -0.2984662104269105 0.017989868446584414
