! Created with skrf 1.8.0 (http://scikit-rf.org).
# Hz S RI R 50.0 
!freq ReS11 ImS11
50000.0 -1.004633904 -4.4821e-05
15049500.0 -1.001518846 -0.163517456
30049000.0 -0.965617984 -0.321601504
45048500.0 -0.90259808 -0.46624832
60048000.0 -0.819798848 -0.621725056
75047500.0 -0.708572352 -0.748579456
90047000.0 -0.582403136 -0.844647168
105046500.0 -0.446416576 -0.939802624
120046000.0 -0.290297664 -1.008910538
135045500.0 -0.122275536 -1.043465852
150045000.0 0.0490628 -1.067015648
165044500.0 0.222746224 -1.05236304
180044000.0 0.363413632 -1.010614396
195043500.0 0.517831392 -0.953285248
210043000.0 0.653817344 -0.87051136
225042500.0 0.766519488 -0.76720864
240042000.0 0.867516736 -0.666909312
255041500.0 0.95140448 -0.55388096
270041000.0 1.026549578 -0.41410976
285040500.0 1.088986752 -0.260505552
300040000.0 1.090267776 -0.073085704
315039500.0 1.121033312 0.069442104
330039000.0 1.102440952 0.217616128
345038500.0 1.056510092 0.363990464
360038000.0 0.988091584 0.4852664
375037500.0 0.915178432 0.623778944
390037000.0 0.820244096 0.753427712
405036500.0 0.696509824 0.873983616
420036000.0 0.566444672 0.989856192
435035500.0 0.417069728 1.082748056
450035000.0 0.250428528 1.14915752
465034500.0 0.066640028 1.222764128
480034000.0 -0.1403608 1.260808352
495033500.0 -0.365244 1.25614488
510033000.0 -0.589088256 1.225276832
525032500.0 -0.80741344 1.145651216
540032000.0 -1.031490564 0.975476416
555031500.0 -1.180839536 0.84459488
570031000.0 -1.299437408 0.690340864
585030500.0 -1.387638816 0.511110912
600030000.0 -1.463274112 0.295070656
615029500.0 -1.482410304 0.084682232
630029000.0 -1.445031648 -0.132949504
645028500.0 -1.373840096 -0.357699264
660028000.0 -1.249876016 -0.551514432
675027500.0 -1.096948984 -0.703931584
690027000.0 -0.921449216 -0.83878144
705026500.0 -0.732831424 -0.912503168
720026000.0 -0.550903232 -0.948570432
735025500.0 -0.376005088 -0.970129472
750025000.0 -0.201434496 -0.968480192
765024500.0 -0.027754472 -0.936723968
780024000.0 0.107818976 -0.898091264
795023500.0 0.240124224 -0.82766752
810023000.0 0.3284304 -0.756814784
825022500.0 0.398000096 -0.69307712
840022000.0 0.452531424 -0.650135744
855021500.0 0.508582048 -0.636098816
870021000.0 0.580983296 -0.648625856
885020500.0 0.690634816 -0.66724064
900020000.0 0.869321152 -0.688932032
915019500.0 0.8181424 -0.959283072
930019000.0 0.675117952 -1.237033728
945018500.0 0.428803424 -1.49986304
960018000.0 0.04697292 -1.71635296
975017500.0 -0.411175904 -1.786299712
990017000.0 -0.906731456 -1.632176256
1005016500.0 -1.3009776 -1.2834152
1020016000.0 -1.519655232 -0.843731072
1035015500.0 -1.570613248 -0.419646112
1050015000.0 -1.447192544 -0.073649592
1065014500.0 -1.32536768 0.242507536
1080014000.0 -1.116976856 0.44070608
1095013500.0 -0.90486944 0.573346944
1110013000.0 -0.715533248 0.658320064
1125012500.0 -0.553357824 0.682082624
1140012000.0 -0.355694464 0.723519232
1155011500.0 -0.2348836 0.685992448
1170011000.0 -0.057654444 0.692119744
1185010500.0 0.068358616 0.645258816
1200010000.0 0.200239184 0.593796864
1215009500.0 0.3260376 0.515950848
1230009000.0 0.42663072 0.431582272
1245008500.0 0.52885104 0.32765216
1260008000.0 0.62047872 0.209113424
1275007500.0 0.69775904 0.070260344
1290007000.0 0.74381088 -0.10603824
1305006500.0 0.796430464 -0.25629368
1320006000.0 0.807699072 -0.437886912
1335005500.0 0.790053504 -0.667552768
1350005000.0 0.732080896 -0.900065088
1365004500.0 0.580928 -1.10626888
1380004000.0 0.365809376 -1.349564192
1395003500.0 0.0597623 -1.529466752
1410003000.0 -0.277731616 -1.509390464
1425002500.0 -0.662996608 -1.476604
1440002000.0 -0.924948224 -1.22402632
1455001500.0 -1.16281008 -1.038389088
1470001000.0 -1.064324616 -0.54355168
1485000500.0 -1.064863444 -0.269188544
1500000000.0 -0.904572416 -0.046984984
