! Created with skrf 1.8.0 (http://scikit-rf.org).
# Hz S RI R 50.0 
!freq ReS11 ImS11
50000.0 0.99684288 0.000362749
15049500.0 0.939004032 0.360288896
30049000.0 0.749425344 0.672450496
45048500.0 0.461293472 0.891799552
60048000.0 0.103487872 1.0131284
75047500.0 -0.2731544 0.987723968
90047000.0 -0.61900064 0.819499776
105046500.0 -0.890497792 0.545941248
120046000.0 -1.040964724 0.185271488
135045500.0 -1.045634388 -0.209294816
150045000.0 -0.914302912 -0.584942016
165044500.0 -0.648017792 -0.883635904
180044000.0 -0.31492944 -1.043515564
195043500.0 0.063096792 -1.100397824
210043000.0 0.434059072 -1.022188306
225042500.0 0.750551552 -0.821898752
240042000.0 0.993089984 -0.540540608
255041500.0 1.13507664 -0.189087904
270041000.0 1.150226832 0.220472688
285040500.0 1.022053718 0.632364096
300040000.0 0.689037568 0.953430336
315039500.0 0.319264544 1.193986896
330039000.0 -0.13692856 1.256888864
345038500.0 -0.593241152 1.142180912
360038000.0 -0.9642112 0.87343168
375037500.0 -1.25087536 0.479376224
390037000.0 -1.36968112 -0.023744142
405036500.0 -1.28743088 -0.51936752
420036000.0 -1.035459756 -0.964766336
435035500.0 -0.631660224 -1.267848976
450035000.0 -0.154188256 -1.393444544
465034500.0 0.3018976 -1.38211216
480034000.0 0.724333952 -1.208858016
495033500.0 1.068709136 -0.916216576
510033000.0 1.318387136 -0.52830912
525032500.0 1.403504608 -0.06807412
540032000.0 1.359583968 0.382813984
555031500.0 1.151843664 0.800935488
570031000.0 0.807958976 1.111369488
585030500.0 0.393076192 1.28627824
600030000.0 -0.0524395 1.341021664
615029500.0 -0.49609248 1.224329584
630029000.0 -0.873985856 0.95968992
645028500.0 -1.169156544 0.5792176
660028000.0 -1.307638272 0.1097722
675027500.0 -1.2688712 -0.39238032
690027000.0 -1.008200884 -0.861534144
705026500.0 -0.60676512 -1.161600464
720026000.0 -0.134385664 -1.26473856
735025500.0 0.318064384 -1.208544016
750025000.0 0.70623872 -0.993844096
765024500.0 1.001165748 -0.653791936
780024000.0 1.14375496 -0.265125328
795023500.0 1.10184312 0.215493312
810023000.0 0.861425024 0.555515968
825022500.0 0.55996 0.734245376
840022000.0 0.27695616 0.78462304
855021500.0 0.052160916 0.760727616
870021000.0 -0.126474592 0.732133056
885020500.0 -0.303134144 0.719721408
900020000.0 -0.5291776 0.745612224
915019500.0 -0.509453888 0.738385152
930019000.0 -0.49893904 0.739352896
945018500.0 -0.476693792 0.739473088
960018000.0 -0.460470208 0.755875072
975017500.0 -0.443627232 0.74490912
990017000.0 -0.418196928 0.773306496
1005016500.0 -0.397843584 0.768767936
1020016000.0 -0.377270272 0.772588544
1035015500.0 -0.355608224 0.785604736
1050015000.0 -0.322966752 0.76420608
1065014500.0 -0.315599232 0.792192064
1080014000.0 -0.284250464 0.797813504
1095013500.0 -0.263975296 0.809867264
1110013000.0 -0.236085376 0.815330176
1125012500.0 -0.218381344 0.798872832
1140012000.0 -0.188459136 0.823132544
1155011500.0 -0.12670304 0.814086656
1170011000.0 -0.130752504 0.812216192
1185010500.0 -0.08917404 0.824907968
1200010000.0 -0.062620632 0.830214912
1215009500.0 -0.048753036 0.824019264
1230009000.0 0.003181903 0.830260608
1245008500.0 0.019549138 0.830133184
1260008000.0 0.050518 0.833682112
1275007500.0 0.088985128 0.831416
1290007000.0 0.114065984 0.826585024
1305006500.0 0.15874104 0.826714368
1320006000.0 0.184379552 0.804211584
1335005500.0 0.22261528 0.808253504
1350005000.0 0.225051504 0.791331328
1365004500.0 0.31009376 0.777725248
1380004000.0 0.294489376 0.77160128
1395003500.0 0.31657008 0.74862272
1410003000.0 0.341653152 0.726297856
1425002500.0 0.36421984 0.697410816
1440002000.0 0.369983456 0.690216512
1455001500.0 0.395135072 0.693506304
1470001000.0 0.430235072 0.66140352
1485000500.0 0.456388608 0.6645888
1500000000.0 0.458224576 0.636718336
