! Created with skrf 1.8.0 (http://scikit-rf.org).
# Hz S RI R 50.0 
!freq ReS11 ImS11
50000.0 -0.997671424 0.001619532
9049500.0 -0.98000768 0.142262736
18049000.0 -0.947419392 0.2745912
27048500.0 -0.898332992 0.400053472
36048000.0 -0.833770816 0.516831232
45047500.0 -0.753664512 0.62446336
54047000.0 -0.663035776 0.71787296
63046500.0 -0.561181696 0.797062208
72046000.0 -0.450353632 0.862740672
81045500.0 -0.32912528 0.912942976
90045000.0 -0.198574944 0.949735552
99044500.0 -0.072417888 0.96881952
108044000.0 0.054956532 0.969427712
117043500.0 0.179764288 0.955498944
126043000.0 0.302728032 0.924386176
135042500.0 0.419561856 0.877457792
144042000.0 0.531801344 0.816386816
153041500.0 0.633032832 0.741509632
162041000.0 0.724178432 0.654549248
171040500.0 0.802538304 0.556165248
180040000.0 0.867541056 0.448526944
189039500.0 0.917431744 0.333440288
198039000.0 0.951786368 0.212275856
207038500.0 0.971344576 0.087825528
216038000.0 0.973549184 -0.03956922
225037500.0 0.95973312 -0.165566672
234037000.0 0.930109888 -0.288123872
243036500.0 0.884380672 -0.405644832
252036000.0 0.822939904 -0.519965216
261035500.0 0.746225216 -0.623284608
270035000.0 0.658902464 -0.715937856
279034500.0 0.558752512 -0.797136256
288034000.0 0.44852272 -0.865787136
297033500.0 0.325500416 -0.914929472
306033000.0 0.195423392 -0.9547616
315032500.0 0.058423076 -0.97419552
324032000.0 -0.069111656 -0.972616064
333031500.0 -0.204837552 -0.953938624
342031000.0 -0.331600416 -0.916528128
351030500.0 -0.453967168 -0.86329888
360030000.0 -0.566966848 -0.794222336
369029500.0 -0.66919552 -0.709024384
378029000.0 -0.757570304 -0.612587008
387028500.0 -0.832621056 -0.50712736
396028000.0 -0.890328384 -0.389964096
405027500.0 -0.93376864 -0.265341552
414027000.0 -0.956214016 -0.141066976
423026500.0 -0.963440128 -0.00998149
432026000.0 -0.94834432 0.120502744
441025500.0 -0.92756672 0.248905344
450025000.0 -0.876416704 0.372245568
459024500.0 -0.817868416 0.48528912
468024000.0 -0.745779008 0.592336064
477023500.0 -0.660852032 0.68921248
486023000.0 -0.561278912 0.774896896
495022500.0 -0.45439088 0.845570816
504022000.0 -0.332780704 0.900626304
513021500.0 -0.223902832 0.937059072
522021000.0 -0.101209656 0.959377984
531020500.0 0.021142814 0.96501088
540020000.0 0.143769616 0.956390528
549019500.0 0.26163864 0.930270848
558019000.0 0.37416912 0.890348224
567018500.0 0.47938336 0.838519296
576018000.0 0.57965472 0.772001984
585017500.0 0.683488 0.694252864
594017000.0 0.739744576 0.604443776
603016500.0 0.80162208 0.510477376
612016000.0 0.853214016 0.401513632
621015500.0 0.89420224 0.292329568
630015000.0 0.92441408 0.179246672
639014500.0 0.939065536 0.059666368
648014000.0 0.9333456 -0.05911512
657013500.0 0.9144448 -0.173935664
666013000.0 0.883007616 -0.292238304
675012500.0 0.834642368 -0.396998304
684012000.0 0.772110016 -0.503240512
693011500.0 0.690855488 -0.600921664
702011000.0 0.604405888 -0.689602304
711010500.0 0.509084224 -0.760724928
720010000.0 0.397534688 -0.81864928
729009500.0 0.276140896 -0.867500288
738009000.0 0.154617952 -0.898915136
747008500.0 0.026048182 -0.911025216
756008000.0 -0.104045344 -0.904974656
765007500.0 -0.233562288 -0.880425472
774007000.0 -0.357913568 -0.841712064
783006500.0 -0.473843104 -0.780055168
792006000.0 -0.584075072 -0.70642176
801005500.0 -0.680471552 -0.615784704
810005000.0 -0.761790336 -0.510798528
819004500.0 -0.813417216 -0.39584368
828004000.0 -0.883200832 -0.274538528
837003500.0 -0.91973472 -0.144963088
846003000.0 -0.929798976 -0.017855606
855002500.0 -0.925928768 0.113228104
864002000.0 -0.909058176 0.23896128
873001500.0 -0.87365312 0.36091392
882001000.0 -0.819864832 0.477102912
891000500.0 -0.756682752 0.577237056
900000000.0 -0.676147968 0.666893504
