! Created with skrf 1.8.0 (http://scikit-rf.org).
# Hz S RI R 50.0 
!freq ReS11 ImS11
99000.0 -0.5653282403945923 -0.2933540344238281
30098010.0 -0.6090385913848877 0.7466352581977844
60097020.0 0.2198754847049713 0.9823017120361328
90096030.0 0.950236976146698 0.4181923568248749
120095040.0 0.8961189389228821 -0.5129677057266235
150094050.0 0.149612158536911 -0.9621558785438538
180093060.0 -0.6249268054962158 -0.7046172022819519
210092070.0 -0.9473726153373718 0.0260404571890831
240091080.0 -0.5801962614059448 0.7901437282562256
270090090.0 0.3055717945098877 0.9661285281181335
300089100.0 0.9705431461334229 0.3246980905532837
330088110.0 0.8453549146652222 -0.5648574829101562
360087120.0 0.0934632271528244 -1.0008138418197632
390086130.0 -0.7146140336990356 -0.6945905685424805
420085140.0 -0.9768860936164856 0.13279473781585693
450084150.0 -0.48045942187309265 0.8510434627532959
480083160.0 0.3856576085090637 0.8996830582618713
510082170.0 0.9662827253341675 0.25202733278274536
540081180.0 0.8095758557319641 -0.6244363188743591
570080190.0 -0.007393665611743927 -1.0316894054412842
600079200.0 -0.8053259253501892 -0.5991510152816772
630078210.0 -0.9183157682418823 0.26193124055862427
660077220.0 -0.35845068097114563 0.8486882448196411
690076230.0 0.4404969811439514 0.8157745599746704
720075240.0 0.9536283612251282 0.17906545102596283
750074250.0 0.7504996657371521 -0.6784149408340454
780073260.0 -0.10160309076309204 -0.9971727728843689
810072270.0 -0.7982758283615112 -0.48566511273384094
840071280.0 -0.8223433494567871 0.2910291850566864
870070290.0 -0.295207679271698 0.8069144487380981
900069300.0 0.4740983247756958 0.7621960639953613
930068310.0 0.9432779550552368 0.097633495926857
960067320.0 0.6602905988693237 -0.6942095756530762
990066330.0 -0.11997763812541962 -0.9109036326408386
1020065340.0 -0.7286640405654907 -0.4740094542503357
1050064350.0 -0.8093335628509521 0.2609449326992035
1080063360.0 -0.2798895835876465 0.8229065537452698
1110062370.0 0.5384114980697632 0.7254818081855774
1140061380.0 0.9257473349571228 -0.0004996135830879211
1170060390.0 0.5901219248771667 -0.7009961009025574
1200059400.0 -0.11772387474775314 -0.8850341439247131
1230058410.0 -0.728508710861206 -0.49221909046173096
1260057420.0 -0.8288670182228088 0.2865612506866455
1290056430.0 -0.21090444922447205 0.8573623895645142
1320055440.0 0.6126445531845093 0.6532322764396667
1350054450.0 0.8953276872634888 -0.09357059746980667
1380053460.0 0.5376802682876587 -0.722912609577179
1410052470.0 -0.1544491946697235 -0.8871026635169983
1440051480.0 -0.7447845935821533 -0.48572438955307007
1470050490.0 -0.8211090564727783 0.2976612448692322
1500049500.0 -0.16654163599014282 0.8441506028175354
1530048510.0 0.6313310265541077 0.5844272375106812
1560047520.0 0.8579275012016296 -0.17780908942222595
1590046530.0 0.4389340877532959 -0.7719528079032898
1620045540.0 -0.24756090342998505 -0.8461750149726868
1650044550.0 -0.7641375660896301 -0.3981204926967621
1680043560.0 -0.760621190071106 0.32894596457481384
1710042570.0 -0.16048835217952728 0.7920374274253845
1740041580.0 0.6051613092422485 0.5506994128227234
1770040590.0 0.8201300501823425 -0.20215994119644165
1800039600.0 0.3523465394973755 -0.777725875377655
1830038610.0 -0.31699857115745544 -0.7667593359947205
1860037620.0 -0.7234176993370056 -0.3220704197883606
1890036630.0 -0.6847895383834839 0.3379162549972534
1920035640.0 -0.13353769481182098 0.7563907504081726
1950034650.0 0.6117182970046997 0.5216132402420044
1980033660.0 0.778293251991272 -0.26120859384536743
2010032670.0 0.2953193485736847 -0.7483029961585999
2040031680.0 -0.33535125851631165 -0.7076281309127808
2070030690.0 -0.7130582332611084 -0.2821774482727051
2100029700.0 -0.6982861757278442 0.32519808411598206
2130028710.0 -0.14257487654685974 0.7818500995635986
2160027720.0 0.6117326021194458 0.5308312177658081
2190026730.0 0.7702822089195251 -0.22447232902050018
2220025740.0 0.34530192613601685 -0.7154384851455688
2250024750.0 -0.2651869058609009 -0.7433263063430786
2280023760.0 -0.7406638860702515 -0.3195853531360626
2310022770.0 -0.7260850071907043 0.37761107087135315
2340021780.0 -0.06952080875635147 0.8226484656333923
2370020790.0 0.6472693681716919 0.48511961102485657
2400019800.0 0.7643188238143921 -0.2509186863899231
2430018810.0 0.34869563579559326 -0.7259826064109802
2460017820.0 -0.25116851925849915 -0.7834874391555786
2490016830.0 -0.7663288116455078 -0.362644225358963
2520015840.0 -0.7524014115333557 0.4028854966163635
2550014850.0 0.008640646934509277 0.8335201740264893
2580013860.0 0.6936655044555664 0.38578128814697266
2610012870.0 0.7405949831008911 -0.2859475314617157
2640011880.0 0.33768337965011597 -0.7409173846244812
2670010890.0 -0.25913548469543457 -0.8274694681167603
2700009900.0 -0.8091511726379395 -0.38907214999198914
2730008910.0 -0.7725619077682495 0.4229663610458374
2760007920.0 0.0151263028383255 0.8135302066802979
2790006930.0 0.6954589486122131 0.3286078870296478
2820005940.0 0.695623517036438 -0.3865092992782593
2850004950.0 0.26192739605903625 -0.8033158183097839
2880003960.0 -0.3205678164958954 -0.8297502398490906
2910002970.0 -0.8168041706085205 -0.39005711674690247
2940001980.0 -0.7840797305107117 0.3885470926761627
2970000990.0 -0.014695607125759125 0.791605532169342
3000000000.0 0.6834791302680969 0.29745158553123474
