! Created with skrf 1.8.0 (http://scikit-rf.org).
# Hz S RI R 50.0 
!freq ReS11 ImS11
50000.0 -1.007692456 -5.353e-06
10049500.0 -1.007778526 -0.109480168
20049000.0 -0.994192512 -0.217680688
30048500.0 -0.969397696 -0.322973184
40048000.0 -0.933495232 -0.42408448
50047500.0 -0.887188928 -0.526132896
60047000.0 -0.823238912 -0.624487552
70046500.0 -0.749676736 -0.710172672
80046000.0 -0.667176064 -0.786956736
90045500.0 -0.584779456 -0.848100288
100045000.0 -0.495610976 -0.91190752
110044500.0 -0.396707072 -0.967443072
120044000.0 -0.291236992 -1.01185739
130043500.0 -0.17079016 -1.014904976
140043000.0 -0.066777288 -1.06366372
150042500.0 0.049129296 -1.069188712
160042000.0 0.166461632 -1.061048508
170041500.0 0.281073376 -1.040411352
180041000.0 0.365069408 -1.012350678
190040500.0 0.469084448 -0.974904
200040000.0 0.56612416 -0.926988096
210039500.0 0.65612704 -0.870296832
220039000.0 0.737202304 -0.806515264
230038500.0 0.808218752 -0.737795072
240038000.0 0.870057984 -0.665486464
250037500.0 0.925971392 -0.59119776
260037000.0 0.979076544 -0.50861968
270036500.0 1.030339598 -0.413165984
280036000.0 1.074400304 -0.310594528
290035500.0 1.1011256 -0.205300592
300035000.0 1.094916824 -0.068299248
310034500.0 1.13311756 0.020386076
320034000.0 1.124211552 0.122517976
330033500.0 1.106107832 0.222185648
340033000.0 1.076353792 0.319477632
350032500.0 1.037239076 0.414946272
360032000.0 0.992354432 0.490156064
370031500.0 0.947676096 0.583127104
380031000.0 0.88989824 0.67285696
390030500.0 0.825262208 0.762889024
400030000.0 0.749652416 0.846105664
410029500.0 0.664473344 0.92544352
420029000.0 0.573798592 0.995635584
430028500.0 0.474555456 1.06008792
440028000.0 0.369662656 1.115283728
450027500.0 0.257046944 1.16412592
460027000.0 0.139368784 1.215631488
470026500.0 0.00962488 1.249809024
480026000.0 -0.129948336 1.274838816
490025500.0 -0.278355232 1.282297504
500025000.0 -0.429805312 1.276677952
510024500.0 -0.58324064 1.249791024
520024000.0 -0.723025216 1.196033232
530023500.0 -0.863219584 1.127419352
540023000.0 -1.029893994 0.998301056
550022500.0 -1.132331016 0.9148704
560022000.0 -1.22335768 0.8204992
570021500.0 -1.302004704 0.713952704
580021000.0 -1.367226112 0.604115136
590020500.0 -1.399356736 0.441982688
600020000.0 -1.469810368 0.32749568
610019500.0 -1.485373376 0.18445784
620019000.0 -1.4813832 0.039825812
630018500.0 -1.4508432 -0.11577088
640018000.0 -1.41575312 -0.260466576
650017500.0 -0.699230144 -0.176440464
660017000.0 -1.254508848 -0.531619712
670016500.0 -1.169906976 -0.639839552
680016000.0 -1.057632208 -0.741117632
690015500.0 -0.93593952 -0.820270464
700015000.0 -0.808163968 -0.881125056
710014500.0 -0.685872384 -0.925162112
720014000.0 -0.563762624 -0.945587712
730013500.0 -0.438191232 -0.967662592
740013000.0 -0.326578656 -0.972789888
750012500.0 -0.208907328 -0.968953792
760012000.0 -0.093957224 -0.95868352
770011500.0 0.013995962 -0.935682048
780011000.0 0.123757632 -0.896835008
790010500.0 0.199883008 -0.857877056
800010000.0 0.272225728 -0.817879296
810009500.0 0.331153408 -0.767032192
820009000.0 0.386974368 -0.720073792
830008500.0 0.424308544 -0.684823872
840008000.0 0.464778816 -0.662522816
850007500.0 0.501739072 -0.64921568
860007000.0 0.543571648 -0.645758208
870006500.0 0.59657056 -0.650807296
880006000.0 0.664375552 -0.663910848
890005500.0 0.755493568 -0.680375616
900005000.0 0.891745472 -0.693290432
910004500.0 0.769403456 -1.11925256
920004000.0 0.791282304 -1.065266372
930003500.0 0.692739264 -1.268677472
940003000.0 0.535829056 -1.44272352
950002500.0 0.320597216 -1.610935808
960002000.0 0.069370088 -1.743303552
970001500.0 -0.26700136 -1.811131136
980001000.0 -0.600035072 -1.759200128
990000500.0 -0.929994496 -1.653957824
1000000000.0 -1.212154272 -1.448510048
