! Created with skrf 1.8.0 (http://scikit-rf.org).
# Hz S RI R 50.0 
!freq ReS11 ImS11
50000.0 0.997468352 0.001022866
15049500.0 0.939526976 0.360816384
30049000.0 0.750118272 0.672607808
45048500.0 0.461979456 0.892202176
60048000.0 0.103361224 1.01383567
75047500.0 -0.273212736 0.988609792
90047000.0 -0.619243072 0.820247872
105046500.0 -0.891192768 0.54642144
120046000.0 -1.042103172 0.185605984
135045500.0 -1.0449332 -0.208298496
150045000.0 -0.915179648 -0.585597824
165044500.0 -0.649149568 -0.884984192
180044000.0 -0.314956128 -1.044384956
195043500.0 0.0639698 -1.101314064
210043000.0 0.434652672 -1.02318585
225042500.0 0.751517696 -0.82209696
240042000.0 0.995176384 -0.541031104
255041500.0 1.1370176 -0.18803072
270041000.0 1.151603104 0.221207696
285040500.0 1.022479296 0.631812608
300040000.0 0.68898272 0.956255168
315039500.0 0.318985024 1.191663392
330039000.0 -0.134823072 1.258039472
345038500.0 -0.595473024 1.14459896
360038000.0 -0.968302016 0.873885824
375037500.0 -1.255499248 0.476549248
390037000.0 -1.380233408 -0.024618596
405036500.0 -1.293559424 -0.516428832
420036000.0 -1.035602568 -0.966343168
435035500.0 -0.632489088 -1.272697568
450035000.0 -0.1575424 -1.40877568
465034500.0 0.299731424 -1.381348256
480034000.0 0.72804032 -1.21402776
495033500.0 1.076075312 -0.918884352
510033000.0 1.315852416 -0.528549792
525032500.0 1.410012 -0.070259592
540032000.0 1.365219488 0.382555808
555031500.0 1.155408736 0.802273472
570031000.0 0.816383104 1.115298864
585030500.0 0.400307488 1.289309984
600030000.0 -0.049507672 1.34746848
615029500.0 -0.494967232 1.231669312
630029000.0 -0.871324096 0.965339392
645028500.0 -1.17105544 0.589228544
660028000.0 -1.310607552 0.10777612
675027500.0 -1.273333536 -0.393343744
690027000.0 -1.025866746 -0.864374336
705026500.0 -0.611462912 -1.164658192
720026000.0 -0.13895376 -1.268528096
735025500.0 0.30802928 -1.214283344
750025000.0 0.70627168 -1.000740409
765024500.0 1.00128746 -0.66202528
780024000.0 1.159684064 -0.212886864
795023500.0 1.105192784 0.20756136
810023000.0 0.86568256 0.551395712
825022500.0 0.560050944 0.731217024
840022000.0 0.277220896 0.773434368
855021500.0 0.05436642 0.759896384
870021000.0 -0.122194048 0.733643136
885020500.0 -0.297594592 0.719642624
900020000.0 -0.522592896 0.742441664
915019500.0 -0.501678656 0.73677472
930019000.0 -0.490916544 0.74455232
945018500.0 -0.473390112 0.749307456
960018000.0 -0.442699936 0.74804096
975017500.0 -0.41774272 0.749144512
990017000.0 -0.410266272 0.7576048
1005016500.0 -0.38841824 0.7647424
1020016000.0 -0.382914016 0.76024224
1035015500.0 -0.357635264 0.77631136
1050015000.0 -0.349046208 0.802462016
1065014500.0 -0.305628 0.791008576
1080014000.0 -0.287581152 0.802823552
1095013500.0 -0.265616896 0.806216448
1110013000.0 -0.236955216 0.812733248
1125012500.0 -0.218308 0.79940704
1140012000.0 -0.1794128 0.807702016
1155011500.0 -0.162055664 0.79110368
1170011000.0 -0.109792744 0.81112448
1185010500.0 -0.0913544 0.815098496
1200010000.0 -0.070594496 0.816587328
1215009500.0 -0.042609624 0.813420864
1230009000.0 -0.009720054 0.809789248
1245008500.0 0.0177708 0.803884736
1260008000.0 0.060557592 0.806960256
1275007500.0 0.078767144 0.815705472
1290007000.0 0.106341464 0.810678208
1305006500.0 0.14682968 0.794440896
1320006000.0 0.182885056 0.780269952
1335005500.0 0.216766704 0.779460032
1350005000.0 0.246335504 0.766845248
1365004500.0 0.259902896 0.778474944
1380004000.0 0.293011488 0.756805952
1395003500.0 0.315362272 0.749209792
1410003000.0 0.355725632 0.723407616
1425002500.0 0.365192128 0.691613184
1440002000.0 0.390479904 0.6946208
1455001500.0 0.416985408 0.658706944
1470001000.0 0.447922816 0.662428352
1485000500.0 0.451702016 0.626393856
1500000000.0 0.489489408 0.613432512
