! Created with skrf 1.8.0 (http://scikit-rf.org).
# Hz S RI R 50.0 
!freq ReS11 ImS11
50000.0 0.997320704 0.000996907
15049500.0 0.940539456 0.360564544
30049000.0 0.750383296 0.673298048
45048500.0 0.461878048 0.892646464
60048000.0 0.103257472 1.013968826
75047500.0 -0.273792448 0.98880576
90047000.0 -0.619640384 0.820415168
105046500.0 -0.891760896 0.546146816
120046000.0 -1.042565344 0.185383664
135045500.0 -1.047010184 -0.209331072
150045000.0 -0.915524928 -0.5862464
165044500.0 -0.648668544 -0.885361984
180044000.0 -0.314231648 -1.044934392
195043500.0 0.064526284 -1.10190964
210043000.0 0.43575744 -1.02226758
225042500.0 0.753027264 -0.821555584
240042000.0 0.995779968 -0.539892032
255041500.0 1.137291552 -0.187056096
270041000.0 1.152261616 0.222231872
285040500.0 1.022503972 0.632760256
300040000.0 0.685454976 0.958629248
315039500.0 0.318134784 1.192346096
330039000.0 -0.138403104 1.25905752
345038500.0 -0.598836096 1.142702464
360038000.0 -0.9716336 0.871190592
375037500.0 -1.256695504 0.476382432
390037000.0 -1.379412768 -0.00871128
405036500.0 -1.291487584 -0.52005808
420036000.0 -1.035079956 -0.968746496
435035500.0 -0.628304128 -1.27689456
450035000.0 -0.15405472 -1.393888224
465034500.0 0.303984896 -1.382588256
480034000.0 0.733486912 -1.212656496
495033500.0 1.076884624 -0.919630528
510033000.0 1.32033264 -0.526021664
525032500.0 1.411730304 -0.063826428
540032000.0 1.36068416 0.388196096
555031500.0 1.155616768 0.806348928
570031000.0 0.815610624 1.117246512
585030500.0 0.400641248 1.292174112
600030000.0 -0.055298924 1.34345936
615029500.0 -0.499745056 1.234385248
630029000.0 -0.876301312 0.9700544
645028500.0 -1.172638064 0.5880224
660028000.0 -1.315140352 0.107303816
675027500.0 -1.274207008 -0.389866592
690027000.0 -1.0184803 -0.859851648
705026500.0 -0.609013568 -1.168380864
720026000.0 -0.132134632 -1.276846048
735025500.0 0.315992576 -1.214392784
750025000.0 0.712297408 -1.00404644
765024500.0 1.005083442 -0.65959936
780024000.0 1.141081456 -0.20581576
795023500.0 1.110402344 0.213479552
810023000.0 0.865323712 0.54959168
825022500.0 0.559213696 0.731980672
840022000.0 0.278023808 0.778748288
855021500.0 0.057927372 0.761120128
870021000.0 -0.125255912 0.734197568
885020500.0 -0.29615264 0.719488704
900020000.0 -0.52179968 0.743281088
915019500.0 -0.507197248 0.739553216
930019000.0 -0.483070496 0.740146624
945018500.0 -0.467397696 0.743607616
960018000.0 -0.459513952 0.744274048
975017500.0 -0.423147904 0.750237376
990017000.0 -0.414311872 0.756400064
1005016500.0 -0.3974576 0.766238784
1020016000.0 -0.374260736 0.76518624
1035015500.0 -0.352595136 0.774648256
1050015000.0 -0.310792032 0.775225728
1065014500.0 -0.316499616 0.78828576
1080014000.0 -0.286431744 0.791786496
1095013500.0 -0.257097072 0.798178688
1110013000.0 -0.23256032 0.79724096
1125012500.0 -0.218368016 0.794173056
1140012000.0 -0.181184704 0.802792064
1155011500.0 -0.145239008 0.79042464
1170011000.0 -0.124453336 0.807642816
1185010500.0 -0.1084514 0.803520192
1200010000.0 -0.074461784 0.807912192
1215009500.0 -0.048618456 0.81522304
1230009000.0 -0.002217303 0.812788288
1245008500.0 0.014613948 0.817290112
1260008000.0 0.046860684 0.786217984
1275007500.0 0.08568844 0.818402496
1290007000.0 0.117913408 0.80091712
1305006500.0 0.134834848 0.807873152
1320006000.0 0.180605712 0.788439744
1335005500.0 0.205766048 0.77861344
1350005000.0 0.236343392 0.774691968
1365004500.0 0.264634608 0.768362304
1380004000.0 0.295722336 0.751726656
1395003500.0 0.325948576 0.711536576
1410003000.0 0.33196112 0.712944576
1425002500.0 0.365763008 0.6906912
1440002000.0 0.401651872 0.67995872
1455001500.0 0.42107568 0.6743904
1470001000.0 0.465094048 0.64894528
1485000500.0 0.456747072 0.620242176
1500000000.0 0.486251904 0.5979952
