! Created with skrf 1.8.0 (http://scikit-rf.org).
# Hz S RI R 50.0 
!freq ReS11 ImS11
50000.0 -0.882936128 -0.001465469
15049500.0 -0.822355648 0.272444256
30049000.0 -0.695522176 0.480196128
45048500.0 -0.521199648 0.63083008
60048000.0 -0.325468832 0.718146176
75047500.0 -0.1290926 0.745594944
90047000.0 0.06257002 0.72078016
105046500.0 0.226163712 0.659838848
120046000.0 0.361646944 0.569917568
135045500.0 0.467962816 0.459086496
150045000.0 0.546297408 0.335045792
165044500.0 0.597026304 0.203910016
180044000.0 0.62136928 0.069707568
195043500.0 0.620187968 -0.064395168
210043000.0 0.594910272 -0.194023216
225042500.0 0.546247744 -0.318204864
240042000.0 0.474851488 -0.432937216
255041500.0 0.3803264 -0.535536896
270041000.0 0.263954192 -0.620528064
285040500.0 0.127685816 -0.683101184
300040000.0 -0.015490468 -0.719155328
315039500.0 -0.184690304 -0.722901504
330039000.0 -0.357456832 -0.67799456
345038500.0 -0.523568704 -0.589595264
360038000.0 -0.66716288 -0.450118144
375037500.0 -0.76645184 -0.267718432
390037000.0 -0.804532992 -0.06357456
405036500.0 -0.778945216 0.151618592
420036000.0 -0.686253312 0.338922528
435035500.0 -0.538741184 0.485780928
450035000.0 -0.367526528 0.572831104
465034500.0 -0.18220712 0.605180096
480034000.0 -0.014362726 0.587967424
495033500.0 0.132226184 0.53651024
510033000.0 0.248343824 0.457181344
525032500.0 0.338381024 0.36177056
540032000.0 0.400764992 0.258368192
555031500.0 0.439058656 0.151066528
570031000.0 0.45532352 0.04519206
585030500.0 0.452711488 -0.057046176
600030000.0 0.431667968 -0.148084144
615029500.0 0.397778944 -0.238001392
630029000.0 0.34815152 -0.31885232
645028500.0 0.28644592 -0.392917248
660028000.0 0.212628864 -0.456322016
675027500.0 0.127008272 -0.505164448
690027000.0 0.031215652 -0.540463296
705026500.0 -0.07617944 -0.55767872
720026000.0 -0.189473408 -0.551798848
735025500.0 -0.307167584 -0.52267152
750025000.0 -0.420926976 -0.459359808
765024500.0 -0.52114624 -0.36814272
780024000.0 -0.599464256 -0.241258
795023500.0 -0.634638272 -0.097302584
810023000.0 -0.627624 0.056224276
825022500.0 -0.57054816 0.204181952
840022000.0 -0.473744768 0.321528736
855021500.0 -0.34978912 0.400573536
870021000.0 -0.218236784 0.438785504
885020500.0 -0.091541808 0.438538112
900020000.0 0.034178736 0.408154784
915019500.0 0.12424332 0.356943392
930019000.0 0.192318608 0.289694176
945018500.0 0.245782944 0.215916256
960018000.0 0.281230432 0.140144912
975017500.0 0.300343232 0.064440056
990017000.0 0.307522496 -0.01286951
1005016500.0 0.300833312 -0.08652988
1020016000.0 0.289218016 -0.159742928
1035015500.0 0.260931216 -0.22754712
1050015000.0 0.23279624 -0.28540464
1065014500.0 0.18151304 -0.355417792
1080014000.0 0.123841416 -0.412916576
1095013500.0 0.058827268 -0.461542016
1110013000.0 -0.021495366 -0.49913648
1125012500.0 -0.103037952 -0.514042848
1140012000.0 -0.204915904 -0.530487776
1155011500.0 -0.305834912 -0.499561632
1170011000.0 -0.427658048 -0.464255328
1185010500.0 -0.535469952 -0.40535456
1200010000.0 -0.620364864 -0.299375136
1215009500.0 -0.689580032 -0.164328672
1230009000.0 -0.687547712 -0.011646772
1245008500.0 -0.650124672 0.148031296
1260008000.0 -0.575028544 0.269203296
1275007500.0 -0.445483808 0.37242848
1290007000.0 -0.327161216 0.424070208
1305006500.0 -0.204615536 0.439937696
1320006000.0 -0.085880264 0.413549568
1335005500.0 0.010582164 0.386488512
1350005000.0 0.090247456 0.346824832
1365004500.0 0.152251552 0.265164768
1380004000.0 0.193876608 0.213445984
1395003500.0 0.237240256 0.15332032
1410003000.0 0.266411696 0.10147812
1425002500.0 0.272404704 0.016319606
1440002000.0 0.269591936 -0.026954846
1455001500.0 0.261631456 -0.105382832
1470001000.0 0.2082352 -0.169999328
1485000500.0 0.177595104 -0.21016896
1500000000.0 0.10974472 -0.274118496
