! Created with skrf 1.8.0 (http://scikit-rf.org).
# Hz S RI R 50.0 
!freq ReS11 ImS11
50000.0 0.997035392 0.00087086
15049500.0 0.939333312 0.360433824
30049000.0 0.749943296 0.672695232
45048500.0 0.461328672 0.892050112
60048000.0 0.103250416 1.01355958
75047500.0 -0.273721024 0.988000704
90047000.0 -0.619321664 0.81969824
105046500.0 -0.890842112 0.545937728
120046000.0 -1.0417974 0.185044208
135045500.0 -1.04457438 -0.208620256
150045000.0 -0.914508352 -0.58553088
165044500.0 -0.647873088 -0.884608512
180044000.0 -0.314296384 -1.044213772
195043500.0 0.064630048 -1.100941656
210043000.0 0.434513728 -1.021645308
225042500.0 0.752016448 -0.820590848
240042000.0 0.994792192 -0.538952768
255041500.0 1.137258656 -0.187280528
270041000.0 1.150097968 0.222573424
285040500.0 1.022425532 0.633346304
300040000.0 0.686621888 0.955692224
315039500.0 0.318251424 1.193105936
330039000.0 -0.142472256 1.25486672
345038500.0 -0.59576512 1.1405636
360038000.0 -0.966674112 0.869540864
375037500.0 -1.255746848 0.475434656
390037000.0 -1.383703232 -0.027354162
405036500.0 -1.28951776 -0.519043744
420036000.0 -1.032230138 -0.968181696
435035500.0 -0.63040256 -1.268543968
450035000.0 -0.16979056 -1.401473056
465034500.0 0.30529392 -1.381710048
480034000.0 0.72735008 -1.212469936
495033500.0 1.07426 -0.915782528
510033000.0 1.318576704 -0.52764464
525032500.0 1.408827648 -0.065673852
540032000.0 1.361061088 0.387661344
555031500.0 1.155471088 0.800929408
570031000.0 0.815884352 1.11250496
585030500.0 0.39175552 1.285839552
600030000.0 -0.05426284 1.34137856
615029500.0 -0.500237536 1.224243408
630029000.0 -0.874867008 0.957484608
645028500.0 -1.16969848 0.579653056
660028000.0 -1.312240352 0.103994376
675027500.0 -1.2675376 -0.391576352
690027000.0 -1.016260148 -0.864841728
705026500.0 -0.60570016 -1.161657696
720026000.0 -0.137601328 -1.2668556
735025500.0 0.313803168 -1.21126008
750025000.0 0.706469696 -0.99705696
765024500.0 1.002037644 -0.659839872
780024000.0 1.174604416 -0.250955648
795023500.0 1.10122728 0.213078672
810023000.0 0.861764992 0.556699328
825022500.0 0.556783168 0.739431936
840022000.0 0.27472432 0.779038336
855021500.0 0.053189348 0.76441216
870021000.0 -0.124696104 0.732524608
885020500.0 -0.30028224 0.712325632
900020000.0 -0.524457504 0.73939936
915019500.0 -0.503777984 0.741909696
930019000.0 -0.49037616 0.7406624
945018500.0 -0.473404256 0.737182848
960018000.0 -0.44996576 0.755216128
975017500.0 -0.445379648 0.75908704
990017000.0 -0.419216096 0.75318688
1005016500.0 -0.396427392 0.762127104
1020016000.0 -0.378143424 0.761520704
1035015500.0 -0.357405984 0.778018432
1050015000.0 -0.32881152 0.799572352
1065014500.0 -0.305469024 0.792093696
1080014000.0 -0.278005504 0.79384256
1095013500.0 -0.253163424 0.795500032
1110013000.0 -0.234082608 0.802416768
1125012500.0 -0.2251864 0.778598144
1140012000.0 -0.184323872 0.804475584
1155011500.0 -0.15608616 0.826556416
1170011000.0 -0.110214944 0.792479424
1185010500.0 -0.098544888 0.809232704
1200010000.0 -0.079009416 0.818392576
1215009500.0 -0.048136096 0.81312256
1230009000.0 -0.011806282 0.805413568
1245008500.0 0.024160882 0.803296896
1260008000.0 0.04298902 0.818048256
1275007500.0 0.084542088 0.807171712
1290007000.0 0.115536672 0.802462144
1305006500.0 0.149680416 0.802884032
1320006000.0 0.176861024 0.800132224
1335005500.0 0.215184656 0.784975104
1350005000.0 0.237394768 0.777439872
1365004500.0 0.29061856 0.737841408
1380004000.0 0.282011488 0.74742688
1395003500.0 0.327495936 0.746918528
1410003000.0 0.345941824 0.71548064
1425002500.0 0.389878496 0.699520384
1440002000.0 0.398500928 0.692904704
1455001500.0 0.413282688 0.664514944
1470001000.0 0.421289152 0.641458624
1485000500.0 0.467706688 0.654968256
1500000000.0 0.493258176 0.617047744
