! Created with skrf 1.8.0 (http://scikit-rf.org).
# Hz S RI R 50.0 
!freq ReS11 ImS11
50000.0 0.99661152 0.001422512
15049500.0 0.940045632 0.36100512
30049000.0 0.749888768 0.672924608
45048500.0 0.461894528 0.892540288
60048000.0 0.103206232 1.013901114
75047500.0 -0.273660768 0.988515584
90047000.0 -0.619273728 0.820125312
105046500.0 -0.891305408 0.54630752
120046000.0 -1.042248608 0.185366112
135045500.0 -1.04556644 -0.209714576
150045000.0 -0.914815808 -0.586112448
165044500.0 -0.648470656 -0.885119808
180044000.0 -0.314384832 -1.044921876
195043500.0 0.064806952 -1.102281808
210043000.0 0.435471808 -1.02271545
225042500.0 0.75260352 -0.821914624
240042000.0 0.996354752 -0.53988384
255041500.0 1.137739424 -0.187028624
270041000.0 1.15163672 0.222367728
285040500.0 1.021995544 0.633537152
300040000.0 0.686237504 0.9571872
315039500.0 0.318195584 1.193043584
330039000.0 -0.136468032 1.258486624
345038500.0 -0.596905856 1.142354368
360038000.0 -0.97031328 0.872019968
375037500.0 -1.257436512 0.48044416
390037000.0 -1.390140768 -0.001434653
405036500.0 -1.294155488 -0.518930848
420036000.0 -1.033438802 -0.968260224
435035500.0 -0.634516032 -1.276981248
450035000.0 -0.16703448 -1.410582528
465034500.0 0.300643328 -1.380185248
480034000.0 0.727177024 -1.212144608
495033500.0 1.076348904 -0.916617344
510033000.0 1.320603264 -0.52632208
525032500.0 1.410531648 -0.070815328
540032000.0 1.363811488 0.384789152
555031500.0 1.157895808 0.802856
570031000.0 0.818657472 1.117169616
585030500.0 0.398524032 1.29572512
600030000.0 -0.054197732 1.348705408
615029500.0 -0.496854688 1.2259444
630029000.0 -0.874966016 0.96989376
645028500.0 -1.170608288 0.578540416
660028000.0 -1.311369888 0.10670812
675027500.0 -1.267800096 -0.383047648
690027000.0 -1.014197946 -0.859210496
705026500.0 -0.610961408 -1.166505456
720026000.0 -0.137598688 -1.267246128
735025500.0 0.311343328 -1.219460368
750025000.0 0.709416832 -1.001213551
765024500.0 1.001543999 -0.659375744
780024000.0 1.165855296 -0.261021792
795023500.0 1.106043576 0.207773024
810023000.0 0.868557568 0.549808832
825022500.0 0.558649472 0.735722368
840022000.0 0.28235936 0.782048512
855021500.0 0.056387504 0.760654656
870021000.0 -0.128831696 0.72975616
885020500.0 -0.29198192 0.721312256
900020000.0 -0.523004224 0.742079296
915019500.0 -0.505037472 0.741242176
930019000.0 -0.487623328 0.742049408
945018500.0 -0.471680384 0.74333984
960018000.0 -0.446731424 0.74889152
975017500.0 -0.431105024 0.752473408
990017000.0 -0.416710496 0.75331616
1005016500.0 -0.395510816 0.762995968
1020016000.0 -0.362021184 0.773937408
1035015500.0 -0.354986336 0.771218304
1050015000.0 -0.30928112 0.767366912
1065014500.0 -0.306763552 0.7920288
1080014000.0 -0.281052512 0.80550496
1095013500.0 -0.259891808 0.797659008
1110013000.0 -0.238522752 0.808427776
1125012500.0 -0.215033744 0.796537152
1140012000.0 -0.18503672 0.810197504
1155011500.0 -0.130863968 0.802796032
1170011000.0 -0.126948016 0.808512384
1185010500.0 -0.094294328 0.807392384
1200010000.0 -0.070286464 0.812508672
1215009500.0 -0.038804468 0.80911104
1230009000.0 -0.00199816 0.818279232
1245008500.0 0.019442084 0.80945824
1260008000.0 0.050364988 0.817205696
1275007500.0 0.089238176 0.801983808
1290007000.0 0.115962 0.805239872
1305006500.0 0.148055568 0.797216704
1320006000.0 0.185166992 0.787598848
1335005500.0 0.211763312 0.779905856
1350005000.0 0.231925616 0.771462912
1365004500.0 0.262123888 0.774759296
1380004000.0 0.299514368 0.75116384
1395003500.0 0.332578464 0.7286896
1410003000.0 0.345903008 0.721372032
1425002500.0 0.373089024 0.689131648
1440002000.0 0.391973792 0.679586944
1455001500.0 0.419301856 0.643421504
1470001000.0 0.440314464 0.635704128
1485000500.0 0.45508912 0.631840832
1500000000.0 0.490417152 0.620000576
