! Created with skrf 1.8.0 (http://scikit-rf.org).
# Hz S RI R 50.0 
!freq ReS11 ImS11
50000.0 0.99924224 0.00154769
10049500.0 0.973969152 0.242796208
20049000.0 0.888742272 0.471880512
30048500.0 0.750615552 0.673668416
40048000.0 0.5695168 0.835690368
50047500.0 0.35022448 0.954909184
60047000.0 0.102936368 1.01514864
70046500.0 -0.149394832 1.011662006
80046000.0 -0.39616032 0.946123264
90045500.0 -0.620669824 0.820734016
100045000.0 -0.811718336 0.648897152
110044500.0 -0.956142912 0.432149696
120044000.0 -1.043467284 0.184674672
130043500.0 -1.034435392 -0.081995416
140043000.0 -1.02463007 -0.342139392
150042500.0 -0.91578208 -0.58778528
160042000.0 -0.747680896 -0.798040384
170041500.0 -0.534840416 -0.958438336
180041000.0 -0.314041952 -1.047077896
190040500.0 -0.061591676 -1.097605584
200040000.0 0.192675632 -1.089550256
210039500.0 0.438053056 -1.02375853
220039000.0 0.660589568 -0.90453504
230038500.0 0.850230272 -0.740399104
240038000.0 0.998832 -0.53797856
250037500.0 1.103552936 -0.309762784
260037000.0 1.1581316 -0.05263754
270036500.0 1.154095536 0.224862976
280036000.0 1.083735944 0.5041824
290035500.0 0.943362304 0.75948448
300035000.0 0.685619776 0.962298048
310034500.0 0.465270528 1.147600528
320034000.0 0.168774608 1.238533264
330033500.0 -0.143371408 1.259477024
340033000.0 -0.454267936 1.1990292
350032500.0 -0.74065312 1.060014368
360032000.0 -0.973959872 0.870503936
370031500.0 -1.178830032 0.619012992
380031000.0 -1.318801888 0.314364096
390030500.0 -1.373755104 -0.026294414
400030000.0 -1.348952416 -0.362691136
410029500.0 -1.231081488 -0.696524288
420029000.0 -1.033035636 -0.973782784
430028500.0 -0.774811264 -1.197234032
440028000.0 -0.47269488 -1.340485568
450027500.0 -0.154040272 -1.408148416
460027000.0 0.158923792 -1.405388704
470026500.0 0.45766016 -1.342403776
480026000.0 0.737780288 -1.216123104
490025500.0 0.981720384 -1.035565376
500025000.0 1.184186096 -0.800296448
510024500.0 1.32449936 -0.526505344
520024000.0 1.405832768 -0.224462928
530023500.0 1.405634048 0.094225784
540023000.0 1.368137728 0.391771808
550022500.0 1.244932656 0.674236352
560022000.0 1.053027628 0.929651712
570021500.0 0.813710912 1.127308128
580021000.0 0.538427136 1.255911584
590020500.0 0.241673968 1.320260288
600020000.0 -0.056690704 1.354455008
610019500.0 -0.358808608 1.287911648
620019000.0 -0.636373824 1.16098296
630018500.0 -0.886649664 0.961833088
640018000.0 -1.09167564 0.719445376
650017500.0 -0.606014592 0.997031808
660017000.0 -1.322055584 0.11019128
670016500.0 -1.317652352 -0.230838832
680016000.0 -1.220581168 -0.56990528
690015500.0 -1.025288106 -0.871263424
700015000.0 -0.761538048 -1.09227836
710014500.0 -0.45412752 -1.22987128
720014000.0 -0.138119648 -1.278632032
730013500.0 0.17132424 -1.255844352
740013000.0 0.453651936 -1.161907904
750012500.0 0.705687232 -1.007422447
760012000.0 0.925424128 -0.793408
770011500.0 1.081251264 -0.534033472
780011000.0 1.19759464 -0.217264656
790010500.0 1.147159344 0.064450024
800010000.0 1.042001604 0.334531712
810009500.0 0.86830368 0.548966016
820009000.0 0.664720448 0.687530624
830008500.0 0.46025232 0.763058688
840008000.0 0.284104 0.77753536
850007500.0 0.127656192 0.772900928
860007000.0 -0.00648786 0.752892288
870006500.0 -0.128950712 0.730854464
880006000.0 -0.237351568 0.718647744
890005500.0 -0.352002912 0.718260032
900005000.0 -0.51665248 0.747277696
910004500.0 -0.765798016 0.85236928
920004000.0 -0.493029056 0.738660096
930003500.0 -0.481596992 0.73607872
940003000.0 -0.4619688 0.739405888
950002500.0 -0.452770816 0.743610176
960002000.0 -0.446308896 0.743573248
970001500.0 -0.435797408 0.743043136
980001000.0 -0.41590672 0.751211584
990000500.0 -0.411037504 0.75284704
1000000000.0 -0.397748512 0.752964032
