! Created with skrf 1.8.0 (http://scikit-rf.org).
# Hz S RI R 50.0 
!freq ReS11 ImS11
50000.0 -1.00821662 -0.000318753
10049500.0 -1.008615376 -0.111670256
20049000.0 -0.994967168 -0.220746512
30048500.0 -0.969759488 -0.3268352
40048000.0 -0.93319872 -0.428582432
50047500.0 -0.886081984 -0.531360384
60047000.0 -0.821122112 -0.629848192
70046500.0 -0.746838976 -0.71558432
80046000.0 -0.663875968 -0.792278656
90045500.0 -0.579979264 -0.853163776
100045000.0 -0.489982208 -0.91649472
110044500.0 -0.39063712 -0.970978752
120044000.0 -0.284585504 -1.014785886
130043500.0 -0.164535616 -1.016760468
140043000.0 -0.059648372 -1.064260364
150042500.0 0.0564319 -1.06936908
160042000.0 0.17331752 -1.06077516
170041500.0 0.286887392 -1.039200424
180041000.0 0.37111072 -1.01012528
190040500.0 0.474510432 -0.972532416
200040000.0 0.571369728 -0.924273344
210039500.0 0.661390464 -0.86720864
220039000.0 0.741523456 -0.803091008
230038500.0 0.812695744 -0.734339584
240038000.0 0.874137152 -0.661418304
250037500.0 0.928713984 -0.585968064
260037000.0 0.982844032 -0.502351232
270036500.0 1.035351992 -0.406263296
280036000.0 1.076449992 -0.302945376
290035500.0 1.106801272 -0.197990544
300035000.0 1.09408116 -0.060435184
310034500.0 1.134832496 0.029484556
320034000.0 1.126781104 0.135632192
330033500.0 1.106563928 0.235347312
340033000.0 1.075250504 0.336830432
350032500.0 1.03525114 0.431780576
360032000.0 0.9877248 0.508781248
370031500.0 0.939504192 0.603561408
380031000.0 0.879487808 0.693973184
390030500.0 0.812034752 0.784040192
400030000.0 0.732490688 0.866851072
410029500.0 0.644897088 0.945314048
420029000.0 0.549880768 1.01405263
430028500.0 0.447252608 1.075760128
440028000.0 0.337929984 1.128312352
450027500.0 0.220083024 1.172986032
460027000.0 0.097836408 1.21451128
470026500.0 -0.031127852 1.249054432
480026000.0 -0.173072464 1.269818656
490025500.0 -0.320251296 1.275753376
500025000.0 -0.475635968 1.261165264
510024500.0 -0.623862848 1.224694016
520024000.0 -0.770691136 1.171520112
530023500.0 -0.901984 1.097938536
540023000.0 -1.060677288 0.966015424
550022500.0 -1.160758384 0.875939776
560022000.0 -1.248143072 0.778876096
570021500.0 -1.323237408 0.673566016
580021000.0 -1.385442272 0.562875648
590020500.0 -1.410500992 0.401659616
600020000.0 -1.481346848 0.282225696
610019500.0 -1.493863456 0.145622976
620019000.0 -1.481933344 0.003185441
630018500.0 -1.45215632 -0.14552464
640018000.0 -1.411815648 -0.294182336
650017500.0 -0.796120064 -0.791768256
660017000.0 -1.248650912 -0.559789824
670016500.0 -1.154725312 -0.670742656
680016000.0 -1.041751624 -0.757887872
690015500.0 -0.91640768 -0.844090752
700015000.0 -0.792854016 -0.89777568
710014500.0 -0.67316768 -0.942243776
720014000.0 -0.544002304 -0.964066944
730013500.0 -0.424427232 -0.978832832
740013000.0 -0.306885568 -0.982449536
750012500.0 -0.184744784 -0.975240192
760012000.0 -0.0693592 -0.963478848
770011500.0 0.041222828 -0.938286336
780011000.0 0.139810464 -0.880518528
790010500.0 0.23102136 -0.854198336
800010000.0 0.303575328 -0.805167104
810009500.0 0.365298912 -0.7536192
820009000.0 0.419185696 -0.699149312
830008500.0 0.455193184 -0.659223744
840008000.0 0.494288608 -0.630895296
850007500.0 0.528538656 -0.612549376
860007000.0 0.569353792 -0.603680768
870006500.0 0.621159616 -0.60675008
880006000.0 0.681842112 -0.615248704
890005500.0 0.769706048 -0.620164032
900005000.0 0.89257664 -0.637446784
910004500.0 0.968083392 -0.751680704
920004000.0 0.82929632 -0.987233408
930003500.0 0.738522944 -1.191080096
940003000.0 0.596796096 -1.376546848
950002500.0 0.423281248 -1.555338048
960002000.0 0.15970032 -1.696097472
970001500.0 -0.14207392 -1.78387008
980001000.0 -0.485536864 -1.808278656
990000500.0 -0.835818176 -1.72090112
1000000000.0 -1.12582004 -1.51572608
