! Created with skrf 1.8.0 (http://scikit-rf.org).
# Hz S RI R 50.0 
!freq ReS11 ImS11
50000.0 0.99599328 0.001240459
15049500.0 0.939277568 0.360281472
30049000.0 0.749274816 0.672209344
45048500.0 0.461461152 0.891729152
60048000.0 0.103325056 1.01277268
75047500.0 -0.273175104 0.987581952
90047000.0 -0.618739136 0.819236736
105046500.0 -0.890620992 0.545853888
120046000.0 -1.041206836 0.185337696
135045500.0 -1.044627072 -0.208870352
150045000.0 -0.91437504 -0.585093248
165044500.0 -0.648017792 -0.883858112
180044000.0 -0.315174048 -1.043494344
195043500.0 0.06305848 -1.100340608
210043000.0 0.433698432 -1.022085786
225042500.0 0.75107008 -0.82141696
240042000.0 0.993655168 -0.540560128
255041500.0 1.134781472 -0.18944216
270041000.0 1.15032744 0.22022608
285040500.0 1.021967768 0.631
300040000.0 0.688992832 0.95497888
315039500.0 0.320868672 1.19032752
330039000.0 -0.135165568 1.256628752
345038500.0 -0.595953856 1.143204336
360038000.0 -0.964667392 0.871377024
375037500.0 -1.251937984 0.47680752
390037000.0 -1.365513696 -0.006611344
405036500.0 -1.290844192 -0.511334528
420036000.0 -1.035283564 -0.962798272
435035500.0 -0.633142848 -1.271456832
450035000.0 -0.173393152 -1.389740832
465034500.0 0.294715424 -1.3797952
480034000.0 0.7262608 -1.216667408
495033500.0 1.071742776 -0.916966528
510033000.0 1.314944992 -0.528059968
525032500.0 1.404732 -0.072093848
540032000.0 1.357620704 0.382314368
555031500.0 1.150601024 0.798300672
570031000.0 0.814404416 1.109373688
585030500.0 0.39284624 1.290793536
600030000.0 -0.047860792 1.341762432
615029500.0 -0.491863328 1.219534992
630029000.0 -0.875042944 0.959771328
645028500.0 -1.162016752 0.580214528
660028000.0 -1.30638624 0.103412752
675027500.0 -1.267861248 -0.390681152
690027000.0 -1.011140824 -0.857840832
705026500.0 -0.606066624 -1.165713072
720026000.0 -0.144835552 -1.261634112
735025500.0 0.315421856 -1.206074
750025000.0 0.708772736 -0.9946768
765024500.0 1.001155496 -0.652597504
780024000.0 1.169930816 -0.259862128
795023500.0 1.10424948 0.209128656
810023000.0 0.864373888 0.5568256
825022500.0 0.5586672 0.736526144
840022000.0 0.276227776 0.781517184
855021500.0 0.057462484 0.763883648
870021000.0 -0.126802312 0.73327424
885020500.0 -0.299418528 0.717267712
900020000.0 -0.530225408 0.739911424
915019500.0 -0.508816192 0.737965632
930019000.0 -0.486749792 0.748956352
945018500.0 -0.473684864 0.746987456
960018000.0 -0.454143584 0.745880704
975017500.0 -0.42589904 0.743439488
990017000.0 -0.419879936 0.761582336
1005016500.0 -0.404970144 0.771631104
1020016000.0 -0.381240928 0.764074432
1035015500.0 -0.347195296 0.780926528
1050015000.0 -0.324620448 0.763042112
1065014500.0 -0.30878928 0.79199008
1080014000.0 -0.2861728 0.800641856
1095013500.0 -0.258180592 0.8099312
1110013000.0 -0.231452848 0.816161984
1125012500.0 -0.215156432 0.805136576
1140012000.0 -0.173068656 0.813420608
1155011500.0 -0.145687264 0.788685504
1170011000.0 -0.116802304 0.807093376
1185010500.0 -0.0965326 0.817126784
1200010000.0 -0.07459128 0.821554816
1215009500.0 -0.0422289 0.817721984
1230009000.0 -0.015224678 0.824764224
1245008500.0 0.01017035 0.82953088
1260008000.0 0.070620448 0.82215104
1275007500.0 0.09812424 0.820367296
1290007000.0 0.11918884 0.813557632
1305006500.0 0.162398912 0.818468992
1320006000.0 0.189502496 0.8056224
1335005500.0 0.204978224 0.808194048
1350005000.0 0.250209776 0.78422752
1365004500.0 0.214860384 0.778632064
1380004000.0 0.292900096 0.769000704
1395003500.0 0.30864288 0.745298048
1410003000.0 0.346268544 0.727633792
1425002500.0 0.359398528 0.70258752
1440002000.0 0.410198816 0.704078848
1455001500.0 0.409022976 0.679637248
1470001000.0 0.446161536 0.643256
1485000500.0 0.46173616 0.635241536
1500000000.0 0.47978496 0.610866176
