! Created with skrf 1.8.0 (http://scikit-rf.org).
# Hz S RI R 50.0 
!freq ReS11 ImS11
50000.0 0.996673984 0.000456064
15049500.0 0.939342272 0.36043968
30049000.0 0.749457152 0.672267904
45048500.0 0.461400896 0.89158528
60048000.0 0.1031294 1.01297605
75047500.0 -0.272910432 0.987217792
90047000.0 -0.61875232 0.819359744
105046500.0 -0.890336192 0.545657792
120046000.0 -1.040943144 0.185182176
135045500.0 -1.044362424 -0.209695856
150045000.0 -0.914233536 -0.585179904
165044500.0 -0.648027328 -0.883416448
180044000.0 -0.314765632 -1.042918088
195043500.0 0.06353076 -1.100319504
210043000.0 0.433264896 -1.021761776
225042500.0 0.750159424 -0.821129984
240042000.0 0.99316128 -0.54112928
255041500.0 1.134511824 -0.18928864
270041000.0 1.150040864 0.21934032
285040500.0 1.0211066 0.631228096
300040000.0 0.686733824 0.955679168
315039500.0 0.320609792 1.189719552
330039000.0 -0.134982112 1.254260656
345038500.0 -0.593080448 1.142413024
360038000.0 -0.965937344 0.87320096
375037500.0 -1.250412576 0.47828336
390037000.0 -1.37383568 0.00251099
405036500.0 -1.286951904 -0.514543488
420036000.0 -1.036182524 -0.961970176
435035500.0 -0.630742208 -1.270308864
450035000.0 -0.155550256 -1.399569408
465034500.0 0.299370528 -1.379975904
480034000.0 0.723932416 -1.213903424
495033500.0 1.068402048 -0.916032256
510033000.0 1.319282528 -0.526269984
525032500.0 1.405580768 -0.069704304
540032000.0 1.357886208 0.379198944
555031500.0 1.153903488 0.795352384
570031000.0 0.810779072 1.10741556
585030500.0 0.39078096 1.286022784
600030000.0 -0.051647856 1.34006416
615029500.0 -0.496512128 1.223856688
630029000.0 -0.87681856 0.964021376
645028500.0 -1.166877872 0.582200576
660028000.0 -1.30465232 0.104526544
675027500.0 -1.262836224 -0.386721312
690027000.0 -1.0111655 -0.868780608
705026500.0 -0.607218176 -1.1684568
720026000.0 -0.132319512 -1.265725376
735025500.0 0.313918752 -1.206878784
750025000.0 0.709126528 -0.99721376
765024500.0 1.000383019 -0.65722304
780024000.0 1.130122184 -0.241145248
795023500.0 1.099827168 0.215293776
810023000.0 0.863086464 0.549377664
825022500.0 0.557636352 0.735936256
840022000.0 0.275954112 0.779472832
855021500.0 0.057090588 0.763485248
870021000.0 -0.129246544 0.733963264
885020500.0 -0.298128768 0.723074048
900020000.0 -0.52801536 0.738577216
915019500.0 -0.514584256 0.738059392
930019000.0 -0.492225632 0.743756096
945018500.0 -0.47128128 0.747225664
960018000.0 -0.457611456 0.75374144
975017500.0 -0.438816256 0.75615872
990017000.0 -0.417926624 0.762404864
1005016500.0 -0.400644544 0.768664256
1020016000.0 -0.376613632 0.767858432
1035015500.0 -0.36126048 0.781477568
1050015000.0 -0.34249328 0.773597056
1065014500.0 -0.316163456 0.800514304
1080014000.0 -0.293746048 0.811684288
1095013500.0 -0.2593024 0.81604608
1110013000.0 -0.239759136 0.815589696
1125012500.0 -0.21710288 0.810411712
1140012000.0 -0.176345952 0.822145088
1155011500.0 -0.137016672 0.854310464
1170011000.0 -0.116298336 0.855418048
1185010500.0 -0.095609816 0.82609984
1200010000.0 -0.0683666 0.83161504
1215009500.0 -0.031288802 0.830926976
1230009000.0 -0.00336804 0.834665984
1245008500.0 0.014031834 0.82932288
1260008000.0 0.05343662 0.847367872
1275007500.0 0.090681168 0.826086784
1290007000.0 0.124754384 0.819240448
1305006500.0 0.158499952 0.809574656
1320006000.0 0.181841824 0.803257728
1335005500.0 0.20910528 0.812029312
1350005000.0 0.250004832 0.781835648
1365004500.0 0.287129056 0.810846912
1380004000.0 0.2905488 0.761932608
1395003500.0 0.336974144 0.742307072
1410003000.0 0.340612 0.751672768
1425002500.0 0.361607744 0.716444416
1440002000.0 0.388156256 0.706714304
1455001500.0 0.433029792 0.674137344
1470001000.0 0.429277152 0.657487616
1485000500.0 0.442542464 0.64335936
1500000000.0 0.465472544 0.643862336
