! Created with skrf 1.8.0 (http://scikit-rf.org).
# Hz S RI R 50.0 
!freq ReS11 ImS11
50000.0 0.998638976 0.001772367
15049500.0 0.9404352 0.361041568
30049000.0 0.75017312 0.673374208
45048500.0 0.461829408 0.893191936
60048000.0 0.102871024 1.01423204
75047500.0 -0.274198144 0.988814848
90047000.0 -0.620190784 0.820138304
105046500.0 -0.892401088 0.54581984
120046000.0 -1.042832972 0.184698176
135045500.0 -1.046439292 -0.210526112
150045000.0 -0.91467008 -0.587353856
165044500.0 -0.647805952 -0.886256192
180044000.0 -0.313524512 -1.045540692
195043500.0 0.065727316 -1.102221728
210043000.0 0.43679984 -1.022909284
225042500.0 0.754391424 -0.820515264
240042000.0 0.99792032 -0.538960256
255041500.0 1.138413312 -0.18536136
270041000.0 1.150938512 0.224219856
285040500.0 1.02298832 0.637319488
300040000.0 0.686267776 0.960026176
315039500.0 0.31662512 1.196059104
330039000.0 -0.1404208 1.2569536
345038500.0 -0.600087296 1.141020064
360038000.0 -0.971538752 0.87301504
375037500.0 -1.25941456 0.471868224
390037000.0 -1.37610544 -0.024531818
405036500.0 -1.29315328 -0.524069184
420036000.0 -1.033085824 -0.97162048
435035500.0 -0.629349888 -1.274047744
450035000.0 -0.151100528 -1.393484832
465034500.0 0.307034592 -1.380957472
480034000.0 0.7324256 -1.214059472
495033500.0 1.080046656 -0.916448512
510033000.0 1.322846048 -0.525523488
525032500.0 1.411468992 -0.065004424
540032000.0 1.360131392 0.391318784
555031500.0 1.158602112 0.805075008
570031000.0 0.81379808 1.116901992
585030500.0 0.396134048 1.296833888
600030000.0 -0.05655254 1.346754304
615029500.0 -0.500055904 1.226781968
630029000.0 -0.874322176 0.9649088
645028500.0 -1.17215264 0.582014592
660028000.0 -1.31646608 0.103065032
675027500.0 -1.26658392 -0.392635488
690027000.0 -1.023808122 -0.871557312
705026500.0 -0.610166208 -1.175859088
720026000.0 -0.140286144 -1.27676176
735025500.0 0.313094048 -1.215477824
750025000.0 0.702411392 -1.003201366
765024500.0 1.005436182 -0.657315648
780024000.0 1.16133952 -0.211315408
795023500.0 1.104795816 0.210864096
810023000.0 0.858479232 0.554962688
825022500.0 0.55701728 0.733235648
840022000.0 0.275214528 0.78023744
855021500.0 0.058032172 0.757591744
870021000.0 -0.126622736 0.730038336
885020500.0 -0.292903904 0.71588384
900020000.0 -0.519219648 0.738521408
915019500.0 -0.505301664 0.73577216
930019000.0 -0.49016672 0.738445184
945018500.0 -0.466099328 0.742072448
960018000.0 -0.451342624 0.742485056
975017500.0 -0.430162912 0.753379008
990017000.0 -0.412377632 0.751491456
1005016500.0 -0.38664176 0.766276032
1020016000.0 -0.378480352 0.755374208
1035015500.0 -0.350794656 0.772892992
1050015000.0 -0.353166624 0.794634624
1065014500.0 -0.308177472 0.778899584
1080014000.0 -0.282081056 0.789199744
1095013500.0 -0.262303952 0.793268608
1110013000.0 -0.239267824 0.794747712
1125012500.0 -0.217110672 0.798518656
1140012000.0 -0.18241144 0.799016832
1155011500.0 -0.153965216 0.7827712
1170011000.0 -0.14031496 0.810875968
1185010500.0 -0.10764388 0.796628096
1200010000.0 -0.0690374 0.803665024
1215009500.0 -0.04984822 0.805837632
1230009000.0 -0.021428726 0.799203584
1245008500.0 0.017271148 0.80744192
1260008000.0 0.032843382 0.790754432
1275007500.0 0.075005768 0.791884032
1290007000.0 0.118309792 0.789672448
1305006500.0 0.135999936 0.791354368
1320006000.0 0.174761872 0.778661696
1335005500.0 0.20138936 0.772954304
1350005000.0 0.225928672 0.76386496
1365004500.0 0.284634848 0.766141184
1380004000.0 0.306897664 0.728755904
1395003500.0 0.323578624 0.724224256
1410003000.0 0.352573248 0.702309376
1425002500.0 0.402323648 0.69082592
1440002000.0 0.3932336 0.673374848
1455001500.0 0.414306688 0.65142912
1470001000.0 0.442192128 0.655994432
1485000500.0 0.461431168 0.616811776
1500000000.0 0.485822816 0.604859072
