! Created with skrf 1.8.0 (http://scikit-rf.org).
# Hz S RI R 50.0 
!freq ReS11 ImS11
50000.0 -0.006738825 -0.003978878
15049500.0 -0.001547701 0.0052158
30049000.0 -0.004772106 0.00764637
45048500.0 -0.010449134 0.007951622
60048000.0 -0.017240836 0.005653335
75047500.0 -0.02423872 0.001190675
90047000.0 -0.030545854 -0.005752048
105046500.0 -0.034702876 -0.013587198
120046000.0 -0.03618408 -0.021860498
135045500.0 -0.034489764 -0.029039078
150045000.0 -0.030994592 -0.034571188
165044500.0 -0.025258298 -0.03737878
180044000.0 -0.01952233 -0.034909928
195043500.0 -0.01409509 -0.030938874
210043000.0 -0.010774566 -0.023894192
225042500.0 -0.010011988 -0.015404504
240042000.0 -0.012901744 -0.006798508
255041500.0 -0.01886665 -0.000165158
270041000.0 -0.0269926 0.002405258
285040500.0 -0.035707848 0.000511083
300040000.0 -0.041422436 -0.007190829
315039500.0 -0.045575784 -0.017851504
330039000.0 -0.042978024 -0.033309418
345038500.0 -0.032215044 -0.050165712
360038000.0 -0.01383858 -0.065782964
375037500.0 0.012301736 -0.077234336
390037000.0 0.047436924 -0.081784624
405036500.0 0.084466048 -0.076144208
420036000.0 0.124405568 -0.060859748
435035500.0 0.159453072 -0.0347565
450035000.0 0.186327312 0.001387968
465034500.0 0.206137232 0.044868532
480034000.0 0.212522976 0.089227464
495033500.0 0.201384736 0.1343652
510033000.0 0.179285008 0.172365488
525032500.0 0.147550464 0.197080224
540032000.0 0.103183264 0.205314608
555031500.0 0.066059136 0.198607456
570031000.0 0.035100668 0.173879248
585030500.0 0.01301448 0.14008488
600030000.0 0.003679103 0.096031856
615029500.0 0.007211207 0.048751172
630029000.0 0.02909298 0.004447806
645028500.0 0.064943112 -0.03304284
660028000.0 0.109469 -0.055183652
675027500.0 0.156212096 -0.064362936
690027000.0 0.201710704 -0.058559088
705026500.0 0.238335088 -0.035721796
720026000.0 0.263812896 0.003915203
735025500.0 0.276384896 0.0572527
750025000.0 0.2645688 0.114565784
765024500.0 0.226284752 0.173318992
780024000.0 0.15145168 0.213399184
795023500.0 0.069399112 0.219994768
810023000.0 -0.014869612 0.185962176
825022500.0 -0.081525688 0.133653
840022000.0 -0.12711696 0.057426268
855021500.0 -0.151307504 -0.024980322
870021000.0 -0.168460304 -0.111754176
885020500.0 -0.17373352 -0.21814272
900020000.0 -0.168594176 -0.344764384
915019500.0 -0.212677488 -0.35884688
930019000.0 -0.273111872 -0.358644096
945018500.0 -0.315323808 -0.322027616
960018000.0 -0.355259136 -0.274185216
975017500.0 -0.366534688 -0.210504848
990017000.0 -0.372694016 -0.145149424
1005016500.0 -0.339832288 -0.082919888
1020016000.0 -0.297156192 -0.038558584
1035015500.0 -0.246109664 -0.003879966
1050015000.0 -0.187350256 0.006742583
1065014500.0 -0.135507408 -0.005006682
1080014000.0 -0.087952832 -0.02204649
1095013500.0 -0.058915888 -0.050137344
1110013000.0 -0.03325956 -0.09198604
1125012500.0 -0.039431476 -0.1321594
1140012000.0 -0.041511868 -0.16256672
1155011500.0 -0.072202104 -0.188910352
1170011000.0 -0.109192056 -0.1854776
1185010500.0 -0.135037664 -0.17791184
1200010000.0 -0.158557344 -0.151838464
1215009500.0 -0.156116016 -0.099119616
1230009000.0 -0.146898976 -0.075546984
1245008500.0 -0.12211324 -0.042363728
1260008000.0 -0.078150192 -0.023861788
1275007500.0 -0.031255032 -0.043422108
1290007000.0 -0.014595004 -0.039574036
1305006500.0 0.032372188 -0.09007956
1320006000.0 0.007912407 -0.115051032
1335005500.0 0.010278102 -0.137265456
1350005000.0 -0.012516424 -0.15568376
1365004500.0 -0.067249816 -0.159531616
1380004000.0 -0.087243672 -0.13976576
1395003500.0 -0.120454064 -0.06946328
1410003000.0 -0.125647424 -0.055150992
1425002500.0 -0.16781704 0.030378206
1440002000.0 -0.088100456 0.091278056
1455001500.0 -0.048731548 0.109983968
1470001000.0 0.031109186 0.138765296
1485000500.0 0.07133056 0.168774336
1500000000.0 0.146009424 0.166466864
