! Created with skrf 1.8.0 (http://scikit-rf.org).
# Hz S RI R 50.0 
!freq ReS11 ImS11
50000.0 -0.5165274143218994 -0.15125565230846405
30049500.0 -0.6110044717788696 0.7454922199249268
60049000.0 0.21808405220508575 0.9834003448486328
90048500.0 0.9516019225120544 0.4208470582962036
120048000.0 0.8975834846496582 -0.5122461318969727
150047500.0 0.1512494832277298 -0.9629480242729187
180047000.0 -0.62396240234375 -0.7070436477661133
210046500.0 -0.9477872848510742 0.025254862383008003
240046000.0 -0.5828089118003845 0.7895386219024658
270045500.0 0.30357152223587036 0.9674481749534607
300045000.0 0.9706962704658508 0.3283119797706604
330044500.0 0.8466635942459106 -0.5652697682380676
360044000.0 0.0940147116780281 -1.002027988433838
390043500.0 -0.715620756149292 -0.694610595703125
420043000.0 -0.9783546328544617 0.13383148610591888
450042500.0 -0.482387512922287 0.8521659970283508
480042000.0 0.3912569284439087 0.899540901184082
510041500.0 0.9673694372177124 0.24863030016422272
540041000.0 0.8119689226150513 -0.6239168643951416
570040500.0 -0.006972663104534149 -1.0338658094406128
600040000.0 -0.8058044910430908 -0.6008514165878296
630039500.0 -0.9186908602714539 0.26416638493537903
660039000.0 -0.3570602536201477 0.8514125347137451
690038500.0 0.44073691964149475 0.8176028728485107
720038000.0 0.9545466899871826 0.18304085731506348
750037500.0 0.7522541284561157 -0.6791155934333801
780037000.0 -0.10038919001817703 -0.9962294697761536
810036500.0 -0.7965171933174133 -0.4899822175502777
840036000.0 -0.8236607909202576 0.2911321818828583
870035500.0 -0.2930977940559387 0.8095027804374695
900035000.0 0.4709988236427307 0.7626991868019104
930034500.0 0.9436637163162231 0.09625639766454697
960034000.0 0.6579670310020447 -0.6954213976860046
990033500.0 -0.11692348122596741 -0.9103915095329285
1020033000.0 -0.7296488881111145 -0.4774765074253082
1050032500.0 -0.8103948831558228 0.26044052839279175
1080032000.0 -0.27686265110969543 0.8239176273345947
1110031500.0 0.5393310785293579 0.7288177609443665
1140031000.0 0.9256286025047302 -0.01013590395450592
1170030500.0 0.5885694026947021 -0.7023999094963074
1200030000.0 -0.11429482698440552 -0.8861294984817505
1230029500.0 -0.7366753220558167 -0.4837307929992676
1260029000.0 -0.8297713994979858 0.28053048253059387
1290028500.0 -0.213621586561203 0.8571658134460449
1320028000.0 0.6132394671440125 0.6531987190246582
1350027500.0 0.8960451483726501 -0.08919963240623474
1380027000.0 0.5349858999252319 -0.72618168592453
1410026500.0 -0.15416231751441956 -0.8905789256095886
1440026000.0 -0.7447914481163025 -0.4831552505493164
1470025500.0 -0.8185973167419434 0.30627965927124023
1500025000.0 -0.18628504872322083 0.8413551449775696
1530024500.0 0.6344106793403625 0.5851028561592102
1560024000.0 0.8574616312980652 -0.18491564691066742
1590023500.0 0.44195032119750977 -0.7705315947532654
1620023000.0 -0.2432967722415924 -0.8524659872055054
1650022500.0 -0.772305428981781 -0.385263055562973
1680022000.0 -0.7586990594863892 0.3309558928012848
1710021500.0 -0.14673194289207458 0.7952799797058105
1740021000.0 0.6124003529548645 0.5464246273040771
1770020500.0 0.818811297416687 -0.20244330167770386
1800020000.0 0.360635370016098 -0.7708742618560791
1830019500.0 -0.3104076087474823 -0.7707362771034241
1860019000.0 -0.7256274223327637 -0.31743380427360535
1890018500.0 -0.6859474182128906 0.3376743495464325
1920018000.0 -0.13816800713539124 0.7587947249412537
1950017500.0 0.6031731367111206 0.5273719429969788
1980017000.0 0.7822858095169067 -0.24796654284000397
2010016500.0 0.2844669222831726 -0.7546263933181763
2040016000.0 -0.32729750871658325 -0.7095307111740112
2070015500.0 -0.712843656539917 -0.2795317769050598
2100015000.0 -0.7043371796607971 0.3148418962955475
2130014500.0 -0.12756264209747314 0.7819079756736755
2160014000.0 0.6212583184242249 0.5243864059448242
2190013500.0 0.7713660001754761 -0.22385306656360626
2220013000.0 0.34732678532600403 -0.7168679237365723
2250012500.0 -0.2666929364204407 -0.7524557113647461
2280012000.0 -0.7207368016242981 -0.30857446789741516
2310011500.0 -0.7273845672607422 0.371812105178833
2340011000.0 -0.06288569420576096 0.8143145442008972
2370010500.0 0.6577227115631104 0.4687475562095642
2400010000.0 0.7514507174491882 -0.24618390202522278
2430009500.0 0.3568718433380127 -0.7190501093864441
2460009000.0 -0.24746231734752655 -0.7827193140983582
2490008500.0 -0.7591286301612854 -0.3750962018966675
2520008000.0 -0.7625494599342346 0.40546250343322754
2550007500.0 -0.002200692892074585 0.8336001038551331
2580007000.0 0.6935731172561646 0.3931880295276642
2610006500.0 0.7345176339149475 -0.3019734025001526
2640006000.0 0.32110998034477234 -0.7532759308815002
2670005500.0 -0.26322004199028015 -0.8270457983016968
2700005000.0 -0.8093100190162659 -0.3966009020805359
2730004500.0 -0.7785353660583496 0.4125680923461914
2760004000.0 0.015202544629573822 0.8118884563446045
2790003500.0 0.7112324237823486 0.3012954294681549
2820003000.0 0.69561368227005 -0.39498642086982727
2850002500.0 0.2512349784374237 -0.8117077946662903
2880002000.0 -0.34790536761283875 -0.8269888162612915
2910001500.0 -0.8313624262809753 -0.3850165605545044
2940001000.0 -0.7846124768257141 0.40740305185317993
2970000500.0 -0.0051895007491111755 0.8069797158241272
3000000000.0 0.6894928812980652 0.29334327578544617
