! Created with skrf 1.8.0 (http://scikit-rf.org).
# Hz S RI R 50.0 
!freq ReS11 ImS11
50000.0 0.997048896 0.00136957
15049500.0 0.939469504 0.360518688
30049000.0 0.749935232 0.67288256
45048500.0 0.461687552 0.892389952
60048000.0 0.103251208 1.013460518
75047500.0 -0.2733352 0.988240512
90047000.0 -0.6190464 0.819888128
105046500.0 -0.89116576 0.546059008
120046000.0 -1.041777612 0.18544704
135045500.0 -1.04523182 -0.209652336
150045000.0 -0.914475648 -0.585411072
165044500.0 -0.648630144 -0.884447424
180044000.0 -0.315200416 -1.04395342
195043500.0 0.0638472 -1.100971344
210043000.0 0.434775232 -1.022193908
225042500.0 0.751486272 -0.821785088
240042000.0 0.994949824 -0.539711936
255041500.0 1.136423344 -0.18856424
270041000.0 1.15044152 0.221444624
285040500.0 1.022248626 0.63275904
300040000.0 0.689100992 0.956637888
315039500.0 0.318942048 1.190457936
330039000.0 -0.1379 1.25656152
345038500.0 -0.594972864 1.142853136
360038000.0 -0.966846272 0.868228864
375037500.0 -1.25478208 0.47847664
390037000.0 -1.372626784 -0.004373366
405036500.0 -1.291434048 -0.519113184
420036000.0 -1.035047412 -0.96688832
435035500.0 -0.631343872 -1.268729088
450035000.0 -0.16904416 -1.391098752
465034500.0 0.299811872 -1.378915552
480034000.0 0.728212992 -1.214249376
495033500.0 1.072164656 -0.917632256
510033000.0 1.316977504 -0.52706928
525032500.0 1.408201088 -0.069137704
540032000.0 1.361891264 0.381659136
555031500.0 1.155480624 0.8034992
570031000.0 0.816132288 1.112167
585030500.0 0.400389504 1.285837664
600030000.0 -0.05434214 1.345231168
615029500.0 -0.49394544 1.227899904
630029000.0 -0.873558336 0.964256832
645028500.0 -1.169426448 0.580526336
660028000.0 -1.304977536 0.112553192
675027500.0 -1.266617056 -0.392637568
690027000.0 -1.012626052 -0.865441344
705026500.0 -0.600293696 -1.16860104
720026000.0 -0.130401224 -1.269451744
735025500.0 0.314181248 -1.207922576
750025000.0 0.706316288 -0.993878208
765024500.0 1.001109958 -0.657075136
780024000.0 1.146303888 -0.25831688
795023500.0 1.101170536 0.209160368
810023000.0 0.862220032 0.550266432
825022500.0 0.5595712 0.738392768
840022000.0 0.273689408 0.781583232
855021500.0 0.054459656 0.757636224
870021000.0 -0.127400864 0.735731328
885020500.0 -0.298166912 0.719629056
900020000.0 -0.528314816 0.732960576
915019500.0 -0.509540864 0.737682432
930019000.0 -0.491201216 0.740826304
945018500.0 -0.469376224 0.751440256
960018000.0 -0.450553024 0.743884864
975017500.0 -0.433909248 0.764075136
990017000.0 -0.422219872 0.76524352
1005016500.0 -0.399544928 0.764751744
1020016000.0 -0.379478528 0.771834304
1035015500.0 -0.353917152 0.776614464
1050015000.0 -0.317540896 0.809435776
1065014500.0 -0.305861824 0.7994416
1080014000.0 -0.287186112 0.80320576
1095013500.0 -0.257828384 0.803974336
1110013000.0 -0.23243824 0.811632896
1125012500.0 -0.226748384 0.797296704
1140012000.0 -0.179141056 0.810859392
1155011500.0 -0.133691952 0.836392832
1170011000.0 -0.12727572 0.798039296
1185010500.0 -0.095947048 0.8134688
1200010000.0 -0.072784968 0.812869248
1215009500.0 -0.036568152 0.829619648
1230009000.0 -0.005406775 0.813981312
1245008500.0 0.019563646 0.822359424
1260008000.0 0.059111084 0.8130256
1275007500.0 0.092783792 0.816893248
1290007000.0 0.120678704 0.817070592
1305006500.0 0.143938336 0.80941888
1320006000.0 0.178122384 0.79951456
1335005500.0 0.222110848 0.784376384
1350005000.0 0.241764016 0.787385856
1365004500.0 0.291637376 0.791736192
1380004000.0 0.292596832 0.7481536
1395003500.0 0.32167328 0.740441792
1410003000.0 0.337929024 0.728229888
1425002500.0 0.36188304 0.711841664
1440002000.0 0.403362304 0.687350016
1455001500.0 0.406510272 0.658309824
1470001000.0 0.441902176 0.625442496
1485000500.0 0.451351904 0.6337984
1500000000.0 0.51258368 0.620204416
