! Created with skrf 1.8.0 (http://scikit-rf.org).
# Hz S RI R 50.0 
!freq ReS11 ImS11
50000.0 0.996665536 0.001088946
15049500.0 0.939837888 0.360533984
30049000.0 0.749816768 0.672740608
45048500.0 0.461602784 0.892124544
60048000.0 0.103276944 1.013474584
75047500.0 -0.273343872 0.988052352
90047000.0 -0.619323392 0.819638656
105046500.0 -0.890783232 0.54618464
120046000.0 -1.041645288 0.185347312
135045500.0 -1.045779468 -0.20940632
150045000.0 -0.914476864 -0.585819264
165044500.0 -0.64841024 -0.884297472
180044000.0 -0.314505696 -1.04359114
195043500.0 0.063731776 -1.100758192
210043000.0 0.434186144 -1.02234137
225042500.0 0.751622976 -0.821008896
240042000.0 0.994635968 -0.540525824
255041500.0 1.135358576 -0.18832904
270041000.0 1.150986672 0.221240032
285040500.0 1.02149105 0.632153984
300040000.0 0.687054656 0.959332352
315039500.0 0.319463296 1.190217024
330039000.0 -0.135238976 1.261471152
345038500.0 -0.59791104 1.141006944
360038000.0 -0.965546944 0.870799168
375037500.0 -1.254089472 0.477182848
390037000.0 -1.371729248 -0.00880955
405036500.0 -1.290654912 -0.518789696
420036000.0 -1.035143496 -0.965485632
435035500.0 -0.629624768 -1.2674036
450035000.0 -0.174829088 -1.397889984
465034500.0 0.301545408 -1.378589024
480034000.0 0.726240384 -1.212265488
495033500.0 1.070868608 -0.917197376
510033000.0 1.317652096 -0.531529792
525032500.0 1.404516224 -0.070125712
540032000.0 1.36278592 0.38406208
555031500.0 1.15682792 0.80222688
570031000.0 0.81616064 1.109358312
585030500.0 0.396538592 1.288219936
600030000.0 -0.049043012 1.34541392
615029500.0 -0.496272768 1.222252368
630029000.0 -0.876269504 0.9608928
645028500.0 -1.168029424 0.58196288
660028000.0 -1.312455648 0.105170336
675027500.0 -1.261171696 -0.392304096
690027000.0 -1.015441896 -0.858830272
705026500.0 -0.605924864 -1.164734848
720026000.0 -0.136000592 -1.270812512
735025500.0 0.315835552 -1.209271664
750025000.0 0.709715648 -0.997086848
765024500.0 1.002463222 -0.656737536
780024000.0 1.17317056 -0.25084096
795023500.0 1.105996728 0.21084472
810023000.0 0.860264832 0.554883456
825022500.0 0.559650624 0.736306944
840022000.0 0.274530272 0.780774592
855021500.0 0.053699452 0.762285952
870021000.0 -0.123580912 0.731043392
885020500.0 -0.298144 0.718205952
900020000.0 -0.529777952 0.74407968
915019500.0 -0.507959776 0.74478944
930019000.0 -0.484353984 0.741359552
945018500.0 -0.463853952 0.752862464
960018000.0 -0.45579696 0.747596544
975017500.0 -0.427005632 0.752981696
990017000.0 -0.416349248 0.76122592
1005016500.0 -0.400210208 0.766880512
1020016000.0 -0.3688672 0.77403104
1035015500.0 -0.35974928 0.776274816
1050015000.0 -0.344523488 0.771513024
1065014500.0 -0.30869824 0.798013824
1080014000.0 -0.281018272 0.802753984
1095013500.0 -0.262851872 0.79853536
1110013000.0 -0.238412016 0.81463296
1125012500.0 -0.214245312 0.794443136
1140012000.0 -0.175516912 0.809035328
1155011500.0 -0.139812784 0.835379776
1170011000.0 -0.139852128 0.842464896
1185010500.0 -0.094384864 0.82405056
1200010000.0 -0.068691344 0.818009408
1215009500.0 -0.044925772 0.82459648
1230009000.0 -0.012456084 0.828460224
1245008500.0 0.0343179 0.810884224
1260008000.0 0.046222296 0.828950016
1275007500.0 0.083947528 0.818854336
1290007000.0 0.125607256 0.805106688
1305006500.0 0.14853168 0.805820992
1320006000.0 0.189975856 0.806753152
1335005500.0 0.214094528 0.77705088
1350005000.0 0.237568864 0.772209472
1365004500.0 0.244855632 0.790916352
1380004000.0 0.291762144 0.753589248
1395003500.0 0.30150544 0.744564672
1410003000.0 0.336474752 0.713255424
1425002500.0 0.370052224 0.695134272
1440002000.0 0.393347712 0.68531296
1455001500.0 0.419597312 0.665318592
1470001000.0 0.441470272 0.658386048
1485000500.0 0.449730528 0.632498176
1500000000.0 0.492222752 0.631261568
