! Created with skrf 1.8.0 (http://scikit-rf.org).
# Hz S RI R 50.0 
!freq ReS11 ImS11
50000.0 -1.009172202 -0.000367933
15049500.0 -1.007012964 -0.167372192
30049000.0 -0.97032032 -0.327884128
45048500.0 -0.905861312 -0.474496256
60048000.0 -0.821243648 -0.631610752
75047500.0 -0.708072512 -0.758845376
90047000.0 -0.57914048 -0.855244736
105046500.0 -0.440569408 -0.949817088
120046000.0 -0.282982464 -1.017019272
135045500.0 -0.11328548 -1.051944016
150045000.0 0.0596026 -1.071749688
165044500.0 0.23441144 -1.055301904
180044000.0 0.375599168 -1.011273504
195043500.0 0.53032368 -0.951942592
210043000.0 0.666428416 -0.866364032
225042500.0 0.779753728 -0.7619008
240042000.0 0.880205888 -0.657872
255041500.0 0.96361088 -0.54252768
270041000.0 1.039781688 -0.402104928
285040500.0 1.101254704 -0.244809872
300040000.0 1.09961104 -0.056386176
315039500.0 1.126975656 0.09186856
330039000.0 1.107848408 0.248352736
345038500.0 1.059914828 0.394961664
360038000.0 0.986459392 0.516847328
375037500.0 0.91074368 0.658147264
390037000.0 0.801949056 0.78856928
405036500.0 0.678348928 0.910178304
420036000.0 0.54164544 1.022560596
435035500.0 0.386392128 1.113289952
450035000.0 0.208311872 1.184077504
465034500.0 0.023530812 1.243177168
480034000.0 -0.187975808 1.27161168
495033500.0 -0.413624128 1.258235104
510033000.0 -0.64136128 1.219250912
525032500.0 -0.856091328 1.130038384
540032000.0 -1.07759428 0.949267392
555031500.0 -1.222993376 0.814550848
570031000.0 -1.338937408 0.658196352
585030500.0 -1.421938432 0.482704064
600030000.0 -1.491186016 0.262143376
615029500.0 -1.506083264 0.051680456
630029000.0 -1.47036208 -0.166959504
645028500.0 -1.3817408 -0.394995712
660028000.0 -1.250676864 -0.58995808
675027500.0 -1.100932952 -0.731169728
690027000.0 -0.909731776 -0.868735936
705026500.0 -0.727526208 -0.943051008
720026000.0 -0.52975184 -0.977281408
735025500.0 -0.351553952 -0.999606528
750025000.0 -0.174657872 -0.992339328
765024500.0 0.004955512 -0.952882112
780024000.0 0.148884608 -0.895970304
795023500.0 0.2864464 -0.832814336
810023000.0 0.379937216 -0.747249344
825022500.0 0.451514528 -0.672428608
840022000.0 0.505283648 -0.62153216
855021500.0 0.56043712 -0.594410368
870021000.0 0.628505728 -0.596915392
885020500.0 0.728206464 -0.60613696
900020000.0 0.889927744 -0.618179648
915019500.0 0.858736576 -0.8806624
930019000.0 0.752729536 -1.160318608
945018500.0 0.538338112 -1.4558736
960018000.0 0.178172608 -1.698453184
975017500.0 -0.278594336 -1.806483008
990017000.0 -0.78461376 -1.726464064
1005016500.0 -1.228829856 -1.419027104
1020016000.0 -1.505408896 -0.994707328
1035015500.0 -1.592927104 -0.533807808
1050015000.0 -1.464832768 -0.103316296
1065014500.0 -1.342853184 0.195595888
1080014000.0 -1.152190688 0.40972416
1095013500.0 -0.945548032 0.545029824
1110013000.0 -0.733127296 0.642920576
1125012500.0 -0.565004352 0.678035648
1140012000.0 -0.388386784 0.700778944
1155011500.0 -0.26923968 0.687090176
1170011000.0 -0.074389776 0.674347456
1185010500.0 0.05033014 0.646823616
1200010000.0 0.18745152 0.5979824
1215009500.0 0.30510208 0.52732896
1230009000.0 0.414228544 0.442814464
1245008500.0 0.509739712 0.362910464
1260008000.0 0.59769344 0.248161024
1275007500.0 0.684837376 0.123195848
1290007000.0 0.7429376 -0.027503702
1305006500.0 0.7962416 -0.196451664
1320006000.0 0.804063168 -0.39380384
1335005500.0 0.799159296 -0.61001792
1350005000.0 0.749285824 -0.826746816
1365004500.0 0.673759744 -1.016412974
1380004000.0 0.478643328 -1.328827008
1395003500.0 0.18041744 -1.533946752
1410003000.0 -0.159970288 -1.646962048
1425002500.0 -0.546044992 -1.494021888
1440002000.0 -0.955850368 -1.405446752
1455001500.0 -1.227366336 -1.086526392
1470001000.0 -1.185880896 -0.782596288
1485000500.0 -1.16576576 -0.273362656
1500000000.0 -1.028222918 -0.068092952
