! Created with skrf 1.8.0 (http://scikit-rf.org).
# Hz S RI R 50.0 
!freq ReS11 ImS11
50000.0 0.996875584 0.000706565
15049500.0 0.939226688 0.360723232
30049000.0 0.749753088 0.672498112
45048500.0 0.46157632 0.891917888
60048000.0 0.103110616 1.013334036
75047500.0 -0.273184736 0.98790752
90047000.0 -0.61908032 0.819764224
105046500.0 -0.890654144 0.545940352
120046000.0 -1.041511892 0.18522192
135045500.0 -1.044511676 -0.20936688
150045000.0 -0.914756864 -0.585370368
165044500.0 -0.648139776 -0.884051776
180044000.0 -0.31445216 -1.04407704
195043500.0 0.064012624 -1.101285576
210043000.0 0.434010912 -1.022150754
225042500.0 0.751893568 -0.821761024
240042000.0 0.994359104 -0.54049536
255041500.0 1.135476 -0.18856416
270041000.0 1.150921584 0.220530848
285040500.0 1.022389412 0.632419392
300040000.0 0.689432576 0.956996032
315039500.0 0.319726304 1.19046032
330039000.0 -0.13295168 1.256269104
345038500.0 -0.595896384 1.141424416
360038000.0 -0.967308096 0.87061248
375037500.0 -1.253385312 0.477275552
390037000.0 -1.369293216 -0.007036531
405036500.0 -1.288106688 -0.515330144
420036000.0 -1.032758116 -0.96333536
435035500.0 -0.631993984 -1.268784992
450035000.0 -0.173309008 -1.399050464
465034500.0 0.300269888 -1.382219776
480034000.0 0.725762304 -1.215111488
495033500.0 1.072157976 -0.91822208
510033000.0 1.319212544 -0.531696736
525032500.0 1.406052576 -0.070165504
540032000.0 1.353276608 0.38382976
555031500.0 1.15455056 0.795177728
570031000.0 0.816783616 1.111791256
585030500.0 0.394255328 1.290358432
600030000.0 -0.053962476 1.340599552
615029500.0 -0.493986112 1.221578592
630029000.0 -0.869005888 0.962180544
645028500.0 -1.174062608 0.577629888
660028000.0 -1.304820288 0.105843616
675027500.0 -1.269071584 -0.39253904
690027000.0 -1.01407373 -0.866175168
705026500.0 -0.604703104 -1.1689372
720026000.0 -0.144272768 -1.264932032
735025500.0 0.317099392 -1.211293696
750025000.0 0.7099984 -0.99813792
765024500.0 1.00240171 -0.65705344
780024000.0 1.174549936 -0.25564552
795023500.0 1.10306084 0.211566432
810023000.0 0.86490816 0.554432832
825022500.0 0.557151552 0.735569472
840022000.0 0.273559712 0.780936512
855021500.0 0.053485368 0.761491008
870021000.0 -0.127622696 0.731760448
885020500.0 -0.297979744 0.72367744
900020000.0 -0.52654816 0.74019232
915019500.0 -0.510121152 0.74219232
930019000.0 -0.487863744 0.742276544
945018500.0 -0.472017792 0.744151936
960018000.0 -0.454011168 0.746528512
975017500.0 -0.424040192 0.75477888
990017000.0 -0.41784512 0.762006336
1005016500.0 -0.394981664 0.762940928
1020016000.0 -0.382720928 0.76754336
1035015500.0 -0.356368928 0.78547776
1050015000.0 -0.312445504 0.795930688
1065014500.0 -0.315157376 0.787095936
1080014000.0 -0.281313152 0.805620608
1095013500.0 -0.262117024 0.806259584
1110013000.0 -0.231896768 0.802672832
1125012500.0 -0.220326624 0.796352
1140012000.0 -0.175171584 0.810023744
1155011500.0 -0.146869888 0.824584384
1170011000.0 -0.13190092 0.81832704
1185010500.0 -0.098197152 0.824628992
1200010000.0 -0.067605216 0.813493888
1215009500.0 -0.036136152 0.822867712
1230009000.0 -0.015000992 0.824375424
1245008500.0 0.02391021 0.815945472
1260008000.0 0.058045596 0.818247232
1275007500.0 0.090661616 0.818849664
1290007000.0 0.123248488 0.8128016
1305006500.0 0.152843408 0.807768128
1320006000.0 0.18730136 0.799153472
1335005500.0 0.218080992 0.796886848
1350005000.0 0.243763664 0.782280512
1365004500.0 0.2329228 0.7240208
1380004000.0 0.300116544 0.751893888
1395003500.0 0.324654624 0.740686464
1410003000.0 0.341790496 0.730802304
1425002500.0 0.36975296 0.696695744
1440002000.0 0.403104288 0.69176672
1455001500.0 0.42337952 0.662196672
1470001000.0 0.42786288 0.63761088
1485000500.0 0.446695872 0.636135424
1500000000.0 0.47603424 0.606428544
