! Created with skrf 1.8.0 (http://scikit-rf.org).
# Hz S RI R 50.0 
!freq ReS11 ImS11
50000.0 -0.006577844 -0.004067335
15049500.0 -0.00180024 0.00499704
30049000.0 -0.004942876 0.007246936
45048500.0 -0.010490334 0.007539609
60048000.0 -0.017188122 0.00524836
75047500.0 -0.024044144 0.000617312
90047000.0 -0.030225386 -0.006080942
105046500.0 -0.034101232 -0.014077186
120046000.0 -0.035533784 -0.022219492
135045500.0 -0.033862724 -0.029137504
150045000.0 -0.030000514 -0.034738196
165044500.0 -0.024226422 -0.037421944
180044000.0 -0.018315996 -0.034672756
195043500.0 -0.01314416 -0.030506834
210043000.0 -0.009757086 -0.023287094
225042500.0 -0.009025662 -0.014469852
240042000.0 -0.012084222 -0.005734219
255041500.0 -0.018077178 0.001271695
270041000.0 -0.026330684 0.004128346
285040500.0 -0.035473032 0.0024435
300040000.0 -0.040702412 -0.004753064
315039500.0 -0.046545324 -0.015676368
330039000.0 -0.043695892 -0.030925352
345038500.0 -0.034342376 -0.046992516
360038000.0 -0.015534362 -0.062578328
375037500.0 0.010393084 -0.075834568
390037000.0 0.044273016 -0.080749776
405036500.0 0.082126256 -0.074759856
420036000.0 0.120101888 -0.059472296
435035500.0 0.15559344 -0.034308484
450035000.0 0.182566064 0.001065779
465034500.0 0.20165472 0.043467712
480034000.0 0.207162848 0.088611392
495033500.0 0.19631728 0.132500184
510033000.0 0.176569152 0.169938256
525032500.0 0.143264912 0.19462304
540032000.0 0.098226064 0.20261656
555031500.0 0.06229038 0.193852688
570031000.0 0.03367072 0.168958464
585030500.0 0.010153284 0.131568048
600030000.0 0.001183441 0.09178352
615029500.0 0.005782563 0.043851216
630029000.0 0.027984354 -0.001304795
645028500.0 0.064781392 -0.037392252
660028000.0 0.111481104 -0.059313596
675027500.0 0.159730032 -0.07042112
690027000.0 0.204901488 -0.063113868
705026500.0 0.2417196 -0.038678504
720026000.0 0.26834256 0.003423566
735025500.0 0.282036 0.055133816
750025000.0 0.269187616 0.11211268
765024500.0 0.232261872 0.172261424
780024000.0 0.161489472 0.213371552
795023500.0 0.07669108 0.221983392
810023000.0 -0.008387585 0.188829728
825022500.0 -0.076110136 0.135898768
840022000.0 -0.121278584 0.061455232
855021500.0 -0.146122688 -0.020096208
870021000.0 -0.162844 -0.108097096
885020500.0 -0.166682112 -0.212853728
900020000.0 -0.158875088 -0.34363312
915019500.0 -0.200830224 -0.358436384
930019000.0 -0.258637552 -0.344392864
945018500.0 -0.305711232 -0.323493408
960018000.0 -0.347956896 -0.271178592
975017500.0 -0.368204032 -0.213893808
990017000.0 -0.357469664 -0.143788448
1005016500.0 -0.336162336 -0.091989248
1020016000.0 -0.2949944 -0.046435384
1035015500.0 -0.248306272 -0.01842532
1050015000.0 -0.193394896 0.004593234
1065014500.0 -0.13690152 -0.006783845
1080014000.0 -0.097395328 -0.025518584
1095013500.0 -0.05328516 -0.059948684
1110013000.0 -0.039013868 -0.092526808
1125012500.0 -0.03802086 -0.142978896
1140012000.0 -0.057481548 -0.166943296
1155011500.0 -0.07690912 -0.189282624
1170011000.0 -0.115317112 -0.19201344
1185010500.0 -0.152598848 -0.174810688
1200010000.0 -0.170347728 -0.14496112
1215009500.0 -0.163575968 -0.097686592
1230009000.0 -0.157001136 -0.057127664
1245008500.0 -0.124113304 -0.050557768
1260008000.0 -0.082313808 -0.022350996
1275007500.0 -0.024904794 -0.017317558
1290007000.0 0.0013238 -0.038656344
1305006500.0 0.034114076 -0.060658168
1320006000.0 0.034960296 -0.078334904
1335005500.0 0.010997404 -0.158380592
1350005000.0 0.008799598 -0.155866208
1365004500.0 -0.0309587 -0.144022368
1380004000.0 -0.081992184 -0.170359776
1395003500.0 -0.112963312 -0.110575984
1410003000.0 -0.105478704 -0.032979794
1425002500.0 -0.132272648 -0.01156839
1440002000.0 -0.108980904 0.073039536
1455001500.0 -0.074544456 0.119013008
1470001000.0 0.003814359 0.128306808
1485000500.0 0.048159852 0.150541888
1500000000.0 0.124802312 0.155623376
