! Created with skrf 1.8.0 (http://scikit-rf.org).
# Hz S RI R 50.0 
!freq ReS11 ImS11
50000.0 -0.5203705430030823 -0.1454932689666748
30049500.0 -0.6107096076011658 0.7456642985343933
60049000.0 0.21765762567520142 0.9844154119491577
90048500.0 0.951455295085907 0.42104798555374146
120048000.0 0.8983575105667114 -0.5121464729309082
150047500.0 0.1513107717037201 -0.9636088013648987
180047000.0 -0.6243654489517212 -0.7062942385673523
210046500.0 -0.947289764881134 0.025106489658355713
240046000.0 -0.5825510621070862 0.7886433601379395
270045500.0 0.3054010272026062 0.9669747948646545
300045000.0 0.9710294008255005 0.32736629247665405
330044500.0 0.8482886552810669 -0.5638324022293091
360044000.0 0.09499715268611908 -1.0030001401901245
390043500.0 -0.7145052552223206 -0.6953749656677246
420043000.0 -0.9770633578300476 0.13412165641784668
450042500.0 -0.4801439046859741 0.852165937423706
480042000.0 0.390108585357666 0.8989908695220947
510041500.0 0.9666988849639893 0.24709954857826233
540041000.0 0.810089111328125 -0.6271744966506958
570040500.0 -0.00851767510175705 -1.0347460508346558
600040000.0 -0.8069707155227661 -0.6013206243515015
630039500.0 -0.9206059575080872 0.2616770267486572
660039000.0 -0.3537542223930359 0.8486539125442505
690038500.0 0.4401339590549469 0.8151997327804565
720038000.0 0.9538849592208862 0.18612362444400787
750037500.0 0.7513030171394348 -0.6785756349563599
780037000.0 -0.10342186689376831 -0.9961990118026733
810036500.0 -0.7974619269371033 -0.4871463179588318
840036000.0 -0.822338342666626 0.29215097427368164
870035500.0 -0.2846331298351288 0.8099130392074585
900035000.0 0.47446322441101074 0.758597731590271
930034500.0 0.9425210952758789 0.0876430943608284
960034000.0 0.6542981266975403 -0.697585940361023
990033500.0 -0.11893937736749649 -0.9114065766334534
1020033000.0 -0.7342875003814697 -0.47170424461364746
1050032500.0 -0.810460090637207 0.25902795791625977
1080032000.0 -0.2764624357223511 0.8236352205276489
1110031500.0 0.5410739779472351 0.7261908650398254
1140031000.0 0.9229773879051208 -0.009207066148519516
1170030500.0 0.5921672582626343 -0.6985059976577759
1200030000.0 -0.11385948210954666 -0.8863295912742615
1230029500.0 -0.7296041250228882 -0.4921059012413025
1260029000.0 -0.8309094309806824 0.278624027967453
1290028500.0 -0.21654658019542694 0.8578008413314819
1320028000.0 0.616714596748352 0.6455006003379822
1350027500.0 0.8918936848640442 -0.09660153836011887
1380027000.0 0.5294463634490967 -0.7254550457000732
1410026500.0 -0.15017347037792206 -0.8884183168411255
1440026000.0 -0.7456796169281006 -0.48969563841819763
1470025500.0 -0.8218154907226562 0.2956380248069763
1500025000.0 -0.16394643485546112 0.8449698090553284
1530024500.0 0.6384440660476685 0.5768221616744995
1560024000.0 0.8544754981994629 -0.18088428676128387
1590023500.0 0.4416186511516571 -0.7644367218017578
1620023000.0 -0.24350757896900177 -0.8488115668296814
1650022500.0 -0.757878839969635 -0.4048139750957489
1680022000.0 -0.7619673609733582 0.3242835998535156
1710021500.0 -0.14645135402679443 0.7941926717758179
1740021000.0 0.6033251285552979 0.5542288422584534
1770020500.0 0.8232164978981018 -0.18997803330421448
1800020000.0 0.3514528274536133 -0.7709647417068481
1830019500.0 -0.3067181706428528 -0.7654521465301514
1860019000.0 -0.7240877747535706 -0.31629449129104614
1890018500.0 -0.6841619610786438 0.3366508185863495
1920018000.0 -0.14078176021575928 0.7559018135070801
1950017500.0 0.6039645671844482 0.5298277139663696
1980017000.0 0.7802852392196655 -0.25545579195022583
2010016500.0 0.281769335269928 -0.7531254291534424
2040016000.0 -0.3168705701828003 -0.711075484752655
2070015500.0 -0.7046483755111694 -0.29087772965431213
2100015000.0 -0.6922710537910461 0.33316442370414734
2130014500.0 -0.1344652771949768 0.7806826829910278
2160014000.0 0.6140118837356567 0.5301704406738281
2190013500.0 0.7722135782241821 -0.2186274379491806
2220013000.0 0.3496246039867401 -0.7159211039543152
2250012500.0 -0.25540396571159363 -0.7429609894752502
2280012000.0 -0.7116676568984985 -0.31708285212516785
2310011500.0 -0.7236744165420532 0.3735959231853485
2340011000.0 -0.0732870027422905 0.8169897794723511
2370010500.0 0.6412450075149536 0.49331438541412354
2400010000.0 0.7547159790992737 -0.23461847007274628
2430009500.0 0.3597705662250519 -0.7143166065216064
2460009000.0 -0.24677151441574097 -0.7864376306533813
2490008500.0 -0.753448486328125 -0.3746958374977112
2520008000.0 -0.76058030128479 0.3972068130970001
2550007500.0 0.0015697330236434937 0.8296706080436707
2580007000.0 0.6922259330749512 0.379891574382782
2610006500.0 0.742525041103363 -0.2853725850582123
2640006000.0 0.34196460247039795 -0.738349437713623
2670005500.0 -0.25428780913352966 -0.8272452354431152
2700005000.0 -0.8015749454498291 -0.3932572901248932
2730004500.0 -0.7657679319381714 0.41688814759254456
2760004000.0 0.03014468401670456 0.8059017658233643
2790003500.0 0.6958338022232056 0.3319357931613922
2820003000.0 0.6916679739952087 -0.39462536573410034
2850002500.0 0.2520427107810974 -0.805703341960907
2880002000.0 -0.32901230454444885 -0.829776406288147
2910001500.0 -0.8218908905982971 -0.3849203288555145
2940001000.0 -0.7799581289291382 0.3983573615550995
2970000500.0 -0.007827319204807281 0.7964497804641724
3000000000.0 0.6869571208953857 0.2829134166240692
