! Created with skrf 1.8.0 (http://scikit-rf.org).
# Hz S RI R 50.0 
!freq ReS11 ImS11
50000.0 0.996588928 0.001377843
15049500.0 0.940042368 0.360791264
30049000.0 0.74982464 0.672817344
45048500.0 0.46175296 0.892461696
60048000.0 0.10307476 1.013573528
75047500.0 -0.273327552 0.988373504
90047000.0 -0.61945376 0.820019904
105046500.0 -0.891278656 0.546157504
120046000.0 -1.041997432 0.185355216
135045500.0 -1.046174408 -0.210016496
150045000.0 -0.915071744 -0.586051072
165044500.0 -0.648373376 -0.88451424
180044000.0 -0.314177312 -1.044370652
195043500.0 0.064072988 -1.101328608
210043000.0 0.435060256 -1.022588254
225042500.0 0.752103424 -0.821167744
240042000.0 0.995591488 -0.54023776
255041500.0 1.136806016 -0.18725616
270041000.0 1.151676304 0.221226624
285040500.0 1.021939516 0.633159488
300040000.0 0.688729664 0.960292096
315039500.0 0.319454496 1.192971712
330039000.0 -0.136110032 1.257756
345038500.0 -0.597771072 1.142347696
360038000.0 -0.967926464 0.872585856
375037500.0 -1.255439408 0.474223808
390037000.0 -1.383443104 -0.007462068
405036500.0 -1.291545152 -0.518729632
420036000.0 -1.033084988 -0.965125824
435035500.0 -0.631392 -1.271867744
450035000.0 -0.170461792 -1.397943264
465034500.0 0.302878656 -1.380636096
480034000.0 0.732192128 -1.214559792
495033500.0 1.076190592 -0.916519552
510033000.0 1.316601152 -0.531270496
525032500.0 1.409503456 -0.066133736
540032000.0 1.361770272 0.384562432
555031500.0 1.154249904 0.80673856
570031000.0 0.810676288 1.114292024
585030500.0 0.396678304 1.283850784
600030000.0 -0.048451772 1.341545472
615029500.0 -0.496015776 1.225921872
630029000.0 -0.874085312 0.965589888
645028500.0 -1.172582272 0.580474048
660028000.0 -1.308523776 0.102771144
675027500.0 -1.265000704 -0.389006944
690027000.0 -1.013868332 -0.865096704
705026500.0 -0.606257664 -1.169547792
720026000.0 -0.13907408 -1.272597536
735025500.0 0.317107264 -1.21186984
750025000.0 0.710960576 -0.998940544
765024500.0 1.001250863 -0.655936384
780024000.0 1.132033352 -0.2301396
795023500.0 1.107479688 0.213108928
810023000.0 0.86725152 0.552402816
825022500.0 0.555700032 0.736379136
840022000.0 0.276266688 0.780541568
855021500.0 0.053635496 0.76059904
870021000.0 -0.12602508 0.735214848
885020500.0 -0.300774464 0.718836928
900020000.0 -0.523106144 0.737110016
915019500.0 -0.510835104 0.742266048
930019000.0 -0.490509376 0.737203712
945018500.0 -0.474157088 0.74092096
960018000.0 -0.451291456 0.742968256
975017500.0 -0.4373496 0.755945856
990017000.0 -0.418497728 0.75547552
1005016500.0 -0.399255968 0.762879168
1020016000.0 -0.381560064 0.775902528
1035015500.0 -0.3542984 0.77572544
1050015000.0 -0.352742336 0.802878336
1065014500.0 -0.310044096 0.796184576
1080014000.0 -0.285960768 0.789698112
1095013500.0 -0.259120768 0.799459072
1110013000.0 -0.235309008 0.807819456
1125012500.0 -0.218444256 0.798379776
1140012000.0 -0.184109296 0.81783008
1155011500.0 -0.17105128 0.793876032
1170011000.0 -0.137473856 0.805788864
1185010500.0 -0.101083056 0.81617152
1200010000.0 -0.079725296 0.827901376
1215009500.0 -0.032455016 0.816630144
1230009000.0 -0.011788046 0.820227968
1245008500.0 0.014718738 0.822534976
1260008000.0 0.05526608 0.811125312
1275007500.0 0.087515784 0.82378176
1290007000.0 0.116183176 0.805902528
1305006500.0 0.150340624 0.798496256
1320006000.0 0.196860432 0.804636032
1335005500.0 0.217078768 0.778996736
1350005000.0 0.255480176 0.768686336
1365004500.0 0.251061856 0.749953664
1380004000.0 0.310906144 0.762184512
1395003500.0 0.322990752 0.735047488
1410003000.0 0.355149664 0.718865664
1425002500.0 0.368391072 0.704911936
1440002000.0 0.39464512 0.666032
1455001500.0 0.417069312 0.659536128
1470001000.0 0.448443968 0.635507584
1485000500.0 0.47675488 0.642361728
1500000000.0 0.485728736 0.60992576
