! Created with skrf 1.8.0 (http://scikit-rf.org).
# Hz S RI R 50.0 
!freq ReS11 ImS11
50000.0 0.99795872 0.00162225
15049500.0 0.939881728 0.360282048
30049000.0 0.750017856 0.672615808
45048500.0 0.461780672 0.892210688
60048000.0 0.103313368 1.0133698
75047500.0 -0.27327952 0.988348096
90047000.0 -0.61933408 0.819619712
105046500.0 -0.890826304 0.546287808
120046000.0 -1.041859268 0.18525752
135045500.0 -1.044389724 -0.209373392
150045000.0 -0.914968064 -0.585557504
165044500.0 -0.648232192 -0.883646656
180044000.0 -0.314416608 -1.043781756
195043500.0 0.063984028 -1.101276752
210043000.0 0.434030144 -1.02196443
225042500.0 0.751517888 -0.821996096
240042000.0 0.995097216 -0.540723328
255041500.0 1.136220928 -0.188971824
270041000.0 1.149571536 0.220200208
285040500.0 1.022442102 0.632239872
300040000.0 0.688013504 0.957391488
315039500.0 0.319619488 1.192419168
330039000.0 -0.136664896 1.257351872
345038500.0 -0.594736512 1.141345984
360038000.0 -0.969095552 0.874460288
375037500.0 -1.253570672 0.477786592
390037000.0 -1.376310336 -0.004158654
405036500.0 -1.289945856 -0.519575168
420036000.0 -1.033283352 -0.96724096
435035500.0 -0.631911872 -1.266091472
450035000.0 -0.152837232 -1.399571552
465034500.0 0.29957136 -1.383113504
480034000.0 0.724526528 -1.215330832
495033500.0 1.07415128 -0.916804608
510033000.0 1.317386272 -0.531095136
525032500.0 1.408553952 -0.06645798
540032000.0 1.359358176 0.38323792
555031500.0 1.15226984 0.798075584
570031000.0 0.81445536 1.112925408
585030500.0 0.398160608 1.285040256
600030000.0 -0.049034648 1.348139648
615029500.0 -0.497477344 1.226470352
630029000.0 -0.878530944 0.962568896
645028500.0 -1.163592928 0.585033728
660028000.0 -1.308792704 0.108500576
675027500.0 -1.264212368 -0.395303808
690027000.0 -1.012878776 -0.863555328
705026500.0 -0.609683264 -1.169137232
720026000.0 -0.1377576 -1.26876736
735025500.0 0.313510944 -1.208586688
750025000.0 0.704912512 -1.004988551
765024500.0 1.003942013 -0.65667264
780024000.0 1.169842368 -0.273403008
795023500.0 1.103028056 0.21542704
810023000.0 0.870814272 0.555403008
825022500.0 0.558221376 0.73446688
840022000.0 0.27566816 0.78321376
855021500.0 0.058799276 0.760499712
870021000.0 -0.125255408 0.734851712
885020500.0 -0.296131776 0.7179088
900020000.0 -0.523380288 0.7404304
915019500.0 -0.50707376 0.737407168
930019000.0 -0.492070944 0.737489536
945018500.0 -0.477268064 0.743608512
960018000.0 -0.455395968 0.741943296
975017500.0 -0.423822688 0.758021504
990017000.0 -0.414394752 0.756451136
1005016500.0 -0.398409184 0.767158976
1020016000.0 -0.372547904 0.780368
1035015500.0 -0.361650432 0.772947968
1050015000.0 -0.358968928 0.781312384
1065014500.0 -0.311522784 0.788547904
1080014000.0 -0.294574208 0.794263488
1095013500.0 -0.261405312 0.79710144
1110013000.0 -0.232843968 0.810263808
1125012500.0 -0.233580096 0.796758144
1140012000.0 -0.186373744 0.809755712
1155011500.0 -0.167634848 0.830780672
1170011000.0 -0.114169408 0.79119456
1185010500.0 -0.097299888 0.819710976
1200010000.0 -0.068092976 0.812261632
1215009500.0 -0.041504888 0.81991264
1230009000.0 -0.009889172 0.817375936
1245008500.0 0.016842386 0.8130768
1260008000.0 0.0460047 0.819967808
1275007500.0 0.093163712 0.80722784
1290007000.0 0.113496232 0.811455872
1305006500.0 0.151398128 0.813912704
1320006000.0 0.188297088 0.804951552
1335005500.0 0.202690608 0.789196416
1350005000.0 0.24214472 0.790178816
1365004500.0 0.228776944 0.811861888
1380004000.0 0.300556256 0.757399808
1395003500.0 0.318653408 0.740803072
1410003000.0 0.331504896 0.709253632
1425002500.0 0.355991136 0.697347584
1440002000.0 0.387235072 0.695724864
1455001500.0 0.431482464 0.667999296
1470001000.0 0.450410272 0.649681152
1485000500.0 0.453160096 0.634082624
1500000000.0 0.481004448 0.611049664
