! Created with skrf 1.8.0 (http://scikit-rf.org).
# Hz S RI R 50.0 
!freq ReS11 ImS11
50000.0 0.998830528 0.001503261
15049500.0 0.941467776 0.361163136
30049000.0 0.751273024 0.67440672
45048500.0 0.46238224 0.894130496
60048000.0 0.103524224 1.0158149
75047500.0 -0.27405296 0.990605504
90047000.0 -0.620616704 0.821820864
105046500.0 -0.893039296 0.54756544
120046000.0 -1.04436612 0.185915952
135045500.0 -1.046815516 -0.208868256
150045000.0 -0.917107968 -0.586955776
165044500.0 -0.650061056 -0.886986688
180044000.0 -0.315493632 -1.047590256
195043500.0 0.06398174 -1.105525736
210043000.0 0.436967968 -1.025264144
225042500.0 0.754764672 -0.823457856
240042000.0 0.999349248 -0.54163968
255041500.0 1.141451472 -0.187782496
270041000.0 1.155850048 0.222555888
285040500.0 1.027780294 0.635407168
300040000.0 0.68909248 0.962113728
315039500.0 0.3204664 1.195699088
330039000.0 -0.135454096 1.265324352
345038500.0 -0.599697408 1.147351984
360038000.0 -0.97404 0.873583936
375037500.0 -1.26005328 0.47489248
390037000.0 -1.3720112 -0.021843316
405036500.0 -1.296817184 -0.524418784
420036000.0 -1.03928876 -0.9754704
435035500.0 -0.63616544 -1.278717152
450035000.0 -0.1519308 -1.412832128
465034500.0 0.305627072 -1.39182352
480034000.0 0.733445696 -1.223133568
495033500.0 1.085802552 -0.924741376
510033000.0 1.327967296 -0.53324544
525032500.0 1.424816608 -0.07044496
540032000.0 1.374536288 0.384930016
555031500.0 1.168740752 0.806583488
570031000.0 0.825943744 1.123995784
585030500.0 0.400589184 1.302152512
600030000.0 -0.049218564 1.363473184
615029500.0 -0.50051456 1.238684304
630029000.0 -0.882148992 0.983578368
645028500.0 -1.179122096 0.60122368
660028000.0 -1.334773056 0.116972824
675027500.0 -1.28828992 -0.389408896
690027000.0 -1.039459228 -0.869160128
705026500.0 -0.623796096 -1.172624944
720026000.0 -0.148540208 -1.282663808
735025500.0 0.304558976 -1.227431648
750025000.0 0.699061824 -1.017475962
765024500.0 1.004363537 -0.67557312
780024000.0 1.186684016 -0.251413344
795023500.0 1.116204856 0.198036784
810023000.0 0.875178816 0.544634112
825022500.0 0.5710048 0.730818112
840022000.0 0.288368672 0.780737728
855021500.0 0.067227768 0.759290432
870021000.0 -0.11447068 0.736115584
885020500.0 -0.286782912 0.7237792
900020000.0 -0.504827808 0.741939904
915019500.0 -0.48431424 0.742504448
930019000.0 -0.472709312 0.742741824
945018500.0 -0.454742432 0.744326272
960018000.0 -0.438595328 0.747296128
975017500.0 -0.411039392 0.752439232
990017000.0 -0.4008608 0.754229504
1005016500.0 -0.378615232 0.758876352
1020016000.0 -0.36154176 0.756621632
1035015500.0 -0.340572128 0.76411424
1050015000.0 -0.337508832 0.78095776
1065014500.0 -0.299066016 0.776661696
1080014000.0 -0.273398816 0.783049152
1095013500.0 -0.24372608 0.788921472
1110013000.0 -0.226660624 0.79326944
1125012500.0 -0.202884224 0.789917824
1140012000.0 -0.175975632 0.795824768
1155011500.0 -0.161121968 0.785877504
1170011000.0 -0.1019224 0.794256128
1185010500.0 -0.102653512 0.796132352
1200010000.0 -0.07939224 0.794104128
1215009500.0 -0.040923212 0.797697152
1230009000.0 -0.02222488 0.79205664
1245008500.0 0.000385175 0.792037952
1260008000.0 0.035174024 0.800117376
1275007500.0 0.0676954 0.787320512
1290007000.0 0.110283408 0.78796064
1305006500.0 0.137050656 0.792303168
1320006000.0 0.171055632 0.771879232
1335005500.0 0.198141216 0.769224384
1350005000.0 0.216148592 0.755378752
1365004500.0 0.28829296 0.73430848
1380004000.0 0.279612544 0.749431744
1395003500.0 0.31690112 0.732888832
1410003000.0 0.34397232 0.707648
1425002500.0 0.355566784 0.689254912
1440002000.0 0.399874272 0.668319104
1455001500.0 0.403381088 0.66449344
1470001000.0 0.436028864 0.657293888
1485000500.0 0.459648224 0.6264928
1500000000.0 0.47288464 0.603494784
