! Created with skrf 1.8.0 (http://scikit-rf.org).
# Hz S RI R 50.0 
!freq ReS11 ImS11
50000.0 -0.006540885 -0.004646943
15049500.0 -0.005666133 0.002950203
30049000.0 -0.008374083 0.003952469
45048500.0 -0.012988282 0.003595624
60048000.0 -0.018483392 0.001142965
75047500.0 -0.024117634 -0.00290055
90047000.0 -0.029154308 -0.008691194
105046500.0 -0.03226943 -0.01502673
120046000.0 -0.03358684 -0.021228518
135045500.0 -0.032425526 -0.026262282
150045000.0 -0.029731132 -0.030036186
165044500.0 -0.025743506 -0.031375486
180044000.0 -0.021808432 -0.028034886
195043500.0 -0.018641672 -0.02380619
210043000.0 -0.01731573 -0.017174598
225042500.0 -0.018233248 -0.009687842
240042000.0 -0.022259986 -0.002495216
255041500.0 -0.028780804 0.002364268
270041000.0 -0.036741236 0.003058489
285040500.0 -0.044721104 -0.000737146
300040000.0 -0.048405992 -0.010786722
315039500.0 -0.051915384 -0.021375292
330039000.0 -0.046635328 -0.036226852
345038500.0 -0.034537684 -0.051829184
360038000.0 -0.014864492 -0.066402688
375037500.0 0.01393657 -0.075599616
390037000.0 0.0478783 -0.078018816
405036500.0 0.085576248 -0.069088448
420036000.0 0.1235196 -0.052304884
435035500.0 0.156943056 -0.0255516
450035000.0 0.183173008 0.011287064
465034500.0 0.199110368 0.053229368
480034000.0 0.204437552 0.09803688
495033500.0 0.19156816 0.140848224
510033000.0 0.168895648 0.176128304
525032500.0 0.137774224 0.198191808
540032000.0 0.094785816 0.204254544
555031500.0 0.06074894 0.192943472
570031000.0 0.032508652 0.168264688
585030500.0 0.012659012 0.132359904
600030000.0 0.006160889 0.090450568
615029500.0 0.01508469 0.042665728
630029000.0 0.03932754 5.8954e-05
645028500.0 0.076165296 -0.032678642
660028000.0 0.122534552 -0.05259624
675027500.0 0.169947712 -0.059736684
690027000.0 0.214537744 -0.052077084
705026500.0 0.249006288 -0.025506996
720026000.0 0.273075072 0.017104544
735025500.0 0.283234208 0.068620344
750025000.0 0.270125376 0.126394776
765024500.0 0.227216496 0.184321408
780024000.0 0.154568752 0.2266852
795023500.0 0.06795676 0.225280272
810023000.0 -0.016435078 0.189080672
825022500.0 -0.083790728 0.131502464
840022000.0 -0.125832152 0.055448648
855021500.0 -0.149771024 -0.02717023
870021000.0 -0.164324224 -0.118331856
885020500.0 -0.169428272 -0.228238032
900020000.0 -0.157487936 -0.357741888
915019500.0 -0.202761632 -0.370284896
930019000.0 -0.260139616 -0.366614112
945018500.0 -0.310939232 -0.33451376
960018000.0 -0.353298016 -0.280851616
975017500.0 -0.378362528 -0.216838656
990017000.0 -0.367376288 -0.144168208
1005016500.0 -0.346761312 -0.077445888
1020016000.0 -0.30571936 -0.037248672
1035015500.0 -0.246909312 -0.004798811
1050015000.0 -0.184876832 0.003129196
1065014500.0 -0.140526976 0.001413723
1080014000.0 -0.08848628 -0.019889678
1095013500.0 -0.054763232 -0.056517308
1110013000.0 -0.02997276 -0.082652192
1125012500.0 -0.029560532 -0.138355728
1140012000.0 -0.031930446 -0.16576672
1155011500.0 -0.049108004 -0.201014224
1170011000.0 -0.101468832 -0.206130192
1185010500.0 -0.123963976 -0.187658192
1200010000.0 -0.151069648 -0.153989856
1215009500.0 -0.15597072 -0.116222808
1230009000.0 -0.133789536 -0.087888688
1245008500.0 -0.10160568 -0.049220252
1260008000.0 -0.071885384 -0.05072352
1275007500.0 -0.037420356 -0.044383856
1290007000.0 -0.003426782 -0.064193092
1305006500.0 0.027431206 -0.079694592
1320006000.0 0.025995288 -0.122594264
1335005500.0 0.010489866 -0.141312912
1350005000.0 -0.012155424 -0.18254192
1365004500.0 -0.051533888 -0.174602224
1380004000.0 -0.10031724 -0.16371744
1395003500.0 -0.152683744 -0.113714368
1410003000.0 -0.157608704 -0.056619752
1425002500.0 -0.132650776 0.00058291
1440002000.0 -0.100589056 0.078178752
1455001500.0 -0.06225084 0.118052952
1470001000.0 -0.001105626 0.15041696
1485000500.0 0.077775312 0.185240752
1500000000.0 0.14204056 0.15072424
