! Created with skrf 1.8.0 (http://scikit-rf.org).
# Hz S RI R 50.0 
!freq ReS11 ImS11
50000.0 0.99663456 0.000579003
15049500.0 0.939054464 0.360309216
30049000.0 0.749413952 0.672425792
45048500.0 0.461234784 0.891472704
60048000.0 0.103029136 1.012971998
75047500.0 -0.273249088 0.987437184
90047000.0 -0.619016128 0.819148928
105046500.0 -0.890348736 0.545477696
120046000.0 -1.04110074 0.18511176
135045500.0 -1.044320224 -0.209400512
150045000.0 -0.91407904 -0.585551296
165044500.0 -0.64764064 -0.883564672
180044000.0 -0.314448928 -1.04314196
195043500.0 0.06394712 -1.100158456
210043000.0 0.43378464 -1.021282792
225042500.0 0.751034944 -0.821122496
240042000.0 0.994039616 -0.540743296
255041500.0 1.135086064 -0.188633216
270041000.0 1.149675488 0.22013488
285040500.0 1.020778418 0.632547904
300040000.0 0.688852864 0.956978496
315039500.0 0.319266304 1.189910656
330039000.0 -0.137951728 1.254925488
345038500.0 -0.591321472 1.140456192
360038000.0 -0.965484736 0.871436032
375037500.0 -1.252633456 0.475360768
390037000.0 -1.384253152 -0.014851358
405036500.0 -1.289377696 -0.5178376
420036000.0 -1.035954712 -0.963121792
435035500.0 -0.632947456 -1.268824224
450035000.0 -0.163212208 -1.40375136
465034500.0 0.298026592 -1.377491104
480034000.0 0.726750464 -1.21445096
495033500.0 1.071724536 -0.915185728
510033000.0 1.310274496 -0.526429056
525032500.0 1.406473408 -0.070658832
540032000.0 1.357915168 0.383046976
555031500.0 1.1527828 0.80245856
570031000.0 0.809631104 1.111576912
585030500.0 0.391667904 1.280670656
600030000.0 -0.04770164 1.339248192
615029500.0 -0.495103264 1.221251376
630029000.0 -0.874747712 0.957451392
645028500.0 -1.165937424 0.579359744
660028000.0 -1.30608928 0.098791864
675027500.0 -1.2587688 -0.388722432
690027000.0 -1.003528834 -0.859473216
705026500.0 -0.6056288 -1.164057024
720026000.0 -0.133789792 -1.259964464
735025500.0 0.321562336 -1.207765104
750025000.0 0.711032896 -1.000101447
765024500.0 1.002573967 -0.654081152
780024000.0 1.169315456 -0.259274032
795023500.0 1.1013298 0.214717664
810023000.0 0.861231424 0.555702464
825022500.0 0.557162304 0.7385328
840022000.0 0.275525632 0.780024704
855021500.0 0.053089828 0.76109984
870021000.0 -0.127016528 0.733402816
885020500.0 -0.299009184 0.720226624
900020000.0 -0.526834848 0.743424
915019500.0 -0.512913536 0.745270528
930019000.0 -0.493813856 0.746596992
945018500.0 -0.474219232 0.745868864
960018000.0 -0.459210656 0.745456
975017500.0 -0.448935744 0.75030432
990017000.0 -0.420076032 0.760621056
1005016500.0 -0.405812096 0.7724016
1020016000.0 -0.386054272 0.778479552
1035015500.0 -0.355741376 0.778080192
1050015000.0 -0.362350176 0.800872512
1065014500.0 -0.313499808 0.796376576
1080014000.0 -0.290321024 0.805311552
1095013500.0 -0.268490688 0.806818752
1110013000.0 -0.240401712 0.814255744
1125012500.0 -0.217827952 0.790734912
1140012000.0 -0.190597408 0.823418112
1155011500.0 -0.165291584 0.839057536
1170011000.0 -0.134059576 0.842741248
1185010500.0 -0.094045256 0.832733824
1200010000.0 -0.06613414 0.8193776
1215009500.0 -0.036215228 0.828156352
1230009000.0 -9.1341e-05 0.832764096
1245008500.0 0.02835101 0.823537536
1260008000.0 0.059905616 0.835023744
1275007500.0 0.097226384 0.832812032
1290007000.0 0.111661504 0.828454656
1305006500.0 0.151289024 0.813929536
1320006000.0 0.19370968 0.808106368
1335005500.0 0.205970496 0.81587776
1350005000.0 0.242405648 0.8041872
1365004500.0 0.24782224 0.799457664
1380004000.0 0.310384416 0.762912768
1395003500.0 0.31641328 0.737589568
1410003000.0 0.342551008 0.726211904
1425002500.0 0.36694464 0.714819456
1440002000.0 0.382471392 0.70534496
1455001500.0 0.395879008 0.682631552
1470001000.0 0.434498176 0.672967232
1485000500.0 0.440053568 0.63791776
1500000000.0 0.491803168 0.634952384
