! Created with skrf 1.8.0 (http://scikit-rf.org).
# Hz S RI R 50.0 
!freq ReS11 ImS11
50000.0 -4.0932176443517905e-05 -0.00020374393973719273
15049500.0 0.006281650708930679 -0.014306078604227349
30049000.0 0.001567152518978327 -0.002850236257445993
45048500.0 0.00012609430534769655 0.001048172832796346
60048000.0 0.0003443733940688896 -0.00025155616406672825
75047500.0 -0.0007689868001102165 -0.0007022357103296802
90047000.0 -0.0003594808405938667 -0.00016952220872908197
105046500.0 0.0007359915504602532 0.0019955350502384502
120046000.0 2.164840158312806e-05 0.00010387050891134535
135045500.0 -0.0004165067375657548 0.00078161303062985
150045000.0 0.0016204280731511062 0.0006947572015540701
165044500.0 1.058218292403783e-05 -3.1624474995715064e-05
180044000.0 -0.00023818854804505646 0.0002124268608697756
195043500.0 -3.3514712680099015e-05 -0.0045205392295314464
210043000.0 0.00028883774758776357 -0.0002126816910814632
225042500.0 0.0008002041379438461 -0.0008642075901037037
240042000.0 0.006158119226742963 -0.0010434013284061554
255041500.0 0.0005482257238322091 -0.0007364854075146226
270041000.0 -0.0014228185487982874 0.00029705090639094384
285040500.0 -0.009922619702420052 -0.0026539021432439884
300040000.0 -0.0029649839644859226 0.002856092760255395
315039500.0 -0.00033861693842926374 0.0005966933212904302
330039000.0 -0.004670116927769136 0.0032957335672427544
345038500.0 0.00015428807756233005 -0.001325435828825889
360038000.0 -0.00022822418081445614 0.002639987110299708
375037500.0 -0.00043747343071785734 0.00041738341937574925
390037000.0 -0.022389057973930957 -0.016741072744936993
405036500.0 -0.0007202313178753215 -0.005390081051424813
420036000.0 -0.002016410942641403 0.0010453485903355077
435035500.0 0.002145288164693169 -0.0015751632062523083
450035000.0 0.0049742649980898624 0.0017184073120250652
465034500.0 0.0004228495310944311 0.0012897654887357747
480034000.0 0.00015100218484702843 -0.0022253746877331617
495033500.0 0.0009854067160201074 -0.0011244956993727555
510033000.0 0.0012273193394929224 0.04988730881566889
525032500.0 0.0002863513987383525 0.003055422067025033
540032000.0 -0.015391199795808563 0.018563822861689217
555031500.0 0.0017506723824984465 0.0016405542737771206
570031000.0 -0.0037610214217054442 -0.0007602787228281714
585030500.0 -0.03169833418853947 -0.04392472129516171
600030000.0 0.004583507917319889 0.0011602209494400533
615029500.0 -0.0007798796806414152 0.003248109133137283
630029000.0 -0.017978904237956003 0.01858171203502406
645028500.0 0.0003189033810046605 0.0038343654520568236
660028000.0 -0.005769820556527525 8.253562212575988e-05
675027500.0 0.0007526134722950256 0.0021680410780754423
690027000.0 0.007507418137291652 -0.006916303358023018
705026500.0 -0.001761903307708312 0.004274411398042767
720026000.0 -0.01675691805279741 -0.042953675026980324
735025500.0 0.03921408196834531 0.08568297027682811
750025000.0 -0.010440822491773616 0.006042523225550564
765024500.0 -0.013180912425505113 0.012116408173383239
780024000.0 -0.044319798830871504 0.03980395726752486
795023500.0 0.011725135514265315 -0.0005914776650967511
810023000.0 0.003584490818391551 0.006652861334762703
825022500.0 0.0005470408030079947 0.0012017325981953822
840022000.0 0.004203106502639544 0.0008447412481673033
855021500.0 0.0023895551092818945 -0.012791760004530976
870021000.0 0.0018890254058325313 0.0018362188584832414
885020500.0 -0.007806830799231807 -0.013249622076492938
900020000.0 0.004032052402383347 -0.00447975752432512
915019500.0 0.001065737041519583 0.00021332504131177466
930019000.0 -0.02940004633013174 -0.07060005526119709
945018500.0 -0.017356229840867484 -0.0028173262703783683
960018000.0 -0.006012411276201728 0.0027224505194761045
975017500.0 0.009425049880690477 0.025389315482227226
990017000.0 0.004767912570625596 0.0036250009616818728
1005016500.0 -0.004454784077281345 0.002593425633093847
1020016000.0 -0.0054387149560585785 0.0030247895229942616
1035015500.0 -0.009566287389234799 0.0024752737585411505
1050015000.0 -0.02590525062828973 -0.025123909831455217
1065014500.0 0.007899840629056415 0.020076468200151455
1080014000.0 -0.004892105720202266 -0.05500476996348195
1095013500.0 0.021308311729719552 -0.013997593162839463
1110013000.0 -0.06067947254196721 -0.01960689359033922
1125012500.0 0.002608667853889483 -0.003456717336066932
1140012000.0 -0.0029019431108509774 -0.0014622606122690427
1155011500.0 0.010730708854259766 -0.008143264602554691
1170011000.0 -0.035285607271662404 -0.09434919325020887
1185010500.0 0.021741308841382496 0.007419555349916739
1200010000.0 -0.026382795188997343 0.01488102858715252
1215009500.0 -0.0019421878323102697 -0.02101608244057405
1230009000.0 0.005253041054155362 -0.005038377376793923
1245008500.0 -0.008651416514687494 0.009192980871298747
1260008000.0 0.003363069246303016 0.0032561124053280387
1275007500.0 -0.018181234100893416 0.059970228124069526
1290007000.0 -0.027740823463806456 -0.005829630480520676
1305006500.0 -0.012021695403979012 -0.07295450028871651
1320006000.0 -0.052966430842131026 0.027822979248192575
1335005500.0 0.09113343356083956 -0.16362575380892327
1350005000.0 -0.000430408723854087 -0.019750856386321982
1365004500.0 -0.0863892459632063 -0.014669119721824777
1380004000.0 0.01498304474421874 0.006681220517531951
1395003500.0 0.011034215992662917 -0.00979253603240916
1410003000.0 0.04692011422689372 -0.0014377173221339745
1425002500.0 -0.0026525083701293742 0.05252844433092682
1440002000.0 0.034117530956692 -0.00028042996214058336
1455001500.0 -0.07461420956533191 0.05772475908413314
1470001000.0 -0.012390075862323326 0.005523609598978769
1485000500.0 0.010876167752219872 0.0051053807545010125
1500000000.0 0.04074274028604485 0.035890134068832326
