! Created with skrf 1.8.0 (http://scikit-rf.org).
# Hz S RI R 50.0 
!freq ReS11 ImS11
50000.0 1.0023746906219602 -0.00011426227245766064
10049500.0 1.0021534181942349 0.10946216985652478
20049000.0 0.9875035103319342 0.2177531584462692
30048500.0 0.961368060710709 0.3228092205505289
40048000.0 0.9243367061250233 0.42311924425052666
50047500.0 0.8774400987516617 0.5231754366854768
60047000.0 0.8133022180905949 0.6195754893252542
70046500.0 0.7402591205467193 0.7035958932240534
80046000.0 0.6586846655870311 0.7779414023732137
90045500.0 0.5770331291540188 0.8372214431411679
100045000.0 0.48980743702539714 0.8992518022980575
110044500.0 0.3928418344124431 0.9521486400212664
120044000.0 0.28976826957929513 0.994053015733035
130043500.0 0.17288575765128597 0.9954699127982822
140043000.0 0.0724332467854991 1.0422002523447627
150042500.0 -0.04027830394339999 1.0481557558986108
160042000.0 -0.15453277184846267 1.0395520287081255
170041500.0 -0.2664755522023498 1.018789427408079
180041000.0 -0.3565188101414464 0.9910376194493123
190040500.0 -0.4604459036755681 0.9525897187941507
200040000.0 -0.5585927043717932 0.9040410444696214
210039500.0 -0.650614415957284 0.84623496474281
220039000.0 -0.7344988412073598 0.7803477773868805
230038500.0 -0.8094421244438357 0.7081478313930406
240038000.0 -0.8762734807591434 0.6317667490029337
250037500.0 -0.9380179757661085 0.5512431827686068
260037000.0 -0.9976501982702289 0.4612997657336007
270036500.0 -1.0544587377116108 0.3571603720270875
280036000.0 -1.1041171572364354 0.24404318931584054
290035500.0 -1.135826006904988 0.12495967501192143
300035000.0 -1.1174596169368611 -0.028358274404408884
310034500.0 -1.1587000798041736 -0.1408783302890627
320034000.0 -1.146277659793194 -0.26282778691414066
330033500.0 -1.1193710842141484 -0.3822484316731541
340033000.0 -1.078984215032559 -0.4995485827468121
350032500.0 -1.0272236259985748 -0.610709829538696
360032000.0 -0.9713621341614785 -0.7033217610643748
370031500.0 -0.9064157033673057 -0.8088321805622891
380031000.0 -0.8270470311809535 -0.9082083189132746
390030500.0 -0.7354194037692757 -0.999321885611933
400030000.0 -0.6320039252580839 -1.0801328389814466
410029500.0 -0.5188822140724682 -1.1484635733278694
420029000.0 -0.4020718473839011 -1.2008169732248866
430028500.0 -0.28135603925323266 -1.2369917949943066
440028000.0 -0.16198549349193384 -1.260776886857764
450027500.0 -0.046794187806478545 -1.2721031209143534
460027000.0 0.07056035786060409 -1.282461900230912
470026500.0 0.18713123033758697 -1.2818991174363867
480026000.0 0.3061714913034618 -1.2683599872076154
490025500.0 0.4289494559037278 -1.2427219543414967
500025000.0 0.550148941841521 -1.2054791834405316
510024500.0 0.6663793562445608 -1.1499306411130592
520024000.0 0.770908577853822 -1.0799775997912924
530023500.0 0.8712301754878979 -0.9962001512904445
540023000.0 0.9647525671178201 -0.8935701764952944
550022500.0 1.0400228153862408 -0.8109492717149738
560022000.0 1.1073211294782102 -0.718641815833587
570021500.0 1.1636877352439021 -0.6202532006946666
580021000.0 1.2103258788602798 -0.5181884326900706
590020500.0 1.234335574053116 -0.37883706895147046
600020000.0 1.2876924049104999 -0.2729014940135167
610019500.0 1.3027154099303422 -0.14985861962317268
620019000.0 1.3009344467673822 -0.024203843643241192
630018500.0 1.2795219123849315 0.10436657400890952
640018000.0 1.2538054181666913 0.22680563595548267
650017500.0 0.9658500290391904 0.020870086018760566
660017000.0 1.1529214161720225 0.4448233817367843
670016500.0 1.1010975133280148 0.5367445085970997
680016000.0 1.0379853173038354 0.6225820698321025
690015500.0 0.9693755719958799 0.6967642945396118
700015000.0 0.8969457569429943 0.7658693487140552
710014500.0 0.8250698917101792 0.8342802182419586
720014000.0 0.7445005512876728 0.8930655657590179
730013500.0 0.6590936623665955 0.9616250910775761
740013000.0 0.5676806509040324 1.0224139799801237
750012500.0 0.45757673980528635 1.0749629285343818
760012000.0 0.33364063447395426 1.1195898777847741
770011500.0 0.19592236209587266 1.1434916514509124
780011000.0 0.04620891840922942 1.1511446873007498
790010500.0 -0.0863947663683831 1.1151887591635317
800010000.0 -0.20802927430838444 1.0552868202727446
810009500.0 -0.303877630836417 0.9794405113522436
820009000.0 -0.3793825494155819 0.9084589284102086
830008500.0 -0.4331644981915088 0.8404301124922335
840008000.0 -0.4789848833914082 0.7870798979593228
850007500.0 -0.5146293024678193 0.7453790712721886
860007000.0 -0.5549612337793397 0.720131217872232
870006500.0 -0.6028674134169434 0.7094505038486137
880006000.0 -0.6751499415163581 0.710259564612329
890005500.0 -0.7631158786489475 0.7285457828217553
900005000.0 -0.9089495303742968 0.7491950484436312
910004500.0 -0.7508515085082773 0.9055142288104107
920004000.0 -0.6480557661758389 0.978472463953599
930003500.0 -0.4860160070561189 1.0673521949166316
940003000.0 -0.32183266954280804 1.1165779998961982
950002500.0 -0.15063257294519525 1.1472272847519196
960002000.0 0.023413488990025728 1.1529373822692461
970001500.0 0.2003543421405557 1.125600031194169
980001000.0 0.3626372532056454 1.0755598403691982
990000500.0 0.5147328993788979 0.9998287222823781
1000000000.0 0.653047855487038 0.895815583088757
