! Created with skrf 1.8.0 (http://scikit-rf.org).
# Hz S RI R 50.0 
!freq ReS11 ImS11
50000.0 -0.00012606739849407622 -0.0012969224567657774
10049500.0 -0.0006841569390708707 -0.0016173843773574646
20049000.0 -3.230380992413971e-05 -0.0001811146230418651
30048500.0 -0.0004561973708758714 0.00031224434884937375
40048000.0 0.0009137041471901486 0.00035031470144696394
50047500.0 9.969346305888278e-05 -0.00014618312757425761
60047000.0 -0.000146936914302947 -0.00010954006323952711
70046500.0 -7.609791488080631e-05 -2.4725488920630877e-05
80046000.0 0.00024656629868926916 0.00015844839560411614
90045500.0 -0.0006221236293569142 0.0002777834577174566
100045000.0 -1.0770901889027972e-05 -0.00012058623411002953
110044500.0 -0.002699853897166721 -0.00011414170032222574
120044000.0 -0.0003715351881497027 1.1009189462936587e-05
130043500.0 0.0010676393685486792 0.0004720737943215093
140043000.0 -0.00010225228957348604 -0.000324096854297834
150042500.0 -0.0019165701398223295 -0.003450166772352482
160042000.0 0.0005444514788062172 0.0007295026638750469
170041500.0 -0.00045647924810645474 -0.00015913084970394084
180041000.0 0.00036335396424578463 0.00042814944607369606
190040500.0 -0.00022247827327556244 5.445805338067819e-06
200040000.0 -0.0004535634168675755 -8.16771212111533e-05
210039500.0 0.00466722226151118 -0.0014831439551339024
220039000.0 -0.0007267905659491118 -0.0010322633988002355
230038500.0 -0.0003632550994526522 -0.00048762753729872767
240038000.0 -9.321758724251473e-05 -0.0005541636624098988
250037500.0 -0.00027629498085599566 0.0002498964580438826
260037000.0 -0.0011752383294057185 -0.0024190212157068677
270036500.0 0.0001696385890791038 -0.00033642153989251513
280036000.0 0.003889277788433458 0.0004896593991890293
290035500.0 0.0012920673618662803 5.6439079286423875e-05
300035000.0 0.0002750494680173076 -0.0018661326883723307
310034500.0 -0.004332940573902367 0.013356394695480703
320034000.0 -0.0013820529020614218 -0.001111186661233177
330033500.0 0.0003472925816981509 -0.0011715533296281747
340033000.0 0.005008526470727203 -0.0010167878575398914
350032500.0 0.00021178977111018893 -0.000248487609127303
360032000.0 0.00043916712240956666 -0.005354542608904916
370031500.0 0.0018180714745631356 0.012270957676397269
380031000.0 0.004170764048867876 -0.001300632260101499
390030500.0 -0.0019207746444695564 0.017953188053343425
400030000.0 -0.00835231548750049 0.0035272265853348206
410029500.0 0.0057636980298387775 0.021775659786709402
420029000.0 -0.0014495117356489028 -0.00611646485328247
430028500.0 0.006103710176540127 -0.002423106108448825
440028000.0 0.0032107962931273684 0.003770580207754972
450027500.0 -1.4115790168067556e-05 -0.002362057363220959
460027000.0 -0.0019453040403200985 0.0007114329704972075
470026500.0 0.01024474566639624 -0.0035772024451729304
480026000.0 -0.0014833541255077894 -0.0009539082759148467
490025500.0 0.0007688732653926393 0.0011804100067947451
500025000.0 0.018961616826641 -0.022292128913618526
510024500.0 0.002037450724269622 -0.0004897655875016845
520024000.0 -0.03782698455541455 -0.016650040245797006
530023500.0 0.00321658936616711 -0.0003404676337964837
540023000.0 0.0015920976136062342 -0.004145742872818245
550022500.0 0.03006017533783998 0.00791495836087759
560022000.0 0.0033824130438944223 -0.0015056024457526323
570021500.0 -0.0015808203983801732 -0.009727789926401633
580021000.0 0.00856449887771464 0.000874357959406422
590020500.0 -0.004175364379818673 -0.0009794727700445812
600020000.0 -6.143713079724512e-05 0.000726224697603406
610019500.0 0.006374303345008983 -0.005169308499505952
620019000.0 0.004719474886090806 0.00024392943325563492
630018500.0 -0.007161612993123728 -0.04205097839520239
640018000.0 -0.01827905072800345 0.002061302344629412
650017500.0 21.94080882578545 -17.549369876694772
660017000.0 -0.029249042285446912 0.0021297942077589307
670016500.0 -0.0004961031644376035 -0.002386560934453519
680016000.0 -0.0007646797542918261 0.0064540481781987435
690015500.0 -0.01758205115136398 0.008199577544894157
700015000.0 -0.00242418288869866 -0.006737590596246074
710014500.0 -0.004531415818888107 0.0023301028915076326
720014000.0 -0.00301768737879042 0.0013767277537003312
730013500.0 -0.022407520598518187 -0.007638270651914929
740013000.0 -0.0006617682310788706 -0.0025594625003274455
750012500.0 0.00105568598151506 0.0642348583562388
760012000.0 -0.005251173888290762 -0.0030663883848130002
770011500.0 -0.004418954147401193 -0.0005852251688216423
780011000.0 -0.012835077655645769 0.012340974996424866
790010500.0 0.0018528728585278749 0.0008228521594486304
800010000.0 0.0009691294040639222 0.005023635830152368
810009500.0 -0.004668952223219818 -0.004691324159479269
820009000.0 -0.011882523007410559 -0.002095923869128961
830008500.0 0.0023362171694752006 -0.0020154816018011783
840008000.0 0.003382202474798238 0.0007733250871449655
850007500.0 0.008715762730997506 0.044465980515204166
860007000.0 0.0008672907693343347 -0.002748897224824055
870006500.0 0.0037821282312397423 0.002950537356554558
880006000.0 0.0029362359469744716 -0.0027977426419085734
890005500.0 -0.0014572230111388122 -0.005332036621305407
900005000.0 0.015360452836745244 -0.001050700582199256
910004500.0 0.20114878160139948 -0.14903545169560511
920004000.0 -0.008548103296176796 0.02002711505564758
930003500.0 0.017346131954067437 -0.0120808089823771
940003000.0 -0.0033317074296149176 0.0011436178872028606
950002500.0 -0.005552243276288797 0.009965545608474315
960002000.0 -0.0012714144196690406 0.0013901648774808325
970001500.0 0.009727951327971994 0.0043588883692955195
980001000.0 -0.003210233169002403 -0.0034167898010613765
990000500.0 -0.002652399172068173 -7.772960838921039e-05
1000000000.0 -0.007433101253512513 0.014035591991068826
