! Created with skrf 1.8.0 (http://scikit-rf.org).
# Hz S RI R 50.0 
!freq ReS11 ImS11 ReS21 ImS21 ReS12 ImS12 ReS22 ImS22
50000.0 -0.006583312 -0.004154735 -0.8180384 -0.011180988 0.0 0.0 0.0 0.0
15049500.0 -0.001671621 0.005149482 -0.782142272 0.201493488 0.0 0.0 0.0 0.0
30049000.0 -0.004846068 0.007414109 -0.711627392 0.375988288 0.0 0.0 0.0 0.0
45048500.0 -0.010443578 0.007649532 -0.60271136 0.528549312 0.0 0.0 0.0 0.0
60048000.0 -0.01723591 0.005532809 -0.464441184 0.650026688 0.0 0.0 0.0 0.0
75047500.0 -0.024334626 0.000995058 -0.304553952 0.73465664 0.0 0.0 0.0 0.0
90047000.0 -0.030428906 -0.005985736 -0.123195224 0.77954432 0.0 0.0 0.0 0.0
105046500.0 -0.034403468 -0.013836802 0.056456888 0.786121152 0.0 0.0 0.0 0.0
120046000.0 -0.035921552 -0.021912246 0.229197376 0.752109056 0.0 0.0 0.0 0.0
135045500.0 -0.034206748 -0.029162634 0.389593056 0.68007104 0.0 0.0 0.0 0.0
150045000.0 -0.030543142 -0.034659048 0.5305696 0.576136064 0.0 0.0 0.0 0.0
165044500.0 -0.02483583 -0.0373627 0.643792128 0.44333808 0.0 0.0 0.0 0.0
180044000.0 -0.019066414 -0.034766432 0.725261888 0.29008272 0.0 0.0 0.0 0.0
195043500.0 -0.013807178 -0.030633156 0.771314432 0.122279264 0.0 0.0 0.0 0.0
210043000.0 -0.010423086 -0.023564128 0.778327552 -0.05254262 0.0 0.0 0.0 0.0
225042500.0 -0.009712554 -0.014931466 0.745575808 -0.224647008 0.0 0.0 0.0 0.0
240042000.0 -0.012515824 -0.006255286 0.673627776 -0.385408096 0.0 0.0 0.0 0.0
255041500.0 -0.018557396 0.000375487 0.567530496 -0.52563168 0.0 0.0 0.0 0.0
270041000.0 -0.026711932 0.00310295 0.432084192 -0.636581504 0.0 0.0 0.0 0.0
285040500.0 -0.03570198 0.001208326 0.27640352 -0.71292736 0.0 0.0 0.0 0.0
300040000.0 -0.041374328 -0.006310586 0.12540756 -0.752119168 0.0 0.0 0.0 0.0
315039500.0 -0.04578008 -0.017285558 -0.047218404 -0.760221056 0.0 0.0 0.0 0.0
330039000.0 -0.044446988 -0.031301894 -0.2127028 -0.727274688 0.0 0.0 0.0 0.0
345038500.0 -0.033043488 -0.048499684 -0.369375904 -0.663264384 0.0 0.0 0.0 0.0
360038000.0 -0.014924712 -0.064289564 -0.504474336 -0.56301888 0.0 0.0 0.0 0.0
375037500.0 0.011588806 -0.076765544 -0.616099968 -0.438069408 0.0 0.0 0.0 0.0
390037000.0 0.046130952 -0.079923736 -0.69677536 -0.295285696 0.0 0.0 0.0 0.0
405036500.0 0.082959472 -0.07548784 -0.737252736 -0.131735384 0.0 0.0 0.0 0.0
420036000.0 0.122319744 -0.059859868 -0.74084768 0.032367434 0.0 0.0 0.0 0.0
435035500.0 0.158328 -0.034170008 -0.704106816 0.194737792 0.0 0.0 0.0 0.0
450035000.0 0.185107936 0.00134678 -0.630166336 0.34217424 0.0 0.0 0.0 0.0
465034500.0 0.204104048 0.0448242 -0.52588832 0.472339712 0.0 0.0 0.0 0.0
480034000.0 0.208889584 0.089773496 -0.3997824 0.570396352 0.0 0.0 0.0 0.0
495033500.0 0.201079296 0.133635864 -0.258704336 0.636468928 0.0 0.0 0.0 0.0
510033000.0 0.177947872 0.171219968 -0.111421328 0.669674752 0.0 0.0 0.0 0.0
525032500.0 0.144773328 0.196183456 0.037302324 0.67225184 0.0 0.0 0.0 0.0
540032000.0 0.101182408 0.205406448 0.179995952 0.643230592 0.0 0.0 0.0 0.0
555031500.0 0.065764172 0.195906048 0.314619936 0.588295488 0.0 0.0 0.0 0.0
570031000.0 0.035358156 0.171736768 0.432168704 0.505810752 0.0 0.0 0.0 0.0
585030500.0 0.013202814 0.136969872 0.53455328 0.40028368 0.0 0.0 0.0 0.0
600030000.0 0.001803514 0.09420396 0.609669696 0.281312064 0.0 0.0 0.0 0.0
615029500.0 0.007079407 0.046106536 0.656240256 0.139466288 0.0 0.0 0.0 0.0
630029000.0 0.030075418 0.001928584 0.669930112 -0.010473318 0.0 0.0 0.0 0.0
645028500.0 0.064437388 -0.034201436 0.64810912 -0.161080736 0.0 0.0 0.0 0.0
660028000.0 0.110854344 -0.057229272 0.59098528 -0.301454848 0.0 0.0 0.0 0.0
675027500.0 0.1580236 -0.066352984 0.503903616 -0.423700448 0.0 0.0 0.0 0.0
690027000.0 0.203228528 -0.059899268 0.393514176 -0.519725216 0.0 0.0 0.0 0.0
705026500.0 0.24084384 -0.037802156 0.267047904 -0.585423488 0.0 0.0 0.0 0.0
720026000.0 0.266182128 0.004706892 0.129705968 -0.624954944 0.0 0.0 0.0 0.0
735025500.0 0.279082976 0.05748862 -0.007741545 -0.628611264 0.0 0.0 0.0 0.0
750025000.0 0.268659936 0.114959128 -0.139994512 -0.607071488 0.0 0.0 0.0 0.0
765024500.0 0.22754664 0.173587664 -0.265881952 -0.560689792 0.0 0.0 0.0 0.0
780024000.0 0.161857088 0.216607504 -0.369671488 -0.492275392 0.0 0.0 0.0 0.0
795023500.0 0.072310176 0.222361392 -0.473565792 -0.39218496 0.0 0.0 0.0 0.0
810023000.0 -0.011630466 0.18822752 -0.547710272 -0.278086944 0.0 0.0 0.0 0.0
825022500.0 -0.078962848 0.134565728 -0.594714048 -0.148490464 0.0 0.0 0.0 0.0
840022000.0 -0.123481848 0.058827236 -0.6117392 -0.01056152 0.0 0.0 0.0 0.0
855021500.0 -0.149263168 -0.020740996 -0.59655712 0.127283352 0.0 0.0 0.0 0.0
870021000.0 -0.166601088 -0.110074792 -0.551358976 0.257900976 0.0 0.0 0.0 0.0
885020500.0 -0.17265432 -0.214686096 -0.477746304 0.373266464 0.0 0.0 0.0 0.0
900020000.0 -0.168988816 -0.344485792 -0.364102816 0.472297376 0.0 0.0 0.0 0.0
915019500.0 -0.206828912 -0.359076224 -0.249706 0.541192 0.0 0.0 0.0 0.0
930019000.0 -0.266039968 -0.348787328 -0.12963392 0.576366528 0.0 0.0 0.0 0.0
945018500.0 -0.318571904 -0.321654688 -0.006989704 0.594245248 0.0 0.0 0.0 0.0
960018000.0 -0.356611264 -0.263967872 0.120299112 0.584982336 0.0 0.0 0.0 0.0
975017500.0 -0.370670784 -0.208769216 0.236212656 0.54829408 0.0 0.0 0.0 0.0
990017000.0 -0.373237248 -0.146134816 0.356552864 0.494953408 0.0 0.0 0.0 0.0
1005016500.0 -0.341273888 -0.088340432 0.45746864 0.413805824 0.0 0.0 0.0 0.0
1020016000.0 -0.29579248 -0.032810372 0.550898304 0.311776064 0.0 0.0 0.0 0.0
1035015500.0 -0.250207248 -0.010323866 0.620661824 0.186184336 0.0 0.0 0.0 0.0
1050015000.0 -0.18365928 0.002255111 0.648172928 0.034218764 0.0 0.0 0.0 0.0
1065014500.0 -0.134327424 -0.006539726 0.663540224 -0.117277896 0.0 0.0 0.0 0.0
1080014000.0 -0.092912 -0.023339322 0.630169984 -0.274544768 0.0 0.0 0.0 0.0
1095013500.0 -0.053326184 -0.053045588 0.556981632 -0.416748512 0.0 0.0 0.0 0.0
1110013000.0 -0.04036914 -0.089642488 0.443470016 -0.548072128 0.0 0.0 0.0 0.0
1125012500.0 -0.037697564 -0.139597472 0.310862944 -0.629502464 0.0 0.0 0.0 0.0
1140012000.0 -0.047884292 -0.173139184 0.156165152 -0.691190976 0.0 0.0 0.0 0.0
1155011500.0 -0.081198416 -0.189626576 0.012722064 -0.72401632 0.0 0.0 0.0 0.0
1170011000.0 -0.10509108 -0.194074784 -0.189296048 -0.699574592 0.0 0.0 0.0 0.0
1185010500.0 -0.133204224 -0.176906736 -0.327480192 -0.681835776 0.0 0.0 0.0 0.0
1200010000.0 -0.16843144 -0.141747184 -0.481382912 -0.601176064 0.0 0.0 0.0 0.0
1215009500.0 -0.153722832 -0.107377144 -0.60870816 -0.496590688 0.0 0.0 0.0 0.0
1230009000.0 -0.1553496 -0.065218552 -0.729039424 -0.354312384 0.0 0.0 0.0 0.0
1245008500.0 -0.124434856 -0.037576408 -0.8246848 -0.193371968 0.0 0.0 0.0 0.0
1260008000.0 -0.07441876 -0.017945488 -0.86161472 -0.022116806 0.0 0.0 0.0 0.0
1275007500.0 -0.037480988 -0.02139437 -0.873672256 0.185645968 0.0 0.0 0.0 0.0
1290007000.0 -0.00729307 -0.049664896 -0.816905664 0.38160256 0.0 0.0 0.0 0.0
1305006500.0 0.034576448 -0.073735584 -0.733780032 0.557989568 0.0 0.0 0.0 0.0
1320006000.0 0.025062924 -0.114299392 -0.59191168 0.710172544 0.0 0.0 0.0 0.0
1335005500.0 0.022348864 -0.151550288 -0.425913664 0.809494336 0.0 0.0 0.0 0.0
1350005000.0 -0.001500319 -0.156598512 -0.243588208 0.887539136 0.0 0.0 0.0 0.0
1365004500.0 -0.048027232 -0.145867648 -0.055196316 0.885598144 0.0 0.0 0.0 0.0
1380004000.0 -0.082798216 -0.135957248 0.112570288 0.940433984 0.0 0.0 0.0 0.0
1395003500.0 -0.09580496 -0.096690984 0.300436192 0.91457856 0.0 0.0 0.0 0.0
1410003000.0 -0.131454664 -0.057333572 0.463504352 0.836404992 0.0 0.0 0.0 0.0
1425002500.0 -0.137674624 0.01817843 0.622246912 0.755861696 0.0 0.0 0.0 0.0
1440002000.0 -0.08010216 0.044551212 0.777759232 0.641069696 0.0 0.0 0.0 0.0
1455001500.0 -0.0587154 0.120785032 0.87582592 0.473433024 0.0 0.0 0.0 0.0
1470001000.0 0.00926618 0.172963184 0.971723456 0.324985536 0.0 0.0 0.0 0.0
1485000500.0 0.061598044 0.149267648 1.011648774 0.134927056 0.0 0.0 0.0 0.0
1500000000.0 0.141068656 0.134948128 1.01780212 -0.094996512 0.0 0.0 0.0 0.0
