! Created with skrf 1.8.0 (http://scikit-rf.org).
# Hz S RI R 50.0 
!freq ReS11 ImS11 ReS21 ImS21 ReS12 ImS12 ReS22 ImS22
50000.0 -0.006623413 -0.004364171 -0.818918336 -0.013150174 0.0 0.0 0.0 0.0
15049500.0 -0.004113402 0.003816494 -0.784683136 0.200704144 0.0 0.0 0.0 0.0
30049000.0 -0.00700167 0.005584836 -0.714744832 0.3757992 0.0 0.0 0.0 0.0
45048500.0 -0.012182032 0.00561588 -0.605950656 0.529309696 0.0 0.0 0.0 0.0
60048000.0 -0.018315824 0.003614172 -0.467913568 0.651652224 0.0 0.0 0.0 0.0
75047500.0 -0.02467822 -0.000344525 -0.307680096 0.736958528 0.0 0.0 0.0 0.0
90047000.0 -0.030474252 -0.005902014 -0.126149384 0.782612224 0.0 0.0 0.0 0.0
105046500.0 -0.034579584 -0.012331626 0.05408168 0.789498112 0.0 0.0 0.0 0.0
120046000.0 -0.03657616 -0.018961108 0.227678896 0.756436416 0.0 0.0 0.0 0.0
135045500.0 -0.035876328 -0.024606932 0.388540576 0.68513312 0.0 0.0 0.0 0.0
150045000.0 -0.033861304 -0.02892734 0.530186944 0.581174464 0.0 0.0 0.0 0.0
165044500.0 -0.030015508 -0.03089729 0.64527392 0.449309152 0.0 0.0 0.0 0.0
180044000.0 -0.026138352 -0.028051994 0.727989696 0.295797152 0.0 0.0 0.0 0.0
195043500.0 -0.022977966 -0.024444916 0.775631232 0.127128888 0.0 0.0 0.0 0.0
210043000.0 -0.02128611 -0.018220296 0.78390656 -0.048671984 0.0 0.0 0.0 0.0
225042500.0 -0.021970016 -0.011017112 0.751934976 -0.222302256 0.0 0.0 0.0 0.0
240042000.0 -0.025596554 -0.004082205 0.680480384 -0.38441008 0.0 0.0 0.0 0.0
255041500.0 -0.031841882 0.0008731 0.57417056 -0.526089728 0.0 0.0 0.0 0.0
270041000.0 -0.03953694 0.001614704 0.438331136 -0.638526464 0.0 0.0 0.0 0.0
285040500.0 -0.047282228 -0.001853673 0.282526496 -0.717295488 0.0 0.0 0.0 0.0
300040000.0 -0.050406392 -0.009603974 0.12881748 -0.758160832 0.0 0.0 0.0 0.0
315039500.0 -0.053001652 -0.021691594 -0.042034356 -0.76427552 0.0 0.0 0.0 0.0
330039000.0 -0.049677804 -0.036719304 -0.208430592 -0.732999168 0.0 0.0 0.0 0.0
345038500.0 -0.037605932 -0.05202418 -0.365177824 -0.6694704 0.0 0.0 0.0 0.0
360038000.0 -0.018270322 -0.066065004 -0.504881984 -0.569558016 0.0 0.0 0.0 0.0
375037500.0 0.01006434 -0.074833752 -0.616980864 -0.44513632 0.0 0.0 0.0 0.0
390037000.0 0.043372184 -0.078674672 -0.699788608 -0.297559008 0.0 0.0 0.0 0.0
405036500.0 0.079697448 -0.06971916 -0.74207168 -0.138583408 0.0 0.0 0.0 0.0
420036000.0 0.118056424 -0.05368642 -0.746958912 0.026442768 0.0 0.0 0.0 0.0
435035500.0 0.153079376 -0.026342868 -0.712614208 0.190961008 0.0 0.0 0.0 0.0
450035000.0 0.17806776 0.010074446 -0.638863808 0.341351968 0.0 0.0 0.0 0.0
465034500.0 0.195826656 0.050685236 -0.534735136 0.47338096 0.0 0.0 0.0 0.0
480034000.0 0.198854848 0.0959186 -0.407691424 0.572456832 0.0 0.0 0.0 0.0
495033500.0 0.18832136 0.137313856 -0.266816176 0.639949952 0.0 0.0 0.0 0.0
510033000.0 0.1672772 0.171952224 -0.117858752 0.674388992 0.0 0.0 0.0 0.0
525032500.0 0.13411376 0.1947108 0.03238058 0.677452352 0.0 0.0 0.0 0.0
540032000.0 0.094533384 0.202296048 0.176164304 0.649111232 0.0 0.0 0.0 0.0
555031500.0 0.061043832 0.193708064 0.312341728 0.594519104 0.0 0.0 0.0 0.0
570031000.0 0.034257892 0.169157344 0.433618528 0.511859648 0.0 0.0 0.0 0.0
585030500.0 0.014647394 0.13336572 0.536447584 0.406063552 0.0 0.0 0.0 0.0
600030000.0 0.007808171 0.093226256 0.611578752 0.290001024 0.0 0.0 0.0 0.0
615029500.0 0.016483506 0.04868708 0.66119648 0.145516976 0.0 0.0 0.0 0.0
630029000.0 0.040171628 0.006377911 0.674572224 -0.005259973 0.0 0.0 0.0 0.0
645028500.0 0.076115632 -0.026260818 0.654753792 -0.156764768 0.0 0.0 0.0 0.0
660028000.0 0.1210336 -0.046528352 0.59766752 -0.298518048 0.0 0.0 0.0 0.0
675027500.0 0.165920544 -0.052405776 0.511062848 -0.421324544 0.0 0.0 0.0 0.0
690027000.0 0.209811808 -0.044065956 0.399577216 -0.520078944 0.0 0.0 0.0 0.0
705026500.0 0.24452024 -0.0188439 0.273942848 -0.588450112 0.0 0.0 0.0 0.0
720026000.0 0.26805496 0.022504636 0.136852832 -0.62498592 0.0 0.0 0.0 0.0
735025500.0 0.277230336 0.074770912 -0.004226302 -0.634009536 0.0 0.0 0.0 0.0
750025000.0 0.26389912 0.13174228 -0.13705544 -0.615854784 0.0 0.0 0.0 0.0
765024500.0 0.224075056 0.189125216 -0.262032512 -0.566624192 0.0 0.0 0.0 0.0
780024000.0 0.154120208 0.224264672 -0.365938336 -0.498541216 0.0 0.0 0.0 0.0
795023500.0 0.06430544 0.22703976 -0.472906528 -0.399956 0.0 0.0 0.0 0.0
810023000.0 -0.018907906 0.191135584 -0.548290368 -0.28641392 0.0 0.0 0.0 0.0
825022500.0 -0.083802192 0.134242992 -0.59688672 -0.155116432 0.0 0.0 0.0 0.0
840022000.0 -0.12465056 0.058094432 -0.617068672 -0.01722633 0.0 0.0 0.0 0.0
855021500.0 -0.150216448 -0.024747852 -0.603268096 0.121860344 0.0 0.0 0.0 0.0
870021000.0 -0.164814416 -0.114342624 -0.557510912 0.254116304 0.0 0.0 0.0 0.0
885020500.0 -0.167975392 -0.220300464 -0.487187424 0.370542784 0.0 0.0 0.0 0.0
900020000.0 -0.159230784 -0.350532416 -0.37020544 0.476040288 0.0 0.0 0.0 0.0
915019500.0 -0.20064392 -0.362207488 -0.252680592 0.542728448 0.0 0.0 0.0 0.0
930019000.0 -0.2519604 -0.364933152 -0.132234248 0.582727552 0.0 0.0 0.0 0.0
945018500.0 -0.313441536 -0.334789536 -0.007332617 0.596739008 0.0 0.0 0.0 0.0
960018000.0 -0.357949312 -0.284594272 0.116805408 0.586838976 0.0 0.0 0.0 0.0
975017500.0 -0.380318688 -0.213113632 0.230621664 0.55881984 0.0 0.0 0.0 0.0
990017000.0 -0.367026144 -0.151350736 0.353518624 0.49997392 0.0 0.0 0.0 0.0
1005016500.0 -0.352111296 -0.08684116 0.456252448 0.42052032 0.0 0.0 0.0 0.0
1020016000.0 -0.310299328 -0.0370467 0.549890752 0.314469472 0.0 0.0 0.0 0.0
1035015500.0 -0.253955808 -0.002151619 0.616606976 0.194305936 0.0 0.0 0.0 0.0
1050015000.0 -0.199602432 0.014582866 0.66410176 0.040297432 0.0 0.0 0.0 0.0
1065014500.0 -0.145237536 0.000449797 0.664259776 -0.109344352 0.0 0.0 0.0 0.0
1080014000.0 -0.09385696 -0.013197136 0.636252992 -0.263308976 0.0 0.0 0.0 0.0
1095013500.0 -0.048933356 -0.035159072 0.564110528 -0.415823904 0.0 0.0 0.0 0.0
1110013000.0 -0.032411366 -0.07929196 0.457236416 -0.543021568 0.0 0.0 0.0 0.0
1125012500.0 -0.020319268 -0.126781136 0.320476288 -0.632644288 0.0 0.0 0.0 0.0
1140012000.0 -0.026519114 -0.166914928 0.162839888 -0.700975744 0.0 0.0 0.0 0.0
1155011500.0 -0.05053288 -0.19673336 -0.004745593 -0.710284416 0.0 0.0 0.0 0.0
1170011000.0 -0.083139808 -0.20196144 -0.163043808 -0.708112576 0.0 0.0 0.0 0.0
1185010500.0 -0.123856816 -0.17576 -0.330476736 -0.674863424 0.0 0.0 0.0 0.0
1200010000.0 -0.144134848 -0.145923328 -0.479179008 -0.609271168 0.0 0.0 0.0 0.0
1215009500.0 -0.141883984 -0.12935072 -0.611592576 -0.511203872 0.0 0.0 0.0 0.0
1230009000.0 -0.126759592 -0.087459664 -0.734116224 -0.374609216 0.0 0.0 0.0 0.0
1245008500.0 -0.111768992 -0.058715528 -0.819246528 -0.208831728 0.0 0.0 0.0 0.0
1260008000.0 -0.073817656 -0.037751888 -0.86961568 -0.01156736 0.0 0.0 0.0 0.0
1275007500.0 -0.03778188 -0.03666338 -0.8857872 0.172844784 0.0 0.0 0.0 0.0
1290007000.0 0.020159628 -0.047639792 -0.829363712 0.355878368 0.0 0.0 0.0 0.0
1305006500.0 0.027302826 -0.069556904 -0.737408832 0.550790464 0.0 0.0 0.0 0.0
1320006000.0 0.038978964 -0.113226024 -0.602462464 0.705867648 0.0 0.0 0.0 0.0
1335005500.0 0.016363732 -0.145798592 -0.43892992 0.822663552 0.0 0.0 0.0 0.0
1350005000.0 -0.00812883 -0.182447936 -0.260211232 0.889517568 0.0 0.0 0.0 0.0
1365004500.0 -0.006202152 -0.163092144 -0.032221924 0.944867072 0.0 0.0 0.0 0.0
1380004000.0 -0.086963416 -0.150899184 0.10735644 0.942685056 0.0 0.0 0.0 0.0
1395003500.0 -0.132753832 -0.129171952 0.299736096 0.908015424 0.0 0.0 0.0 0.0
1410003000.0 -0.14562824 -0.077624008 0.464599744 0.86014816 0.0 0.0 0.0 0.0
1425002500.0 -0.145631392 0.002720273 0.615206784 0.755531456 0.0 0.0 0.0 0.0
1440002000.0 -0.101136312 0.064811884 0.774097152 0.639466496 0.0 0.0 0.0 0.0
1455001500.0 -0.08165568 0.1264164 0.890620096 0.486489504 0.0 0.0 0.0 0.0
1470001000.0 0.002157309 0.145528704 0.97752896 0.319368032 0.0 0.0 0.0 0.0
1485000500.0 0.058965804 0.137266144 1.034704088 0.130343112 0.0 0.0 0.0 0.0
1500000000.0 0.124097072 0.166454048 1.045975564 -0.086136072 0.0 0.0 0.0 0.0
